Time Stamp,ID,Extended,Dir,Bus,LEN,D1,D2,D3,D4,D5,D6,D7,D8
307398162,02C13428,true,Rx,0,8,80,00,D8,80,88,00,20,00,
307399284,02E10DF4,true,Rx,0,8,80,A9,00,20,80,30,08,10,
307402219,02A03028,true,Rx,0,8,00,90,84,11,10,2C,00,00,
307404122,01C030A2,true,Rx,0,8,C0,5B,40,01,89,01,14,00,
307405274,0280142A,true,Rx,0,8,80,10,00,20,07,00,00,00,
307407040,0261300A,true,Rx,0,8,80,00,00,27,80,40,00,C0,
307408193,00613DF8,true,Rx,0,8,83,00,06,40,00,00,00,00,
307409325,01213FFC,true,Rx,0,8,CC,02,4D,00,F0,00,88,00,
307411879,0140044A,true,Rx,0,8,C0,00,00,0B,00,00,00,00,
307416346,02001022,true,Rx,0,8,00,00,00,01,35,90,10,40,
307420871,01E01266,true,Rx,0,8,C0,00,02,00,00,00,40,00,
307426971,0240102A,true,Rx,0,8,C1,00,00,00,00,00,00,00,
307428122,00613DF8,true,Rx,0,8,C1,00,06,40,00,00,00,00,
307429295,01800028,true,Rx,0,8,80,00,78,00,00,00,00,00,
307432230,01213FFC,true,Rx,0,8,0C,02,4D,00,E0,40,88,00,
307435103,0280142A,true,Rx,0,8,C0,50,00,20,07,00,00,00,
307437141,0261300A,true,Rx,0,8,C0,00,00,27,80,40,00,C0,
307438261,02A03028,true,Rx,0,8,00,90,D4,19,10,2C,80,00,
307447168,00613DF8,true,Rx,0,8,03,00,06,40,00,00,00,00,
307449113,01C030A2,true,Rx,0,8,00,5B,40,01,89,01,14,00,
307451856,0140044A,true,Rx,0,8,00,00,00,1B,00,00,00,00,
307452967,02C13428,true,Rx,0,8,C0,00,D8,80,88,00,20,00,
307454088,02E10DF4,true,Rx,0,8,C0,A9,20,A0,80,30,08,10,
307457146,01213FFC,true,Rx,0,8,4C,02,4D,00,F0,00,88,00,
307461697,02001022,true,Rx,0,8,40,00,00,01,35,90,10,40,
307462860,0240102A,true,Rx,0,8,03,00,00,00,00,00,00,00,
307463992,03C0002A,true,Rx,0,8,00,00,33,C0,27,00,9F,00,
307465128,0280142A,true,Rx,0,8,00,50,00,20,07,00,00,00,
307466303,01E01266,true,Rx,0,8,00,00,02,00,00,00,40,00,
307467427,0261300A,true,Rx,0,8,00,00,00,27,80,40,00,C0,
307468592,00613DF8,true,Rx,0,8,41,00,06,40,00,00,00,00,
307469769,01800028,true,Rx,0,8,C0,00,78,00,00,00,00,00,
307472162,02A03028,true,Rx,0,8,00,10,04,11,10,2C,00,00,
307473293,00400066,true,Rx,0,8,40,00,00,04,01,5E,40,7F,
307474476,03200008,true,Rx,0,8,00,00,00,00,00,80,00,00,
307482070,01213FFC,true,Rx,0,8,8C,02,4D,00,F0,00,88,00,
307487125,00613DF8,true,Rx,0,8,83,00,06,40,00,00,00,00,
307488257,0340024C,true,Rx,0,8,C1,00,70,01,0B,B3,00,00,
307491834,0140044A,true,Rx,0,8,40,00,00,0B,00,00,00,00,
307494068,01C030A2,true,Rx,0,8,40,5B,40,01,89,01,14,00,
307495211,0280142A,true,Rx,0,8,40,10,00,20,07,00,00,00,
307497012,0240102A,true,Rx,0,8,40,00,00,00,00,00,00,00,
307498132,0261300A,true,Rx,0,8,40,00,00,27,80,40,00,C0,
307506348,02001022,true,Rx,0,8,80,00,00,01,35,90,10,40,
307507500,00613DF8,true,Rx,0,8,C1,00,06,40,00,00,00,00,
307508631,01213FFC,true,Rx,0,8,CC,02,4D,00,E0,00,88,00,
307509850,01800028,true,Rx,0,8,00,00,78,00,00,00,00,00,
307511013,01E01266,true,Rx,0,8,40,00,02,00,00,00,40,00,
307512139,02A03028,true,Rx,0,8,00,90,84,11,10,2C,00,00,
307513261,02C13428,true,Rx,0,8,00,00,D8,80,88,00,20,00,
307514387,02E10DF4,true,Rx,0,8,00,A9,00,20,80,30,08,10,
307525091,0280142A,true,Rx,0,8,80,50,00,20,07,00,00,00,
307527180,00613DF8,true,Rx,0,8,03,00,06,40,00,00,00,00,
307528312,0261300A,true,Rx,0,8,80,00,00,27,80,40,00,C0,
307531868,0140044A,true,Rx,0,8,80,00,00,1B,00,00,00,00,
307533010,01213FFC,true,Rx,0,8,0C,02,4D,00,F0,40,88,00,
307534171,0240102A,true,Rx,0,8,81,00,00,00,00,00,00,00,
307539081,01C030A2,true,Rx,0,8,80,5B,40,01,89,01,14,00,
307542094,02A03028,true,Rx,0,8,00,90,C4,19,10,2C,00,00,
307547157,00613DF8,true,Rx,0,8,41,00,06,40,00,00,00,00,
307548289,00400066,true,Rx,0,8,80,00,00,05,01,5E,40,7F,
307549481,01800028,true,Rx,0,8,40,00,78,00,00,00,00,00,
307551643,02001022,true,Rx,0,8,C0,00,00,01,35,90,10,40,
307555083,0280142A,true,Rx,0,8,C0,50,00,28,07,00,00,00,
307556255,01E01266,true,Rx,0,8,80,00,02,00,00,00,40,00,
307557387,01213FFC,true,Rx,0,8,4C,02,4D,00,F0,00,88,00,
307558511,0261300A,true,Rx,0,8,C0,00,00,27,80,40,00,C0,
307562113,02C13428,true,Rx,0,8,40,00,D8,80,88,00,20,00,
307563233,02E10DF4,true,Rx,0,8,40,A9,20,A0,80,30,08,10,
307567009,0240102A,true,Rx,0,8,C1,00,00,00,00,00,00,00,
307568162,00613DF8,true,Rx,0,8,83,00,06,40,00,00,00,00,
307571864,0140044A,true,Rx,0,8,C0,00,00,0B,00,00,00,00,
307577146,02A03028,true,Rx,0,8,00,90,84,11,10,2C,00,00,
307578329,03200008,true,Rx,0,8,00,00,00,00,00,80,00,00,
307582114,01213FFC,true,Rx,0,8,8C,02,4D,00,E0,00,88,00,
307584235,01C030A2,true,Rx,0,8,C0,5B,40,01,89,01,14,00,
307585376,0280142A,true,Rx,0,8,00,10,00,20,07,00,00,00,
307587187,00613DF8,true,Rx,0,8,C1,00,06,40,00,00,00,00,
307588360,01800028,true,Rx,0,8,80,00,78,00,00,00,00,00,
307589495,0261300A,true,Rx,0,8,00,00,00,27,80,40,00,C0,
307596360,02001022,true,Rx,0,8,00,00,00,01,35,90,10,40,
307597533,01613FFC,true,Rx,0,8,22,00,00,00,00,00,00,00,
307600925,01E01266,true,Rx,0,8,C0,00,02,00,00,00,40,00,
307602098,0240102A,true,Rx,0,8,01,00,00,00,00,00,00,00,
307607208,00613DF8,true,Rx,0,8,03,00,06,40,00,00,00,00,
307608329,01213FFC,true,Rx,0,8,CC,02,4D,00,F0,00,88,00,
307611876,0140044A,true,Rx,0,8,00,00,00,0B,00,00,00,00,
307613006,02A03028,true,Rx,0,8,00,90,84,11,10,2C,00,00,
307615086,0280142A,true,Rx,0,8,40,50,00,20,07,00,00,00,
307617216,02C13428,true,Rx,0,8,80,00,D8,80,88,00,20,00,
307618337,02E10DF4,true,Rx,0,8,80,A9,20,A0,80,30,08,10,
307619461,0261300A,true,Rx,0,8,40,00,00,27,80,40,00,C0,
307623406,00400066,true,Rx,0,8,C0,00,00,06,01,5E,40,7F,
307627289,00613DF8,true,Rx,0,8,41,00,06,40,00,00,00,00,
307628471,01800028,true,Rx,0,8,C0,00,78,00,00,00,00,00,
307629592,01C030A2,true,Rx,0,8,00,5B,40,01,89,01,14,00,
307630738,03801028,true,Rx,0,8,04,00,20,08,9C,40,00,00,
307631903,04000002,true,Rx,0,8,80,00,01,00,F4,00,00,52,
307633048,01213FFC,true,Rx,0,8,0C,02,4D,00,E0,40,88,00,
307636993,0240102A,true,Rx,0,8,40,00,00,00,00,00,00,00,
307641622,02001022,true,Rx,0,8,40,00,00,01,35,90,10,40,
307645070,0280142A,true,Rx,0,8,80,50,00,20,07,00,00,00,
307646242,01E01266,true,Rx,0,8,00,00,02,00,00,00,40,00,
307647394,00613DF8,true,Rx,0,8,83,00,06,40,00,00,00,00,
307648519,02A03028,true,Rx,0,8,00,90,C4,19,10,2C,00,00,
307649643,0261300A,true,Rx,0,8,80,00,00,27,80,40,00,C0,
214836,0140044A,true,Rx,0,8,40,00,00,1B,00,00,00,00,
218899,03A00002,true,Rx,0,8,00,00,00,04,07,04,98,63,
220268,01213FFC,true,Rx,0,8,4C,02,4D,00,F0,00,88,00,
230146,00613DF8,true,Rx,0,8,C1,00,06,40,00,00,00,00,
231360,01800028,true,Rx,0,8,00,00,78,00,00,00,00,00,
232502,0340024C,true,Rx,0,8,01,00,60,01,0B,B3,00,00,
234983,0240102A,true,Rx,0,8,81,00,00,00,00,00,00,00,
236097,02C13428,true,Rx,0,8,C0,00,D8,80,88,00,20,00,
237200,01C030A2,true,Rx,0,8,40,5B,40,01,89,01,14,00,
238352,0280142A,true,Rx,0,8,C0,10,00,20,07,00,00,00,
239487,02E10DF4,true,Rx,0,8,C0,A9,00,20,80,30,08,10,
241878,0261300A,true,Rx,0,8,C0,00,00,27,80,40,00,C0,
245129,01213FFC,true,Rx,0,8,8C,02,4D,00,F0,00,88,00,
246249,02A03028,true,Rx,0,8,00,90,94,11,10,2C,80,00,
247433,03200008,true,Rx,0,8,00,00,00,00,00,80,00,00,
249492,02001022,true,Rx,0,8,80,00,00,01,35,90,10,40,
250638,00613DF8,true,Rx,0,8,03,00,06,40,00,00,00,00,
253983,01E01266,true,Rx,0,8,40,00,02,00,00,00,40,00,
255144,0140044A,true,Rx,0,8,80,00,00,0B,00,00,00,00,
261997,00400066,true,Rx,0,8,00,00,00,07,01,5E,40,7F,
268066,0280142A,true,Rx,0,8,00,50,00,20,07,00,00,00,
269949,0240102A,true,Rx,0,8,C1,00,00,00,00,00,00,00,
271112,00613DF8,true,Rx,0,8,41,00,06,40,00,00,00,00,
272242,01213FFC,true,Rx,0,8,CC,02,4D,00,E0,00,88,00,
273429,01800028,true,Rx,0,8,40,00,78,00,00,00,00,00,
274552,0261300A,true,Rx,0,8,00,00,00,27,80,40,00,C0,
280198,02A03028,true,Rx,0,8,00,90,84,19,10,2C,00,00,
282010,01C030A2,true,Rx,0,8,80,5B,40,01,89,01,14,00,
290121,00613DF8,true,Rx,0,8,83,00,06,40,00,00,00,00,
291241,02C13428,true,Rx,0,8,00,00,D8,80,88,00,20,00,
292362,02E10DF4,true,Rx,0,8,00,A9,20,A0,80,30,08,10,
294752,02001022,true,Rx,0,8,C0,00,00,01,35,90,10,40,
295897,01213FFC,true,Rx,0,8,0C,02,4D,00,F0,40,88,00,
297051,0140044A,true,Rx,0,8,C0,00,00,1B,00,00,00,00,
298202,0280142A,true,Rx,0,8,40,50,00,20,07,00,00,00,
299369,01E01266,true,Rx,0,8,80,00,02,00,00,00,40,00,
302617,0261300A,true,Rx,0,8,40,00,00,27,80,40,00,C0,
304966,0240102A,true,Rx,0,8,00,00,00,00,00,00,00,00,
310196,00613DF8,true,Rx,0,8,C1,00,06,40,00,00,00,00,
311368,01800028,true,Rx,0,8,80,00,78,00,00,00,00,00,
315391,02A03028,true,Rx,0,8,00,10,44,11,10,2C,00,00,
320095,01213FFC,true,Rx,0,8,4C,02,4D,00,F0,00,88,00,
327098,01C030A2,true,Rx,0,8,C0,5B,40,01,89,01,14,00,
328239,0280142A,true,Rx,0,8,80,10,00,28,07,00,00,00,
330206,00613DF8,true,Rx,0,8,03,00,06,40,00,00,00,00,
332676,0261300A,true,Rx,0,8,80,00,00,27,80,40,00,C0,
334859,0140044A,true,Rx,0,8,00,00,00,0B,00,00,00,00,
337609,00400066,true,Rx,0,8,40,00,00,00,01,5E,40,7F,
339360,02001022,true,Rx,0,8,00,00,00,01,35,90,10,40,
340532,0240102A,true,Rx,0,8,41,00,00,00,00,00,00,00,
343933,01E01266,true,Rx,0,8,C0,00,06,00,00,00,40,00,
345146,01213FFC,true,Rx,0,8,8C,02,4D,00,E0,00,88,00,
346257,02C13428,true,Rx,0,8,40,00,D8,80,88,00,20,00,
347392,02E10DF4,true,Rx,0,8,40,A9,00,20,80,30,08,10,
350175,00613DF8,true,Rx,0,8,41,00,06,40,00,00,00,00,
351357,01800028,true,Rx,0,8,C0,00,78,00,00,00,00,00,
352479,02A03028,true,Rx,0,8,00,90,84,11,10,2C,00,00,
353664,03200008,true,Rx,0,8,00,00,00,00,00,80,00,00,
358055,0280142A,true,Rx,0,8,C0,50,00,20,07,00,00,00,
362902,0261300A,true,Rx,0,8,C0,00,00,27,80,40,00,C0,
370174,00613DF8,true,Rx,0,8,83,00,06,40,00,00,00,00,
371305,01213FFC,true,Rx,0,8,CC,02,4D,00,F0,00,88,00,
372426,01C030A2,true,Rx,0,8,00,5B,40,01,89,01,14,00,
374846,0140044A,true,Rx,0,8,40,00,00,0B,00,00,00,00,
376012,0240102A,true,Rx,0,8,83,00,00,00,00,00,00,00,
384631,02001022,true,Rx,0,8,40,00,00,01,35,90,10,40,
385742,02A03028,true,Rx,0,8,00,90,C4,19,10,2C,00,00,
388048,0280142A,true,Rx,0,8,00,50,00,20,07,00,00,00,
389221,01E01266,true,Rx,0,8,00,00,02,00,00,00,40,00,
390366,00613DF8,true,Rx,0,8,C1,00,06,40,00,00,00,00,
391583,01800028,true,Rx,0,8,00,00,78,00,00,00,00,00,
392983,0261300A,true,Rx,0,8,00,00,00,27,80,40,00,C0,
395391,01213FFC,true,Rx,0,8,0C,02,4D,00,E0,40,88,00,
400168,02C13428,true,Rx,0,8,80,00,D8,80,88,00,20,00,
401299,02E10DF4,true,Rx,0,8,80,A9,20,A0,80,30,08,10,
409924,0240102A,true,Rx,0,8,C0,00,00,00,00,00,00,00,
411076,00613DF8,true,Rx,0,8,03,00,06,40,00,00,00,00,
412208,0340024C,true,Rx,0,8,41,00,60,01,03,B3,00,00,
413353,00400066,true,Rx,0,8,80,00,00,01,01,5E,40,7F,
414806,0140044A,true,Rx,0,8,80,00,00,1B,00,00,00,00,
417132,01C030A2,true,Rx,0,8,40,5B,40,01,89,01,14,00,
418273,0280142A,true,Rx,0,8,41,10,00,20,07,00,00,00,
420332,01213FFC,true,Rx,0,8,4C,02,4D,00,F0,00,88,00,
421457,02A03028,true,Rx,0,8,00,90,84,11,10,2C,00,00,
423229,0261300A,true,Rx,0,8,40,00,00,27,80,40,00,C0,
429357,02001022,true,Rx,0,8,80,00,00,01,35,90,10,40,
430519,00613DF8,true,Rx,0,8,41,00,06,40,00,00,00,00,
431702,01800028,true,Rx,0,8,40,00,78,00,00,00,00,00,
433989,01E01266,true,Rx,0,8,40,00,02,00,00,00,40,00,
435124,03C0002A,true,Rx,0,8,00,00,33,C0,27,00,1F,00,
440293,01613FFC,true,Rx,0,8,01,0F,B0,60,EC,68,FF,F6,
444963,0240102A,true,Rx,0,8,01,00,00,00,00,00,00,00,
446085,01213FFC,true,Rx,0,8,8C,02,4D,00,F0,00,88,00,
448040,0280142A,true,Rx,0,8,80,50,00,20,07,00,00,00,
450191,00613DF8,true,Rx,0,8,83,00,06,40,00,00,00,00,
453239,0261300A,true,Rx,0,8,80,00,00,27,80,40,00,C0,
454804,0140044A,true,Rx,0,8,C0,00,00,0B,00,00,00,00,
455934,02A03028,true,Rx,0,8,00,90,84,11,10,2C,00,00,
457050,02C13428,true,Rx,0,8,C0,00,D8,80,88,00,20,00,
458172,02E10DF4,true,Rx,0,8,C0,A9,00,20,80,30,08,10,
459365,03200008,true,Rx,0,8,00,00,00,00,00,80,00,00,
462063,01C030A2,true,Rx,0,8,80,5B,40,01,89,01,14,00,
470189,00613DF8,true,Rx,0,8,C1,00,06,40,00,00,00,00,
471321,01213FFC,true,Rx,0,8,CC,02,4D,00,E0,00,88,00,
472493,01800028,true,Rx,0,8,80,00,78,00,00,00,00,00,
474748,02001022,true,Rx,0,8,C0,00,00,01,35,90,10,40,
478042,0280142A,true,Rx,0,8,C0,50,00,20,07,00,00,00,
479205,01E01266,true,Rx,0,8,80,00,02,00,00,00,40,00,
480377,0240102A,true,Rx,0,8,41,00,00,00,00,00,00,00,
483250,0261300A,true,Rx,0,8,C0,00,00,27,80,40,00,C0,
488174,00400066,true,Rx,0,8,C0,00,00,02,01,5E,40,7F,
490274,00613DF8,true,Rx,0,8,03,00,06,40,00,00,00,00,
491396,02A03028,true,Rx,0,8,00,90,D4,19,10,2C,80,00,
494859,0140044A,true,Rx,0,8,00,00,00,1B,00,00,00,00,
496001,01213FFC,true,Rx,0,8,0C,02,4D,00,F0,40,88,00,
507112,01C030A2,true,Rx,0,8,C0,5B,40,01,89,01,14,00,
508243,0280142A,true,Rx,0,8,00,10,00,28,07,00,00,00,
510219,00613DF8,true,Rx,0,8,41,00,06,40,00,00,00,00,
511402,01800028,true,Rx,0,8,C0,00,78,00,00,00,00,00,
512526,02C13428,true,Rx,0,8,00,00,D8,80,88,00,20,00,
513660,0261300A,true,Rx,0,8,00,00,00,27,80,40,00,C0,
514775,02E10DF4,true,Rx,0,8,00,A9,20,A0,80,30,08,10,
515940,0240102A,true,Rx,0,8,81,00,00,00,00,00,00,00,
517074,03801028,true,Rx,0,8,4C,00,20,08,DC,40,00,00,
519414,02001022,true,Rx,0,8,00,00,00,01,35,90,10,40,
520556,01213FFC,true,Rx,0,8,4C,02,4D,00,F0,00,88,00,
523988,01E01266,true,Rx,0,8,C0,00,02,00,00,00,40,00,
525119,02A03028,true,Rx,0,8,00,90,84,11,10,2C,00,00,
530136,00613DF8,true,Rx,0,8,83,00,06,40,00,00,00,00,
534837,0140044A,true,Rx,0,8,40,00,00,0B,00,00,00,00,
538036,0280142A,true,Rx,0,8,40,50,00,20,07,00,00,00,
543379,0261300A,true,Rx,0,8,40,00,00,27,80,40,00,C0,
545068,01213FFC,true,Rx,0,8,8C,02,4D,00,E0,00,88,00,
549945,0240102A,true,Rx,0,8,C0,00,00,00,00,00,00,00,
551097,00613DF8,true,Rx,0,8,C1,00,06,40,00,00,00,00,
552321,01800028,true,Rx,0,8,00,00,78,00,00,00,00,00,
553436,01C030A2,true,Rx,0,8,00,5B,40,01,89,01,14,00,
560085,02A03028,true,Rx,0,8,00,90,84,11,10,2C,00,00,
561268,03200008,true,Rx,0,8,00,00,00,00,00,80,00,00,
563326,00400066,true,Rx,0,8,00,00,00,03,01,5E,40,7F,
564632,02001022,true,Rx,0,8,40,00,00,01,35,90,10,40,
565747,02C13428,true,Rx,0,8,40,00,D8,80,88,00,20,00,
566881,02E10DF4,true,Rx,0,8,40,A9,00,20,80,30,08,10,
568026,0280142A,true,Rx,0,8,80,50,00,20,07,00,00,00,
569201,01E01266,true,Rx,0,8,00,00,02,00,00,00,40,00,
570352,00613DF8,true,Rx,0,8,03,00,06,40,00,00,00,00,
571478,01213FFC,true,Rx,0,8,CC,02,4D,00,F0,00,88,00,
573768,0261300A,true,Rx,0,8,80,00,00,27,80,40,00,C0,
574929,0140044A,true,Rx,0,8,80,00,00,0B,00,00,00,00,
584929,0240102A,true,Rx,0,8,01,00,00,00,00,00,00,00,
590169,00613DF8,true,Rx,0,8,41,00,06,40,00,00,00,00,
591352,01800028,true,Rx,0,8,40,00,78,00,00,00,00,00,
592483,0340024C,true,Rx,0,8,80,00,70,00,0B,B3,00,00,
595202,01213FFC,true,Rx,0,8,0C,02,4D,00,E0,40,88,00,
596322,02A03028,true,Rx,0,8,00,10,44,19,10,2C,00,00,
597427,01C030A2,true,Rx,0,8,40,5B,40,01,89,01,14,00,
598580,0280142A,true,Rx,0,8,C0,10,00,20,07,00,00,00,
603771,0261300A,true,Rx,0,8,C0,00,00,27,80,40,00,C0,
609364,02001022,true,Rx,0,8,80,00,00,01,35,90,10,40,
610516,00613DF8,true,Rx,0,8,83,00,06,40,00,00,00,00,
614000,01E01266,true,Rx,0,8,40,00,02,00,00,00,40,00,
615152,0140044A,true,Rx,0,8,C0,00,00,1B,00,00,00,00,
619922,0240102A,true,Rx,0,8,41,00,00,00,00,00,00,00,
621052,01213FFC,true,Rx,0,8,4C,02,4D,00,F0,00,88,00,
622174,02C13428,true,Rx,0,8,80,00,D8,80,88,00,20,00,
623298,02E10DF4,true,Rx,0,8,80,A9,20,A0,80,30,08,10,
628020,0280142A,true,Rx,0,8,00,50,00,20,07,00,00,00,
630191,00613DF8,true,Rx,0,8,C1,00,06,40,00,00,00,00,
631364,01800028,true,Rx,0,8,80,00,78,00,00,00,00,00,
632495,02A03028,true,Rx,0,8,00,90,84,11,10,2C,00,00,
633960,0261300A,true,Rx,0,8,00,00,00,27,80,40,00,C0,
635094,03A00002,true,Rx,0,8,40,00,00,04,07,04,98,63,
638847,00400066,true,Rx,0,8,40,00,00,04,01,5E,40,7F,
642025,01C030A2,true,Rx,0,8,80,5B,40,01,89,01,14,00,
645171,01213FFC,true,Rx,0,8,8C,02,4D,00,F0,00,88,00,
650101,00613DF8,true,Rx,0,8,03,00,06,40,00,00,00,00,
654657,02001022,true,Rx,0,8,C0,00,00,01,35,90,10,40,
655821,0140044A,true,Rx,0,8,00,00,00,0B,00,00,00,00,
656982,0240102A,true,Rx,0,8,80,00,00,00,00,00,00,00,
658139,0280142A,true,Rx,0,8,40,50,00,20,07,00,00,00,
659302,01E01266,true,Rx,0,8,80,00,02,00,00,00,40,00,
660448,04000002,true,Rx,0,8,C0,00,01,00,B4,00,00,52,
664147,0261300A,true,Rx,0,8,40,00,00,27,80,40,00,C0,
665268,02A03028,true,Rx,0,8,00,90,84,11,10,2C,00,00,
666451,03200008,true,Rx,0,8,00,00,00,00,00,80,00,00,
670220,00613DF8,true,Rx,0,8,41,00,06,40,00,00,00,00,
671352,01213FFC,true,Rx,0,8,CC,02,4D,00,E0,00,88,00,
672535,01800028,true,Rx,0,8,C0,00,78,00,00,00,00,00,
675057,02C13428,true,Rx,0,8,C0,00,D8,80,88,00,20,00,
676182,02E10DF4,true,Rx,0,8,C0,A9,00,20,80,30,08,10,
687123,01C030A2,true,Rx,0,8,C0,5B,40,01,89,01,14,00,
688265,0280142A,true,Rx,0,8,80,10,00,20,07,00,00,00,
689953,0240102A,true,Rx,0,8,C1,00,00,00,00,00,00,00,
691099,00613DF8,true,Rx,0,8,83,00,06,40,00,00,00,00,
694227,0261300A,true,Rx,0,8,80,00,00,27,80,40,00,C0,
695378,01213FFC,true,Rx,0,8,0C,02,4D,00,F0,40,88,00,
696531,0140044A,true,Rx,0,8,40,00,00,1B,00,00,00,00,
699517,02001022,true,Rx,0,8,00,00,00,01,35,90,10,40,
700637,02A03028,true,Rx,0,8,00,90,C4,19,10,2C,00,00,
703994,01E01266,true,Rx,0,8,C0,00,02,00,00,00,40,00,
710146,00613DF8,true,Rx,0,8,C1,00,06,40,00,00,00,00,
711370,01800028,true,Rx,0,8,00,00,78,00,00,00,00,00,
714264,00400066,true,Rx,0,8,80,00,00,05,01,5E,40,7F,
718003,0280142A,true,Rx,0,8,C0,50,00,28,07,00,00,00,
720703,01213FFC,true,Rx,0,8,4C,02,4D,00,F0,00,88,00,
721887,01613FFC,true,Rx,0,8,FF,00,00,00,00,00,00,00,
724553,0261300A,true,Rx,0,8,C0,00,00,27,80,40,00,C0,
725705,0240102A,true,Rx,0,8,03,00,00,00,00,00,00,00,
730184,00613DF8,true,Rx,0,8,03,00,06,40,00,00,00,00,
731304,02C13428,true,Rx,0,8,00,00,D8,80,88,00,20,00,
732424,01C030A2,true,Rx,0,8,00,5B,40,01,89,01,14,00,
733540,02E10DF4,true,Rx,0,8,00,A9,20,A0,80,30,08,10,
734839,0140044A,true,Rx,0,8,80,00,00,0B,00,00,00,00,
735953,02A03028,true,Rx,0,8,00,90,94,11,10,2C,80,00,
744645,02001022,true,Rx,0,8,40,00,00,01,35,90,10,40,
745778,01213FFC,true,Rx,0,8,8C,02,4D,00,E0,00,88,00,
748001,0280142A,true,Rx,0,8,00,50,00,20,07,00,00,00,
749172,01E01266,true,Rx,0,8,00,00,02,00,00,00,40,00,
750329,00613DF8,true,Rx,0,8,41,00,06,40,00,00,00,00,
751514,01800028,true,Rx,0,8,40,00,78,00,00,00,00,00,
754489,0261300A,true,Rx,0,8,00,00,00,27,80,40,00,C0,
759878,0240102A,true,Rx,0,8,40,00,00,00,00,00,00,00,
770133,00613DF8,true,Rx,0,8,83,00,06,40,00,00,00,00,
771264,01213FFC,true,Rx,0,8,CC,02,4D,00,F0,00,88,00,
772385,02A03028,true,Rx,0,8,00,90,84,11,10,2C,00,00,
773571,03200008,true,Rx,0,8,00,00,00,00,00,80,00,00,
774705,0340024C,true,Rx,0,8,C0,00,60,00,0B,B3,00,00,
775862,0140044A,true,Rx,0,8,C0,00,00,0B,00,00,00,00,
777191,01C030A2,true,Rx,0,8,40,5B,40,01,89,01,14,00,
778331,0280142A,true,Rx,0,8,40,10,00,20,07,00,00,00,
784703,0261300A,true,Rx,0,8,40,00,00,27,80,40,00,C0,
785814,02C13428,true,Rx,0,8,40,00,D8,80,88,00,20,00,
786935,02E10DF4,true,Rx,0,8,40,A9,20,A0,80,30,08,10,
789416,02001022,true,Rx,0,8,80,00,00,01,35,90,10,40,
790561,00400066,true,Rx,0,8,C0,00,00,06,01,5E,40,7F,
791705,00613DF8,true,Rx,0,8,C1,00,06,40,00,00,00,00,
792888,01800028,true,Rx,0,8,80,00,78,00,00,00,00,00,
794055,01E01266,true,Rx,0,8,40,00,02,00,00,00,40,00,
795208,0240102A,true,Rx,0,8,81,00,00,00,00,00,00,00,
796344,01213FFC,true,Rx,0,8,0C,02,4D,00,E0,40,88,00,
805075,02A03028,true,Rx,0,8,00,90,C4,19,10,2C,00,00,
807995,0280142A,true,Rx,0,8,80,50,00,20,07,00,00,00,
810158,00613DF8,true,Rx,0,8,03,00,06,40,00,00,00,00,
814745,0261300A,true,Rx,0,8,80,00,00,27,80,40,00,C0,
815917,0140044A,true,Rx,0,8,00,00,00,1B,00,00,00,00,
820220,01213FFC,true,Rx,0,8,4C,02,4D,00,F0,00,88,00,
822185,01C030A2,true,Rx,0,8,80,5B,40,01,89,01,14,00,
829872,0240102A,true,Rx,0,8,C1,00,00,00,00,00,00,00,
831024,00613DF8,true,Rx,0,8,41,00,06,40,00,00,00,00,
832216,01800028,true,Rx,0,8,C0,00,78,00,00,00,00,00,
833352,03801028,true,Rx,0,8,8C,00,20,08,9C,40,00,00,
834670,02001022,true,Rx,0,8,C0,00,00,01,35,90,10,40,
837987,0280142A,true,Rx,0,8,C0,50,00,20,07,00,00,00,
839283,01E01266,true,Rx,0,8,80,00,06,00,00,00,40,00,
840413,02A03028,true,Rx,0,8,00,90,84,11,10,2C,00,00,
841530,02C13428,true,Rx,0,8,80,00,D8,80,88,00,20,00,
842652,02E10DF4,true,Rx,0,8,80,A9,00,20,80,30,08,10,
844877,0261300A,true,Rx,0,8,C0,00,00,27,80,40,00,C0,
846002,01213FFC,true,Rx,0,8,8C,02,4D,00,F0,00,88,00,
847125,03C0002A,true,Rx,0,8,00,00,33,C0,27,00,9F,00,
850432,00613DF8,true,Rx,0,8,83,00,06,40,00,00,00,00,
854782,0140044A,true,Rx,0,8,40,00,00,0B,00,00,00,00,
864759,00400066,true,Rx,0,8,00,00,00,07,01,5E,40,7F,
865941,0240102A,true,Rx,0,8,01,00,00,00,00,00,00,00,
867134,01C030A2,true,Rx,0,8,C0,5B,40,01,89,01,14,00,
868279,0280142A,true,Rx,0,8,00,10,00,20,07,00,00,00,
870361,00613DF8,true,Rx,0,8,C1,00,06,40,00,00,00,00,
871492,01213FFC,true,Rx,0,8,CC,02,4D,00,E0,00,88,00,
872709,01800028,true,Rx,0,8,00,00,78,00,00,00,00,00,
875071,02A03028,true,Rx,0,8,00,10,04,11,10,2C,00,00,
876202,0261300A,true,Rx,0,8,00,00,00,27,80,40,00,C0,
877384,03200008,true,Rx,0,8,00,00,00,00,00,80,00,00,
879381,02001022,true,Rx,0,8,00,00,00,01,35,90,10,40,
884021,01E01266,true,Rx,0,8,C0,00,02,00,00,00,40,00,
890122,00613DF8,true,Rx,0,8,03,00,06,40,00,00,00,00,
894813,0140044A,true,Rx,0,8,80,00,00,1B,00,00,00,00,
895964,01213FFC,true,Rx,0,8,0C,02,4D,00,F0,40,88,00,
897075,02C13428,true,Rx,0,8,C0,00,D8,80,88,00,20,00,
898230,0280142A,true,Rx,0,8,40,50,00,20,07,00,00,00,
899353,02E10DF4,true,Rx,0,8,C0,A9,20,A0,80,30,08,10,
900519,0240102A,true,Rx,0,8,40,00,00,00,00,00,00,00,
905263,0261300A,true,Rx,0,8,40,00,00,27,80,40,00,C0,
910183,00613DF8,true,Rx,0,8,41,00,06,40,00,00,00,00,
911365,01800028,true,Rx,0,8,40,00,78,00,00,00,00,00,
912486,01C030A2,true,Rx,0,8,00,5B,40,01,89,01,14,00,
913611,02A03028,true,Rx,0,8,00,90,C4,19,10,2C,00,00,
920074,01213FFC,true,Rx,0,8,4C,02,4D,00,F0,00,88,00,
924735,02001022,true,Rx,0,8,40,00,00,01,35,90,10,40,
927964,0280142A,true,Rx,0,8,80,50,00,28,07,00,00,00,
929127,01E01266,true,Rx,0,8,00,00,02,00,00,00,40,00,
930279,00613DF8,true,Rx,0,8,83,00,06,40,00,00,00,00,
934805,0140044A,true,Rx,0,8,C0,00,00,0B,00,00,00,00,
935968,0240102A,true,Rx,0,8,81,00,00,00,00,00,00,00,
937099,0261300A,true,Rx,0,8,80,00,00,27,80,40,00,C0,
940342,00400066,true,Rx,0,8,40,00,00,00,01,5E,40,7F,
945146,01213FFC,true,Rx,0,8,8C,02,4D,00,E0,00,88,00,
946268,02A03028,true,Rx,0,8,00,90,84,11,10,2C,00,00,
950114,00613DF8,true,Rx,0,8,C1,00,06,40,00,00,00,00,
951286,01800028,true,Rx,0,8,80,00,78,00,00,00,00,00,
952408,02C13428,true,Rx,0,8,00,00,D8,80,88,00,20,00,
953532,02E10DF4,true,Rx,0,8,00,A9,00,20,80,30,08,10,
954677,0340024C,true,Rx,0,8,00,00,60,00,03,B3,00,00,
957160,01C030A2,true,Rx,0,8,40,5B,40,01,89,01,14,00,
958312,0280142A,true,Rx,0,8,C0,10,00,20,07,00,00,00,
965605,0261300A,true,Rx,0,8,C0,00,00,27,80,40,00,C0,
969385,02001022,true,Rx,0,8,80,00,00,01,35,90,10,40,
970538,00613DF8,true,Rx,0,8,03,00,06,40,00,00,00,00,
971659,01213FFC,true,Rx,0,8,CC,02,4D,00,F0,00,88,00,
972827,0240102A,true,Rx,0,8,C1,00,00,00,00,00,00,00,
974134,01E01266,true,Rx,0,8,40,00,02,00,00,00,40,00,
975301,0140044A,true,Rx,0,8,00,00,00,0B,00,00,00,00,
980128,02A03028,true,Rx,0,8,00,90,C4,19,10,2C,00,00,
981311,03200008,true,Rx,0,8,00,00,00,00,00,80,00,00,
987966,0280142A,true,Rx,0,8,00,50,00,20,07,00,00,00,
990180,00613DF8,true,Rx,0,8,41,00,06,40,00,00,00,00,
991363,01800028,true,Rx,0,8,C0,00,78,00,00,00,00,00,
995263,01213FFC,true,Rx,0,8,0C,02,4D,00,E0,40,88,00,
996393,0261300A,true,Rx,0,8,00,00,00,27,80,40,00,C0,
1000221,01613FFC,true,Rx,0,8,1E,00,00,00,00,00,00,00,
1002259,01C030A2,true,Rx,0,8,80,5B,40,01,89,01,14,00,
1004888,0240102A,true,Rx,0,8,00,00,00,00,00,00,00,00,
1005999,02C13428,true,Rx,0,8,40,00,D8,80,88,00,20,00,
1007119,02E10DF4,true,Rx,0,8,40,A9,20,A0,80,30,08,10,
1010115,00613DF8,true,Rx,0,8,83,00,06,40,00,00,00,00,
1014679,02001022,true,Rx,0,8,C0,00,00,01,35,90,10,40,
1015842,0140044A,true,Rx,0,8,40,00,00,1B,00,00,00,00,
1016994,00400066,true,Rx,0,8,80,00,00,01,01,5E,40,7F,
1018150,0280142A,true,Rx,0,8,40,50,00,20,07,00,00,00,
1019314,01E01266,true,Rx,0,8,80,00,02,00,00,00,40,00,
1020428,02A03028,true,Rx,0,8,00,90,94,11,10,2C,80,00,
1021572,01213FFC,true,Rx,0,8,4C,02,4D,00,F0,00,88,00,
1026060,0261300A,true,Rx,0,8,40,00,00,27,80,40,00,C0,
1030171,00613DF8,true,Rx,0,8,C1,00,06,40,00,00,00,00,
1031386,01800028,true,Rx,0,8,00,00,78,00,00,00,00,00,
1039845,0240102A,true,Rx,0,8,41,00,00,00,00,00,00,00,
1045095,01213FFC,true,Rx,0,8,8C,02,4D,00,F0,00,88,00,
1047278,01C030A2,true,Rx,0,8,C0,5B,40,01,89,01,14,00,
1048430,0280142A,true,Rx,0,8,80,10,00,20,07,00,00,00,
1049571,03A00002,true,Rx,0,8,80,00,00,04,07,04,98,63,
1050717,00613DF8,true,Rx,0,8,03,00,06,40,00,00,00,00,
1051851,02A03028,true,Rx,0,8,00,90,84,11,10,2C,00,00,
1054775,0140044A,true,Rx,0,8,80,00,00,0B,00,00,00,00,
1056061,0261300A,true,Rx,0,8,80,00,00,27,80,40,00,C0,
1059397,02001022,true,Rx,0,8,00,00,00,01,35,90,10,40,
1060518,02C13428,true,Rx,0,8,80,00,D8,80,88,00,20,00,
1061638,02E10DF4,true,Rx,0,8,80,A9,00,20,80,30,08,10,
1064058,01E01266,true,Rx,0,8,C0,00,02,00,00,00,40,00,
1070172,00613DF8,true,Rx,0,8,41,00,06,40,00,00,00,00,
1071304,01213FFC,true,Rx,0,8,CC,02,4D,00,E0,00,88,00,
1072486,01800028,true,Rx,0,8,40,00,78,00,00,00,00,00,
1074926,0240102A,true,Rx,0,8,83,00,00,00,00,00,00,00,
1077964,0280142A,true,Rx,0,8,C0,50,00,20,07,00,00,00,
1085028,02A03028,true,Rx,0,8,00,90,C4,19,10,2C,00,00,
1086148,0261300A,true,Rx,0,8,C0,00,00,27,80,40,00,C0,
1087331,03200008,true,Rx,0,8,00,00,00,00,00,80,00,00,
1090141,00613DF8,true,Rx,0,8,83,00,06,40,00,00,00,00,
1091284,00400066,true,Rx,0,8,C0,00,00,02,01,5E,40,7F,
1092409,01C030A2,true,Rx,0,8,00,5B,40,01,89,01,14,00,
1094801,0140044A,true,Rx,0,8,C0,00,00,1B,00,00,00,00,
1095943,01213FFC,true,Rx,0,8,0C,02,4D,00,F0,40,88,00,
1104658,02001022,true,Rx,0,8,40,00,00,01,35,90,10,40,
1107951,0280142A,true,Rx,0,8,00,50,00,28,07,00,00,00,
1109124,01E01266,true,Rx,0,8,00,00,02,00,00,00,40,00,
1110275,00613DF8,true,Rx,0,8,C1,00,06,40,00,00,00,00,
1111452,01800028,true,Rx,0,8,80,00,78,00,00,00,00,00,
1112606,0240102A,true,Rx,0,8,C0,00,00,00,00,00,00,00,
1114779,04000002,true,Rx,0,8,00,00,01,00,B4,00,00,52,
1115884,02C13428,true,Rx,0,8,C0,00,D8,80,88,00,20,00,
1117017,0261300A,true,Rx,0,8,00,00,00,27,80,40,00,C0,
1118148,02E10DF4,true,Rx,0,8,C0,A9,20,A0,80,30,08,10,
1120196,01213FFC,true,Rx,0,8,4C,02,4D,00,F0,00,88,00,
1121331,02A03028,true,Rx,0,8,00,90,04,11,10,2C,00,00,
1130085,00613DF8,true,Rx,0,8,03,00,06,40,00,00,00,00,
1131216,0340024C,true,Rx,0,8,40,00,70,00,0B,B3,00,00,
1134814,0140044A,true,Rx,0,8,00,00,00,0B,00,00,00,00,
1137121,01C030A2,true,Rx,0,8,40,5B,40,01,89,01,14,00,
1138263,0280142A,true,Rx,0,8,40,10,00,20,07,00,00,00,
1144857,0240102A,true,Rx,0,8,01,00,00,00,00,00,00,00,
1145998,01213FFC,true,Rx,0,8,8C,02,4D,00,E0,00,88,00,
1147119,0261300A,true,Rx,0,8,40,00,00,27,80,40,00,C0,
1149528,02001022,true,Rx,0,8,80,00,00,01,35,90,10,40,
1150694,00613DF8,true,Rx,0,8,41,00,06,40,00,00,00,00,
1151870,01800028,true,Rx,0,8,C0,00,78,00,00,00,00,00,
1153021,03801028,true,Rx,0,8,CC,00,20,08,9C,40,00,00,
1154187,01E01266,true,Rx,0,8,40,00,02,00,00,00,40,00,
1155310,02A03028,true,Rx,0,8,00,10,84,11,10,2C,00,00,
1166386,00400066,true,Rx,0,8,00,00,00,03,01,5E,40,7F,
1167940,0280142A,true,Rx,0,8,80,50,00,20,07,00,00,00,
1170268,00613DF8,true,Rx,0,8,83,00,06,40,00,00,00,00,
1171399,01213FFC,true,Rx,0,8,CC,02,4D,00,F0,00,88,00,
1172520,02C13428,true,Rx,0,8,00,00,D8,80,88,00,20,00,
1173644,02E10DF4,true,Rx,0,8,00,A9,00,20,80,30,08,10,
1174799,0140044A,true,Rx,0,8,40,00,00,0B,00,00,00,00,
1176702,0261300A,true,Rx,0,8,80,00,00,27,80,40,00,C0,
1179885,0240102A,true,Rx,0,8,41,00,00,00,00,00,00,00,
1182057,01C030A2,true,Rx,0,8,80,5B,40,01,89,01,14,00,
1190102,00613DF8,true,Rx,0,8,C1,00,06,40,00,00,00,00,
1191326,01800028,true,Rx,0,8,00,00,78,00,00,00,00,00,
1192446,02A03028,true,Rx,0,8,00,90,C4,19,10,2C,00,00,
1193623,03200008,true,Rx,0,8,00,00,00,00,00,80,00,00,
1194758,02001022,true,Rx,0,8,C0,00,00,01,35,90,10,40,
1195894,01213FFC,true,Rx,0,8,0C,02,4D,00,E0,40,88,00,
1197934,0280142A,true,Rx,0,8,C0,50,00,20,07,00,00,00,
1199405,01E01266,true,Rx,0,8,80,00,02,00,00,00,40,00,
1206890,0261300A,true,Rx,0,8,C0,00,00,27,80,40,00,C0,
1210141,00613DF8,true,Rx,0,8,03,00,06,40,00,00,00,00,
1214761,0140044A,true,Rx,0,8,80,00,00,1B,00,00,00,00,
1215922,0240102A,true,Rx,0,8,81,00,00,00,00,00,00,00,
1220142,01213FFC,true,Rx,0,8,4C,02,4D,00,F0,00,88,00,
1225061,02A03028,true,Rx,0,8,00,90,84,11,10,2C,00,00,
1226181,02C13428,true,Rx,0,8,40,00,D8,80,88,00,20,00,
1227302,01C030A2,true,Rx,0,8,C0,5B,40,01,89,01,14,00,
1228438,0280142A,true,Rx,0,8,00,10,00,20,07,00,00,00,
1229561,02E10DF4,true,Rx,0,8,40,A9,20,A0,80,30,08,10,
1230717,00613DF8,true,Rx,0,8,41,00,06,40,00,00,00,00,
1231903,01800028,true,Rx,0,8,40,00,78,00,00,00,00,00,
1237033,0261300A,true,Rx,0,8,00,00,00,27,80,40,00,C0,
1239402,02001022,true,Rx,0,8,00,00,00,01,35,90,10,40,
1241907,00400066,true,Rx,0,8,40,00,00,04,01,5E,40,7F,
1244028,01E01266,true,Rx,0,8,C0,00,02,00,00,00,40,00,
1245179,01213FFC,true,Rx,0,8,8C,02,4D,00,F0,00,88,00,
1249866,0240102A,true,Rx,0,8,C0,00,00,00,00,00,00,00,
1251018,00613DF8,true,Rx,0,8,83,00,06,40,00,00,00,00,
1254753,0140044A,true,Rx,0,8,C0,00,00,0B,00,00,00,00,
1255893,03C0002A,true,Rx,0,8,00,00,33,C0,27,00,1F,00,
1257942,0280142A,true,Rx,0,8,40,50,00,20,07,00,00,00,
1260422,02A03028,true,Rx,0,8,00,90,94,11,10,2C,80,00,
1267164,0261300A,true,Rx,0,8,40,00,00,27,80,40,00,C0,
1270196,00613DF8,true,Rx,0,8,C1,00,06,40,00,00,00,00,
1271317,01213FFC,true,Rx,0,8,CC,02,4D,00,E0,00,88,00,
1272500,01800028,true,Rx,0,8,80,00,78,00,00,00,00,00,
1273614,01C030A2,true,Rx,0,8,00,5B,40,01,89,01,14,00,
1280129,01613FFC,true,Rx,0,8,23,00,00,00,00,00,00,00,
1281249,02C13428,true,Rx,0,8,80,00,D8,80,88,00,20,00,
1282371,02E10DF4,true,Rx,0,8,80,A9,00,20,80,30,08,10,
1284832,02001022,true,Rx,0,8,40,00,00,01,35,90,10,40,
1286008,0240102A,true,Rx,0,8,01,00,00,00,00,00,00,00,
1287925,0280142A,true,Rx,0,8,80,50,00,20,07,00,00,00,
1289097,01E01266,true,Rx,0,8,00,00,02,00,00,00,40,00,
1290249,00613DF8,true,Rx,0,8,03,00,06,40,00,00,00,00,
1294805,0140044A,true,Rx,0,8,00,00,00,1B,00,00,00,00,
1295956,01213FFC,true,Rx,0,8,0D,02,4D,00,F0,40,88,00,
1297077,02A03028,true,Rx,0,8,00,B0,C4,19,10,2C,00,00,
1298212,0261300A,true,Rx,0,8,80,00,00,27,80,40,00,C0,
1299387,03200008,true,Rx,0,8,00,00,00,00,00,80,00,00,
1310442,00613DF8,true,Rx,0,8,41,00,06,40,00,00,00,00,
1311625,01800028,true,Rx,0,8,C0,00,78,00,00,00,00,00,
1312757,0340024C,true,Rx,0,8,80,00,60,00,0B,B3,00,00,
1317293,01C030A2,true,Rx,0,8,40,5B,40,01,89,01,14,00,
1318435,00400066,true,Rx,0,8,80,00,00,05,01,5E,40,7F,
1319565,0280142A,true,Rx,0,8,C0,10,00,28,07,00,00,00,
1320700,01213FFC,true,Rx,0,8,4D,02,4D,00,F0,00,88,00,
1321866,0240102A,true,Rx,0,8,41,00,00,00,00,00,00,00,
1327667,0261300A,true,Rx,0,8,C0,00,00,27,80,40,00,C0,
1329396,02001022,true,Rx,0,8,80,00,00,01,35,90,10,40,
1330547,00613DF8,true,Rx,0,8,83,00,06,40,00,00,00,00,
1331672,02A03028,true,Rx,0,8,00,9F,84,11,1A,2C,00,00,
1334128,01E01266,true,Rx,0,8,40,00,06,00,00,00,40,00,
1335279,0140044A,true,Rx,0,8,40,00,00,0B,10,00,00,00,
1336379,02C13428,true,Rx,0,8,C0,00,D8,80,88,CF,20,00,
1337484,02E10DF4,true,Rx,0,8,CF,A9,2F,AC,89,3A,F8,18,
1345055,01213FFC,true,Rx,0,8,8D,02,4D,40,E0,00,88,00,
1346403,0360000A,true,Rx,0,8,60,00,00,00,00,14,00,80,
1347916,0280142A,true,Rx,0,8,00,50,00,20,07,00,00,00,
1350170,00613DF8,true,Rx,0,8,C1,00,06,40,00,00,00,00,
1351383,01800028,true,Rx,0,8,00,00,78,00,00,00,00,00,
1354846,0240102A,true,Rx,0,8,80,00,00,00,00,00,00,00,
1357597,0261300A,true,Rx,0,8,00,00,00,27,80,40,00,C0,
1362153,01C030A2,true,Rx,0,8,80,5B,40,01,89,01,14,00,
1365041,02A03028,true,Rx,0,8,00,9F,84,11,1A,2C,00,00,
1370105,00613DF8,true,Rx,0,8,03,00,06,40,00,00,00,00,
1371236,01213FFC,true,Rx,0,8,CD,02,4D,00,F0,00,88,00,
1374793,0140044A,true,Rx,0,8,80,00,00,0B,00,00,00,00,
1375924,02001022,true,Rx,0,8,C0,00,00,01,35,90,10,40,
1377931,0280142A,true,Rx,0,8,40,50,00,20,07,00,00,00,
1379268,01E01266,true,Rx,0,8,80,00,02,00,00,00,40,00,
1387919,0261300A,true,Rx,0,8,40,00,00,27,80,40,00,C0,
1389802,0240102A,true,Rx,0,8,C1,00,00,00,00,00,00,00,
1390954,00613DF8,true,Rx,0,8,41,00,06,40,00,00,00,00,
1392146,01800028,true,Rx,0,8,40,00,78,00,00,00,00,00,
1393283,00400066,true,Rx,0,8,C0,00,00,06,01,5E,40,7F,
1394395,02C13428,true,Rx,0,8,00,00,D8,80,88,CF,20,00,
1395531,01213FFC,true,Rx,0,8,0D,02,4D,00,E0,40,88,00,
1396643,02E10DF4,true,Rx,0,8,0F,A9,2F,AC,89,3A,F8,18,
1400145,02A03028,true,Rx,0,8,00,9F,C4,19,1A,2C,00,00,
1401339,03200008,true,Rx,0,8,00,00,00,00,00,80,00,00,
1407145,01C030A2,true,Rx,0,8,C0,5B,40,01,89,01,14,00,
1408308,0280142A,true,Rx,0,8,81,10,00,20,07,00,00,00,
1410119,00613DF8,true,Rx,0,8,83,00,06,40,00,00,00,00,
1414731,0140044A,true,Rx,0,8,C0,00,00,1B,10,00,00,00,
1417971,0261300A,true,Rx,0,8,80,00,00,27,80,40,00,C0,
1419411,02001022,true,Rx,0,8,00,00,00,01,35,90,10,40,
1420542,01213FFC,true,Rx,0,8,4D,02,4D,40,F0,00,88,00,
1424117,01E01266,true,Rx,0,8,C0,00,02,00,00,00,40,00,
1425279,0240102A,true,Rx,0,8,03,00,00,00,00,00,00,00,
1430141,00613DF8,true,Rx,0,8,C1,00,06,40,00,00,00,00,
1431313,01800028,true,Rx,0,8,80,00,78,00,00,00,00,00,
1435026,02A03028,true,Rx,0,8,00,1F,04,11,1A,2C,00,00,
1437915,0280142A,true,Rx,0,8,C0,50,00,20,07,00,00,00,
1445010,01213FFC,true,Rx,0,8,8D,02,4D,00,F0,00,88,00,
1446111,02C13428,true,Rx,0,8,40,00,D8,80,88,CF,20,00,
1447201,02E10DF4,true,Rx,0,8,4F,A9,0F,2C,89,3A,F8,18,
1448327,0261300A,true,Rx,0,8,C0,00,00,27,80,40,00,C0,
1449511,04200002,true,Rx,0,8,00,00,00,00,00,00,00,00,
1450657,00613DF8,true,Rx,0,8,03,00,06,40,00,00,00,00,
1452183,01C030A2,true,Rx,0,8,00,5B,40,01,89,01,14,00,
1454748,0140044A,true,Rx,0,8,00,00,00,0B,00,00,00,00,
1459810,0240102A,true,Rx,0,8,40,00,00,00,00,00,00,00,
1464034,03A00002,true,Rx,0,8,C0,00,00,04,07,04,98,63,
1465186,02001022,true,Rx,0,8,40,00,00,01,35,90,10,40,
1467904,0280142A,true,Rx,0,8,00,50,00,20,07,00,00,00,
1469048,00400066,true,Rx,0,8,00,00,00,07,01,5E,40,7F,
1470219,01E01266,true,Rx,0,8,00,00,02,00,00,00,40,00,
1471376,00613DF8,true,Rx,0,8,41,00,06,40,00,00,00,00,
1472508,01213FFC,true,Rx,0,8,CD,02,4D,00,E0,00,88,00,
1473696,01800028,true,Rx,0,8,C0,00,78,00,00,00,00,00,
1474819,02A03028,true,Rx,0,8,00,9F,84,11,1A,2C,00,00,
1475955,03801028,true,Rx,0,8,04,00,20,08,9C,40,00,00,
1478149,0261300A,true,Rx,0,8,00,00,00,27,80,40,00,C0,
1490074,00613DF8,true,Rx,0,8,83,00,06,40,00,00,00,00,
1491194,0340024C,true,Rx,0,8,C1,00,70,01,0B,B3,00,00,
1494390,0102C02C,true,Rx,1,8,CF,C0,40,0D,C0,11,2B,AE,
1494788,0140044A,true,Rx,0,8,40,00,00,1B,00,00,00,00,
1495934,01213FFC,true,Rx,0,8,0D,02,4D,40,F0,40,88,00,
1497098,0240102A,true,Rx,0,8,81,00,00,00,00,00,00,00,
1498203,01C030A2,true,Rx,0,8,40,5B,40,01,89,01,14,00,
1499346,0280142A,true,Rx,0,8,40,10,00,20,07,00,00,00,
1500467,02C13428,true,Rx,0,8,80,00,D8,80,88,CF,20,00,
1501550,02E10DF4,true,Rx,0,8,8F,A9,2F,AC,89,3A,F8,18,
1505058,02A03028,true,Rx,0,8,00,9F,D1,19,1A,2C,80,00,
1506240,03200008,true,Rx,0,8,00,00,00,00,00,80,00,00,
1508309,0261300A,true,Rx,0,8,40,00,00,27,80,40,00,C0,
1509460,02001022,true,Rx,0,8,80,00,00,01,35,90,10,40,
1510606,00613DF8,true,Rx,0,8,C1,00,06,40,00,00,00,00,
1511822,01800028,true,Rx,0,8,00,00,78,00,00,00,00,00,
1514139,01E01266,true,Rx,0,8,40,00,02,00,00,00,40,00,
1519469,0102C02C,true,Rx,1,8,0F,C0,40,0D,C0,10,2B,AE,
1520034,01200028,true,Rx,1,8,C8,08,00,49,F0,00,33,27,
1520116,01213FFC,true,Rx,0,8,4D,02,4D,00,F0,00,88,00,
1527879,0280142A,true,Rx,0,8,80,50,00,28,07,00,00,00,
1529805,0240102A,true,Rx,0,8,C1,00,00,00,00,00,00,00,
1530955,00613DF8,true,Rx,0,8,03,00,06,40,00,00,00,00,
1534771,0140044A,true,Rx,0,8,80,00,00,0B,10,00,00,00,
1538259,0261300A,true,Rx,0,8,80,00,00,27,80,40,00,C0,
1540195,02A03028,true,Rx,0,8,00,9F,81,11,1A,2C,00,00,
1542069,01C030A2,true,Rx,0,8,80,5B,40,01,89,01,14,00,
1543220,00400066,true,Rx,0,8,40,00,00,00,01,5E,40,7F,
1544476,0102C02C,true,Rx,1,8,4F,C0,40,0D,C0,10,2B,AE,
1545085,01213FFC,true,Rx,0,8,8D,02,4D,00,E0,00,88,00,
1549596,00608024,true,Rx,1,8,C0,00,00,00,00,01,00,3E,
1550170,01200028,true,Rx,1,8,08,00,00,49,F0,00,33,27,
1550242,00613DF8,true,Rx,0,8,41,00,06,40,00,00,00,00,
1551429,01800028,true,Rx,0,8,40,00,78,00,00,00,00,00,
1554724,02001022,true,Rx,0,8,C0,00,00,01,35,90,10,40,
1555826,02C13428,true,Rx,0,8,C0,00,D8,80,88,CF,20,00,
1556926,02E10DF4,true,Rx,0,8,CF,A9,0F,2C,89,3A,F8,18,
1558073,0280142A,true,Rx,0,8,C0,50,00,20,07,00,00,00,
1559370,01E01266,true,Rx,0,8,80,00,02,00,00,00,40,00,
1559580,0132C07C,true,Rx,1,8,01,0F,B0,60,EC,72,01,05,
1560497,01613FFC,true,Rx,0,8,01,0F,B0,60,EC,72,00,09,
1564820,0240102A,true,Rx,0,8,01,00,00,00,00,00,00,00,
1568288,0261300A,true,Rx,0,8,C0,00,00,27,80,40,00,C0,
1569575,0102C02C,true,Rx,1,8,8F,C0,40,0D,C0,10,2B,AE,
1570204,00613DF8,true,Rx,0,8,83,00,06,40,00,00,00,00,
1571337,01213FFC,true,Rx,0,8,CD,02,4D,00,F0,00,88,00,
1574769,0140044A,true,Rx,0,8,C0,00,00,0B,00,00,00,00,
1575891,02A03028,true,Rx,0,8,00,9F,81,11,1A,2C,00,00,
1577042,04000002,true,Rx,0,8,40,00,01,00,F4,00,00,52,
1579524,01200028,true,Rx,1,8,48,08,00,49,F0,00,33,27,
1587192,01C030A2,true,Rx,0,8,C0,5B,40,01,89,01,14,00,
1588334,0280142A,true,Rx,0,8,00,10,00,20,07,00,00,00,
1590145,00613DF8,true,Rx,0,8,C1,00,06,40,00,00,00,00,
1591318,01800028,true,Rx,0,8,80,00,78,00,00,00,00,00,
1594480,0102C02C,true,Rx,1,8,CF,C0,40,0D,C0,30,2B,AE,
1595109,01213FFC,true,Rx,0,8,0D,02,4D,40,E0,40,88,00,
1598454,0261300A,true,Rx,0,8,00,00,00,27,80,40,00,C0,
1599606,02001022,true,Rx,0,8,00,00,00,01,35,90,10,40,
1600768,0240102A,true,Rx,0,8,40,00,00,00,00,00,00,00,
1604114,01E01266,true,Rx,0,8,C0,00,02,00,00,00,40,00,
1609489,01200028,true,Rx,1,8,88,08,00,49,F0,00,33,27,
1610104,00613DF8,true,Rx,0,8,03,00,06,40,00,00,00,00,
1611240,02A03028,true,Rx,0,8,00,9F,C1,19,1A,2C,00,00,
1612352,02C13428,true,Rx,0,8,00,00,D8,80,88,CF,20,00,
1613458,02E10DF4,true,Rx,0,8,0F,A9,2F,AC,89,3A,F8,18,
1614643,03200008,true,Rx,0,8,00,00,00,00,00,80,00,00,
1615817,0140044A,true,Rx,0,8,00,00,00,1B,10,00,00,00,
1617895,0280142A,true,Rx,0,8,40,50,00,20,07,00,00,00,
1619051,00400066,true,Rx,0,8,80,00,00,01,01,5E,40,7F,
1619549,0102C02C,true,Rx,1,8,0F,C0,40,0D,C0,10,2B,AE,
1620198,01213FFC,true,Rx,0,8,4D,02,4D,00,F0,00,88,00,
1624510,00608024,true,Rx,1,8,00,00,00,00,00,01,01,3E,
1628546,0261300A,true,Rx,0,8,40,00,00,27,80,40,00,C0,
1630131,00613DF8,true,Rx,0,8,41,00,06,40,00,00,00,00,
1631314,01800028,true,Rx,0,8,C0,00,78,00,00,00,00,00,
1632438,01C030A2,true,Rx,0,8,00,5B,40,01,89,01,14,00,
1634810,0240102A,true,Rx,0,8,81,00,00,00,00,00,00,00,
1639471,01200028,true,Rx,1,8,C8,08,00,49,F0,00,33,27,
1644453,0102C02C,true,Rx,1,8,4F,C0,40,0D,C0,10,2B,AE,
1644675,02001022,true,Rx,0,8,40,00,00,01,35,90,10,40,
1645802,01213FFC,true,Rx,0,8,8D,02,4D,00,F0,00,88,00,
1646914,02A03028,true,Rx,0,8,00,9F,81,11,1A,2C,00,00,
1648060,0280142A,true,Rx,0,8,80,50,00,20,07,00,00,00,
1649234,01E01266,true,Rx,0,8,00,00,02,00,00,00,40,00,
1650380,00613DF8,true,Rx,0,8,83,00,06,40,00,00,00,00,
1654730,0140044A,true,Rx,0,8,40,00,00,0B,00,00,00,00,
1658498,0261300A,true,Rx,0,8,80,00,00,27,80,40,00,C0,
1664755,03C0002A,true,Rx,0,8,00,00,33,C0,27,00,1F,00,
1665856,02C13428,true,Rx,0,8,40,00,D8,80,88,CF,20,00,
1666945,02E10DF4,true,Rx,0,8,4F,A9,0F,2C,89,3A,F8,18,
1668122,0360000A,true,Rx,0,8,80,00,00,00,00,14,00,80,
1669720,0102C02C,true,Rx,1,8,8F,C0,40,0D,C0,10,2B,AE,
1669815,0240102A,true,Rx,0,8,C1,00,00,00,00,00,00,00,
1670292,01200028,true,Rx,1,8,08,00,00,CD,F0,00,33,27,
1670963,00613DF8,true,Rx,0,8,C1,00,06,40,00,00,00,00,
1672097,01213FFC,true,Rx,0,8,CD,02,4D,40,E0,00,88,00,
1673313,01800028,true,Rx,0,8,00,00,78,00,00,00,00,00,
1674458,0340024C,true,Rx,0,8,01,00,60,01,03,B3,00,00,
1677305,01C030A2,true,Rx,0,8,40,5B,40,01,89,01,14,00,
1678456,0280142A,true,Rx,0,8,C0,10,00,20,07,00,00,00,
1680123,02A03028,true,Rx,0,8,00,9F,81,11,1A,2C,00,00,
1688693,0261300A,true,Rx,0,8,C0,00,00,27,80,40,00,C0,
1689835,02001022,true,Rx,0,8,80,00,00,01,35,90,10,40,
1690987,00613DF8,true,Rx,0,8,03,00,06,40,00,00,00,00,
1693819,00400066,true,Rx,0,8,C0,00,00,02,01,5E,40,7F,
1694502,0102C02C,true,Rx,1,8,CF,C0,40,0D,C0,11,2B,AE,
1694976,0140044A,true,Rx,0,8,80,00,00,1B,00,00,00,00,
1696121,01213FFC,true,Rx,0,8,0D,02,4D,00,F0,40,88,00,
1697285,01E01266,true,Rx,0,8,40,00,02,00,00,00,40,00,
1699592,00608024,true,Rx,1,8,40,00,00,00,00,01,02,3E,
1700161,01200028,true,Rx,1,8,48,08,00,49,F0,00,33,27,
1704780,0240102A,true,Rx,0,8,00,00,00,00,00,00,00,00,
1707875,0280142A,true,Rx,0,8,00,50,00,28,07,00,00,00,
1710182,00613DF8,true,Rx,0,8,41,00,06,40,00,00,00,00,
1711364,01800028,true,Rx,0,8,40,00,78,00,00,00,00,00,
1715035,02A03028,true,Rx,0,8,00,1F,41,19,1A,2C,00,00,
1716217,03200008,true,Rx,0,8,00,00,00,00,00,80,00,00,
1718731,0261300A,true,Rx,0,8,00,00,00,27,80,40,00,C0,
1719543,0102C02C,true,Rx,1,8,0F,C0,40,0D,C0,10,2B,AE,
1720163,01213FFC,true,Rx,0,8,4D,02,4D,00,F0,00,88,00,
1721275,02C13428,true,Rx,0,8,80,00,D8,80,88,CF,20,00,
1722378,01C030A2,true,Rx,0,8,80,5B,40,01,89,01,14,00,
1723471,02E10DF4,true,Rx,0,8,8F,A9,2F,AC,89,3A,F8,18,
1729461,01200028,true,Rx,1,8,88,08,00,49,F0,00,33,27,
1730088,00613DF8,true,Rx,0,8,83,00,06,40,00,00,00,00,
1734698,02001022,true,Rx,0,8,C0,00,00,01,35,90,10,40,
1735850,0140044A,true,Rx,0,8,C0,00,00,0B,10,00,00,00,
1737878,0280142A,true,Rx,0,8,40,50,00,20,07,00,00,00,
1739308,01E01266,true,Rx,0,8,80,00,02,00,00,00,40,00,
1740473,0240102A,true,Rx,0,8,41,00,00,00,00,00,00,00,
1744463,0102C02C,true,Rx,1,8,4F,C0,40,0D,C0,10,2B,AE,
1745078,01213FFC,true,Rx,0,8,8D,02,4D,40,E0,00,88,00,
1748818,0261300A,true,Rx,0,8,40,00,00,27,80,40,00,C0,
1750115,00613DF8,true,Rx,0,8,C1,00,06,40,00,00,00,00,
1751296,01800028,true,Rx,0,8,80,00,78,00,00,00,00,00,
1752412,02A03028,true,Rx,0,8,00,9F,91,11,1A,2C,80,00,
1759435,01200028,true,Rx,1,8,C8,08,00,49,F0,00,33,27,
1767193,01C030A2,true,Rx,0,8,C0,5B,40,01,89,01,14,00,
1768354,0280142A,true,Rx,0,8,80,10,00,20,07,00,00,00,
1769497,00400066,true,Rx,0,8,00,00,00,03,01,5E,40,7F,
1769520,0102C02C,true,Rx,1,8,8F,C0,40,0D,C0,10,2B,AE,
1770643,00613DF8,true,Rx,0,8,03,00,06,40,00,00,00,00,
1771780,01213FFC,true,Rx,0,8,CD,02,4D,00,F0,00,88,00,
1774570,00608024,true,Rx,1,8,80,00,00,00,00,01,03,3E,
1774768,0140044A,true,Rx,0,8,00,00,00,0B,00,00,00,00,
1775933,0240102A,true,Rx,0,8,83,00,00,00,00,00,00,00,
1777027,02C13428,true,Rx,0,8,C0,00,D8,80,88,CF,20,00,
1778129,02E10DF4,true,Rx,0,8,CF,A9,0F,2C,89,3A,F8,18,
1779255,0261300A,true,Rx,0,8,80,00,00,27,80,40,00,C0,
1780408,02001022,true,Rx,0,8,00,00,00,01,35,90,10,40,
1784109,01E01266,true,Rx,0,8,C0,00,02,00,00,00,40,00,
1785241,02A03028,true,Rx,0,8,00,9F,C1,19,1A,2C,00,00,
1789515,01200028,true,Rx,1,8,08,00,00,49,F0,00,33,27,
1790140,00613DF8,true,Rx,0,8,41,00,06,40,00,00,00,00,
1791316,01800028,true,Rx,0,8,C0,00,78,00,00,00,00,00,
1792460,03801028,true,Rx,0,8,4C,00,20,08,DC,40,00,00,
1794375,0102C02C,true,Rx,1,8,CF,C0,40,0D,C0,10,2B,AE,
1795036,01213FFC,true,Rx,0,8,0D,02,4D,00,E0,40,88,00,
1797861,0280142A,true,Rx,0,8,C0,50,00,20,07,00,00,00,
1808852,0261300A,true,Rx,0,8,C0,00,00,27,80,40,00,C0,
1810005,0240102A,true,Rx,0,8,C0,00,00,00,00,00,00,00,
1811156,00613DF8,true,Rx,0,8,83,00,06,40,00,00,00,00,
1812282,01C030A2,true,Rx,0,8,00,5B,40,01,89,01,14,00,
1814723,0140044A,true,Rx,0,8,40,00,00,1B,10,00,00,00,
1819468,0102C02C,true,Rx,1,8,0F,C0,40,0D,C0,10,2B,AE,
1820034,01200028,true,Rx,1,8,48,08,00,49,F0,00,33,27,
1820116,01213FFC,true,Rx,0,8,4D,02,4D,40,F0,00,88,00,
1821230,02A03028,true,Rx,0,8,00,9F,81,11,1A,2C,00,00,
1822417,03200008,true,Rx,0,8,00,00,00,00,00,80,00,00,
1824755,02001022,true,Rx,0,8,40,00,00,01,35,90,10,40,
1827858,0280142A,true,Rx,0,8,00,50,00,20,07,00,00,00,
1829165,01E01266,true,Rx,0,8,00,00,06,00,00,00,40,00,
1830316,00613DF8,true,Rx,0,8,C1,00,06,40,00,00,00,00,
1831525,01800028,true,Rx,0,8,00,00,78,00,00,00,00,00,
1832637,02C13428,true,Rx,0,8,00,00,D8,80,88,CF,20,00,
1833753,02E10DF4,true,Rx,0,8,0F,A9,2F,AC,89,3A,F8,18,
1838923,0261300A,true,Rx,0,8,00,00,00,27,80,40,00,C0,
1839509,0132C07C,true,Rx,1,8,02,52,BC,40,63,04,98,63,
1840108,01613FFC,true,Rx,0,8,02,52,BC,40,63,04,98,63,
1843988,00400066,true,Rx,0,8,40,00,00,04,01,5E,40,7F,
1844429,0102C02C,true,Rx,1,8,4F,C0,40,0D,C0,10,2B,AE,
1845110,01213FFC,true,Rx,0,8,8D,02,4D,00,F0,00,88,00,
1846285,0240102A,true,Rx,0,8,01,00,00,00,00,00,00,00,
1849560,00608024,true,Rx,1,8,C0,00,00,00,00,01,04,3E,
1850136,01200028,true,Rx,1,8,88,08,00,49,F0,00,33,27,
1850219,00613DF8,true,Rx,0,8,03,00,06,40,00,00,00,00,
1851353,0340024C,true,Rx,0,8,41,00,60,01,0B,B3,00,00,
1854719,0140044A,true,Rx,0,8,80,00,00,0B,00,00,00,00,
1855840,02A03028,true,Rx,0,8,00,9F,81,11,1A,2C,00,00,
1857188,01C030A2,true,Rx,0,8,40,5B,40,01,89,01,14,00,
1858334,0280142A,true,Rx,0,8,40,10,00,20,07,00,00,00,
1868848,0261300A,true,Rx,0,8,40,00,00,27,80,40,00,C0,
1869527,0102C02C,true,Rx,1,8,8F,C0,40,0D,C0,10,2B,AE,
1869992,02001022,true,Rx,0,8,80,00,00,01,35,90,10,40,
1871155,00613DF8,true,Rx,0,8,41,00,06,40,00,00,00,00,
1872291,01213FFC,true,Rx,0,8,CD,02,4D,00,E0,00,88,00,
1873475,01800028,true,Rx,0,8,40,00,78,00,00,00,00,00,
1874643,01E01266,true,Rx,0,8,40,00,02,00,00,00,40,00,
1879138,03A00002,true,Rx,0,8,00,00,00,04,07,04,98,63,
1879476,01200028,true,Rx,1,8,C8,08,00,49,F0,00,33,27,
1880301,0240102A,true,Rx,0,8,41,00,00,00,00,00,00,00,
1885073,02C13428,true,Rx,0,8,40,00,D8,80,88,CF,20,00,
1886175,02E10DF4,true,Rx,0,8,4F,A9,2F,AC,89,3A,F8,18,
1887852,0280142A,true,Rx,0,8,80,50,00,20,07,00,00,00,
1890116,00613DF8,true,Rx,0,8,83,00,06,40,00,00,00,00,
1891247,02A03028,true,Rx,0,8,00,9F,C1,19,1A,2C,00,00,
1894419,0102C02C,true,Rx,1,8,CF,C0,40,0D,C0,11,2B,AE,
1894750,0140044A,true,Rx,0,8,C0,00,00,1B,00,00,00,00,
1895904,01213FFC,true,Rx,0,8,0D,02,4D,40,F0,40,88,00,
1898943,0261300A,true,Rx,0,8,80,00,00,27,80,40,00,C0,
1902172,01C030A2,true,Rx,0,8,80,5B,40,01,89,01,14,00,
1909475,01200028,true,Rx,1,8,08,00,00,4B,F0,00,33,27,
1910101,00613DF8,true,Rx,0,8,C1,00,06,40,00,00,00,00,
1911277,01800028,true,Rx,0,8,80,00,78,00,00,00,00,00,
1914706,02001022,true,Rx,0,8,C0,00,00,01,35,90,10,40,
1915870,0240102A,true,Rx,0,8,81,00,00,00,00,00,00,00,
1917847,0280142A,true,Rx,0,8,C0,50,00,28,07,00,00,00,
1919050,00400066,true,Rx,0,8,80,00,00,05,01,5E,40,7F,
1919547,0102C02C,true,Rx,1,8,0F,C0,40,0D,C0,10,2B,AE,
1920228,01E01266,true,Rx,0,8,80,00,02,00,00,00,40,00,
1921353,01213FFC,true,Rx,0,8,4D,02,4D,00,F0,00,88,00,
1924527,00608024,true,Rx,1,8,00,00,00,00,00,01,05,3E,
1925142,02A03028,true,Rx,0,8,00,9F,81,11,1A,2C,00,00,
1926328,03200008,true,Rx,0,8,00,00,00,00,00,80,00,00,
1928999,0261300A,true,Rx,0,8,C0,00,00,27,80,40,00,C0,
1930150,00613DF8,true,Rx,0,8,03,00,06,40,00,00,00,00,
1934743,0140044A,true,Rx,0,8,00,00,00,0B,10,00,00,00,
1939476,01200028,true,Rx,1,8,48,08,00,49,F0,00,33,27,
1940091,02C13428,true,Rx,0,8,80,00,D8,80,88,CF,20,00,
1941174,02E10DF4,true,Rx,0,8,8F,A9,0F,2C,89,3A,F8,18,
1944439,0102C02C,true,Rx,1,8,4F,C0,40,0D,C0,10,2B,AE,
1945053,01213FFC,true,Rx,0,8,8D,02,4D,00,E0,00,88,00,
1947390,01C030A2,true,Rx,0,8,C0,5B,40,01,89,01,14,00,
1948532,0280142A,true,Rx,0,8,00,10,00,20,07,00,00,00,
1949813,0240102A,true,Rx,0,8,C0,00,00,00,00,00,00,00,
1950976,00613DF8,true,Rx,0,8,41,00,06,40,00,00,00,00,
1952163,01800028,true,Rx,0,8,C0,00,78,00,00,00,00,00,
1959031,0261300A,true,Rx,0,8,00,00,00,27,80,40,00,C0,
1960182,02001022,true,Rx,0,8,00,00,00,01,35,90,10,40,
1961303,02A03028,true,Rx,0,8,00,9F,81,11,1A,2C,00,00,
1964165,01E01266,true,Rx,0,8,C0,00,02,00,00,00,40,00,
1969505,0102C02C,true,Rx,1,8,8F,C0,40,0D,C0,10,2B,AE,
1970081,01200028,true,Rx,1,8,88,08,00,49,F0,00,33,27,
1970173,00613DF8,true,Rx,0,8,83,00,06,40,00,00,00,00,
1971309,01213FFC,true,Rx,0,8,CD,02,4D,00,F0,00,88,00,
1974739,0140044A,true,Rx,0,8,40,00,00,0B,00,00,00,00,
1977844,0280142A,true,Rx,0,8,40,50,00,20,07,00,00,00,
1984753,0240102A,true,Rx,0,8,01,00,00,00,00,00,00,00,
1986265,0360000A,true,Rx,0,8,C0,00,00,00,00,14,00,80,
1989244,0261300A,true,Rx,0,8,40,00,00,27,80,40,00,C0,
1990395,00613DF8,true,Rx,0,8,C1,00,06,40,00,00,00,00,
1991609,01800028,true,Rx,0,8,00,00,78,00,00,00,00,00,
1992736,01C030A2,true,Rx,0,8,00,5B,40,01,89,01,14,00,
1994228,00400066,true,Rx,0,8,C0,00,00,06,01,5E,40,7F,
1994458,0102C02C,true,Rx,1,8,CF,C0,40,0D,C0,10,2B,AE,
1995363,01213FFC,true,Rx,0,8,0D,02,4D,40,E0,40,88,00,
1996478,02A03028,true,Rx,0,8,00,1F,51,19,1A,2C,80,00,
1997571,02C13428,true,Rx,0,8,C0,00,D8,80,88,CF,20,00,
1998674,02E10DF4,true,Rx,0,8,CF,A9,2F,AC,89,3A,F8,18,
1999521,00608024,true,Rx,1,8,40,00,00,00,00,01,06,3E,
2000090,01200028,true,Rx,1,8,C8,08,00,49,F0,00,33,27,
2004733,02001022,true,Rx,0,8,40,00,00,01,35,90,10,40,
2007838,0280142A,true,Rx,0,8,80,50,00,20,07,00,00,00,
2009134,01E01266,true,Rx,0,8,00,00,02,00,00,00,40,00,
2010285,00613DF8,true,Rx,0,8,03,00,06,40,00,00,00,00,
2014699,0140044A,true,Rx,0,8,80,00,00,1B,10,00,00,00,
2019184,0261300A,true,Rx,0,8,80,00,00,27,80,40,00,C0,
2019543,0102C02C,true,Rx,1,8,0F,C0,40,0D,C0,10,2B,AE,
2020306,01213FFC,true,Rx,0,8,4D,02,4D,00,F0,00,88,00,
2021481,0240102A,true,Rx,0,8,41,00,00,00,00,00,00,00,
2029479,01200028,true,Rx,1,8,08,00,00,49,F0,00,33,27,
2030104,00613DF8,true,Rx,0,8,41,00,06,40,00,00,00,00,
2031281,01800028,true,Rx,0,8,40,00,78,00,00,00,00,00,
2032404,02A03028,true,Rx,0,8,00,9F,81,11,1A,2C,00,00,
2033587,03200008,true,Rx,0,8,00,00,00,00,00,80,00,00,
2034721,0340024C,true,Rx,0,8,80,00,70,00,0B,B3,00,00,
2035867,04000002,true,Rx,0,8,80,00,01,00,B4,00,00,52,
2037197,01C030A2,true,Rx,0,8,40,5B,40,01,89,01,14,00,
2038351,0280142A,true,Rx,0,8,C0,10,00,20,07,00,00,00,
2044436,0102C02C,true,Rx,1,8,4F,C0,40,0D,C0,10,2B,AE,
2045051,01213FFC,true,Rx,0,8,8D,02,4D,00,F0,00,88,00,
2049266,0261300A,true,Rx,0,8,C0,00,00,27,80,40,00,C0,
2050419,00613DF8,true,Rx,0,8,83,00,06,40,00,00,00,00,
2051570,02001022,true,Rx,0,8,80,00,00,01,35,90,10,40,
2052675,02C13428,true,Rx,0,8,00,00,D8,80,88,CF,20,00,
2053768,02E10DF4,true,Rx,0,8,0F,A9,0F,2C,89,3A,F8,18,
2054923,0140044A,true,Rx,0,8,C0,00,00,0B,00,00,00,00,
2056098,01E01266,true,Rx,0,8,40,00,02,00,00,00,40,00,
2057254,0240102A,true,Rx,0,8,80,00,00,00,00,00,00,00,
2059512,01200028,true,Rx,1,8,48,08,00,49,F0,00,33,27,
2065033,02A03028,true,Rx,0,8,00,9F,81,11,1A,2C,00,00,
2067818,0280142A,true,Rx,0,8,00,50,00,20,07,00,00,00,
2069186,00400066,true,Rx,0,8,00,00,00,07,01,5E,40,7F,
2069550,0102C02C,true,Rx,1,8,8F,C0,40,0D,C0,10,2B,AE,
2070343,00613DF8,true,Rx,0,8,C1,00,06,40,00,00,00,00,
2071477,01213FFC,true,Rx,0,8,CD,02,4D,40,E0,00,88,00,
2072652,01800028,true,Rx,0,8,80,00,78,00,00,00,00,00,
2074516,00608024,true,Rx,1,8,80,00,00,00,00,01,07,3E,
2074785,03C0002A,true,Rx,0,8,00,00,33,C0,27,00,9F,00,
2079192,0261300A,true,Rx,0,8,00,00,00,27,80,40,00,C0,
2082102,01C030A2,true,Rx,0,8,80,5B,40,01,89,01,14,00,
2089447,01200028,true,Rx,1,8,88,08,00,CD,F0,00,33,27,
2089712,0240102A,true,Rx,0,8,C1,00,00,00,00,00,00,00,
2090858,00613DF8,true,Rx,0,8,03,00,06,40,00,00,00,00,
2094419,0102C02C,true,Rx,1,8,CF,C0,40,0D,C0,11,2B,AE,
2094745,0140044A,true,Rx,0,8,00,00,00,1B,00,00,00,00,
2095891,01213FFC,true,Rx,0,8,0D,02,4D,00,F0,40,88,00,
2097025,02001022,true,Rx,0,8,C0,00,00,01,35,90,10,40,
2098181,0280142A,true,Rx,0,8,40,50,00,20,07,00,00,00,
2099417,01E01266,true,Rx,0,8,80,00,02,00,00,00,40,00,
2100538,02A03028,true,Rx,0,8,00,9F,C1,19,1A,2C,00,00,
2104992,02C13428,true,Rx,0,8,40,00,D8,80,88,CF,20,00,
2106102,02E10DF4,true,Rx,0,8,4F,A9,2F,AC,89,3A,F8,18,
2109440,0261300A,true,Rx,0,8,40,00,00,27,80,40,00,C0,
2110603,00613DF8,true,Rx,0,8,41,00,06,40,00,00,00,00,
2111787,01800028,true,Rx,0,8,C0,00,78,00,00,00,00,00,
2112932,03801028,true,Rx,0,8,8C,00,20,08,9C,40,00,00,
2119437,0102C02C,true,Rx,1,8,0F,C0,40,0D,C0,10,2B,AE,
2120002,01200028,true,Rx,1,8,C8,08,00,49,F0,00,33,27,
2120105,01213FFC,true,Rx,0,8,4D,02,4D,00,F0,00,88,00,
2120592,0132C07C,true,Rx,1,8,10,10,01,03,02,03,00,01,
2121262,01613FFC,true,Rx,0,8,10,10,01,03,02,03,00,01,
2124787,0240102A,true,Rx,0,8,03,00,00,00,00,00,00,00,
2127292,01C030A2,true,Rx,0,8,C0,5B,40,01,89,01,14,00,
2128433,0280142A,true,Rx,0,8,80,10,00,28,07,00,00,00,
2130121,00613DF8,true,Rx,0,8,83,00,06,40,00,00,00,00,
2134733,0140044A,true,Rx,0,8,40,00,00,0B,10,00,00,00,
2135854,02A03028,true,Rx,0,8,00,9F,81,11,1A,2C,00,00,
2137036,03200008,true,Rx,0,8,00,00,00,00,00,80,00,00,
2139332,0261300A,true,Rx,0,8,80,00,00,27,80,40,00,C0,
2140478,02001022,true,Rx,0,8,00,00,00,01,35,90,10,40,
2144147,01E01266,true,Rx,0,8,C0,00,02,00,00,00,40,00,
2144444,0102C02C,true,Rx,1,8,4F,C0,40,0D,C0,10,2B,AE,
2145289,00400066,true,Rx,0,8,40,00,00,00,01,5E,40,7F,
2146423,01213FFC,true,Rx,0,8,8D,02,4D,40,E0,00,88,00,
2149596,00608024,true,Rx,1,8,C0,00,00,00,00,01,00,3E,
2150175,01200028,true,Rx,1,8,08,00,00,49,F0,00,33,27,
2150235,00613DF8,true,Rx,0,8,C1,00,06,40,00,00,00,00,
2151453,01800028,true,Rx,0,8,00,00,78,00,00,00,00,00,
2157811,0280142A,true,Rx,0,8,C0,50,00,20,07,00,00,00,
2159725,0240102A,true,Rx,0,8,40,00,00,00,00,00,00,00,
2160836,02C13428,true,Rx,0,8,80,00,D8,80,88,CF,20,00,
2161927,02E10DF4,true,Rx,0,8,8F,A9,0F,2C,89,3A,F8,18,
2169426,0261300A,true,Rx,0,8,C0,00,00,27,80,40,00,C0,
2169487,0102C02C,true,Rx,1,8,8F,C0,40,0D,C0,10,2B,AE,
2170579,00613DF8,true,Rx,0,8,03,00,06,40,00,00,00,00,
2171714,01213FFC,true,Rx,0,8,CD,02,4D,00,F0,00,88,00,
2172840,01C030A2,true,Rx,0,8,00,5B,40,01,89,01,14,00,
2173952,02A03028,true,Rx,0,8,00,9F,81,11,1A,2C,00,00,
2175118,0140044A,true,Rx,0,8,80,00,00,0B,00,00,00,00,
2179459,01200028,true,Rx,1,8,48,08,00,49,F0,00,33,27,
2184686,02001022,true,Rx,0,8,40,00,00,01,35,90,10,40,
2187814,0280142A,true,Rx,0,8,00,50,00,20,07,00,00,00,
2189150,01E01266,true,Rx,0,8,00,00,02,00,00,00,40,00,
2190313,00613DF8,true,Rx,0,8,41,00,06,40,00,00,00,00,
2191499,01800028,true,Rx,0,8,40,00,78,00,00,00,00,00,
2194440,0102C02C,true,Rx,1,8,CF,C0,40,0D,C0,10,2B,AE,
2194738,0240102A,true,Rx,0,8,81,00,00,00,00,00,00,00,
2195873,01213FFC,true,Rx,0,8,0D,02,4D,00,E0,40,88,00,
2199588,0261300A,true,Rx,0,8,00,00,00,27,80,40,00,C0,
2205025,02A03028,true,Rx,0,8,00,9F,C1,19,1A,2C,00,00,
2209438,01200028,true,Rx,1,8,88,08,00,49,F0,00,33,27,
2210062,00613DF8,true,Rx,0,8,83,00,06,40,00,00,00,00,
2211198,0340024C,true,Rx,0,8,C0,00,60,00,03,B3,00,00,
2214688,0140044A,true,Rx,0,8,C0,00,00,1B,10,00,00,00,
2215778,02C13428,true,Rx,0,8,C0,00,D8,80,88,CF,20,00,
2216878,02E10DF4,true,Rx,0,8,CF,A9,2F,AC,89,3A,F8,18,
2217984,01C030A2,true,Rx,0,8,40,5B,40,01,89,01,14,00,
2219128,0280142A,true,Rx,0,8,40,10,00,20,07,00,00,00,
2219574,0102C02C,true,Rx,1,8,0F,C0,40,0D,C0,10,2B,AE,
2220286,00400066,true,Rx,0,8,80,00,00,01,01,5E,40,7F,
2221410,01213FFC,true,Rx,0,8,4D,02,4D,40,F0,00,88,00,
2224532,00608024,true,Rx,1,8,00,00,00,00,00,01,01,3E,
2229428,02001022,true,Rx,0,8,80,00,00,01,35,90,10,40,
2230579,00613DF8,true,Rx,0,8,C1,00,06,40,00,00,00,00,
2231753,01800028,true,Rx,0,8,80,00,78,00,00,00,00,00,
2232908,0240102A,true,Rx,0,8,C1,00,00,00,00,00,00,00,
2234032,0261300A,true,Rx,0,8,40,00,00,27,80,40,00,C0,
2235197,01E01266,true,Rx,0,8,40,00,02,00,00,00,40,00,
2239476,01200028,true,Rx,1,8,C8,08,00,49,F0,00,33,27,
2240091,02A03028,true,Rx,0,8,00,9F,91,11,1A,2C,80,00,
2241277,03200008,true,Rx,0,8,00,00,00,00,00,80,00,00,
2244426,0102C02C,true,Rx,1,8,4F,C0,40,0D,C0,10,2B,AE,
2245041,01213FFC,true,Rx,0,8,8D,02,4D,00,F0,00,88,00,
2247801,0280142A,true,Rx,0,8,80,50,00,20,07,00,00,00,
2250108,00613DF8,true,Rx,0,8,03,00,06,40,00,00,00,00,
2254693,0140044A,true,Rx,0,8,00,00,00,0B,00,00,00,00,
2259861,0261300A,true,Rx,0,8,80,00,00,27,80,40,00,C0,
2262106,01C030A2,true,Rx,0,8,80,5B,40,01,89,01,14,00,
2264714,0240102A,true,Rx,0,8,01,00,00,00,00,00,00,00,
2269500,0102C02C,true,Rx,1,8,8F,C0,40,0D,C0,10,2B,AE,
2270075,01200028,true,Rx,1,8,08,00,00,49,F0,00,33,27,
2270168,00613DF8,true,Rx,0,8,41,00,06,40,00,00,00,00,
2271302,01213FFC,true,Rx,0,8,CD,02,4D,00,E0,00,88,00,
2272490,01800028,true,Rx,0,8,C0,00,78,00,00,00,00,00,
2273600,02C13428,true,Rx,0,8,00,00,D8,80,88,CF,20,00,
2274695,02E10DF4,true,Rx,0,8,0F,A9,0F,2C,89,3A,F8,18,
2275829,02001022,true,Rx,0,8,C0,00,00,01,35,90,10,40,
2276955,02A03028,true,Rx,0,8,00,1F,01,11,1A,2C,00,00,
2278108,0280142A,true,Rx,0,8,C0,50,00,20,07,00,00,00,
2279511,01E01266,true,Rx,0,8,80,00,02,00,00,00,40,00,
2290070,00613DF8,true,Rx,0,8,83,00,06,40,00,00,00,00,
2291190,0261300A,true,Rx,0,8,C0,00,00,27,80,40,00,C0,
2294177,03A00002,true,Rx,0,8,40,00,00,04,07,04,98,63,
2294423,0102C02C,true,Rx,1,8,CF,C0,40,0D,C0,11,2B,AE,
2295320,00400066,true,Rx,0,8,C0,00,00,02,01,5E,40,7F,
2296474,01213FFC,true,Rx,0,8,0D,02,4D,40,F0,40,88,00,
2297630,0140044A,true,Rx,0,8,40,00,00,1B,00,00,00,00,
2299558,00608024,true,Rx,1,8,40,00,00,00,00,01,02,3E,
2299755,0240102A,true,Rx,0,8,40,00,00,00,00,00,00,00,
2300129,01200028,true,Rx,1,8,48,08,00,49,F0,00,33,27,
2306283,0360000A,true,Rx,0,8,00,00,00,00,00,14,00,80,
2307403,01C030A2,true,Rx,0,8,C0,5B,40,01,89,01,14,00,
2308536,0280142A,true,Rx,0,8,00,10,00,28,07,00,00,00,
2310125,00613DF8,true,Rx,0,8,C1,00,06,40,00,00,00,00,
2311340,01800028,true,Rx,0,8,00,00,78,00,00,00,00,00,
2312461,02A03028,true,Rx,0,8,00,9F,C1,19,1A,2C,00,00,
2319441,02001022,true,Rx,0,8,00,00,00,01,35,90,10,40,
2319492,0102C02C,true,Rx,1,8,0F,C0,40,0D,C0,10,2B,AE,
2320563,01213FFC,true,Rx,0,8,4D,02,4D,00,F0,00,88,00,
2321697,0261300A,true,Rx,0,8,00,00,00,27,80,40,00,C0,
2324199,01E01266,true,Rx,0,8,C0,00,06,00,00,00,40,00,
2325294,02C13428,true,Rx,0,8,40,00,D8,80,88,CF,20,00,
2326396,02E10DF4,true,Rx,0,8,4F,A9,2F,AC,89,3A,F8,18,
2329455,01200028,true,Rx,1,8,88,08,00,4B,F0,00,33,27,
2330091,00613DF8,true,Rx,0,8,03,00,06,40,00,00,00,00,
2334721,0140044A,true,Rx,0,8,80,00,00,0B,10,00,00,00,
2335884,0240102A,true,Rx,0,8,81,00,00,00,00,00,00,00,
2337798,0280142A,true,Rx,0,8,40,50,00,20,07,00,00,00,
2344349,0102C02C,true,Rx,1,8,4F,C0,40,0D,C0,10,2B,AE,
2344995,01213FFC,true,Rx,0,8,8D,02,4D,00,E0,00,88,00,
2346120,02A03028,true,Rx,0,8,00,9F,81,11,1A,2C,00,00,
2347304,03200008,true,Rx,0,8,00,00,00,00,00,80,00,00,
2350105,00613DF8,true,Rx,0,8,41,00,06,40,00,00,00,00,
2351287,01800028,true,Rx,0,8,40,00,78,00,00,00,00,00,
2352413,01C030A2,true,Rx,0,8,00,5B,40,01,89,01,14,00,
2353525,0261300A,true,Rx,0,8,40,00,00,27,80,40,00,C0,
2356707,04200002,true,Rx,0,8,00,00,00,00,00,00,01,03,
2359463,01200028,true,Rx,1,8,C8,08,00,49,F0,00,33,27,
2364691,02001022,true,Rx,0,8,40,00,00,01,35,90,10,40,
2367787,0280142A,true,Rx,0,8,80,50,00,20,07,00,00,00,
2369176,01E01266,true,Rx,0,8,00,00,02,00,00,00,40,00,
2369538,0102C02C,true,Rx,1,8,8F,C0,40,0D,C0,10,2B,AE,
2370330,00613DF8,true,Rx,0,8,83,00,06,40,00,00,00,00,
2371466,00400066,true,Rx,0,8,00,00,00,03,01,5E,40,7F,
2372610,01213FFC,true,Rx,0,8,CD,02,4D,00,F0,00,88,00,
2373768,0240102A,true,Rx,0,8,C1,00,00,00,00,00,00,00,
2374531,00608024,true,Rx,1,8,80,00,00,00,00,01,03,3E,
2374923,0140044A,true,Rx,0,8,C0,00,00,0B,00,00,00,00,
2380160,02A03028,true,Rx,0,8,00,9F,C1,19,1A,2C,00,00,
2381291,0261300A,true,Rx,0,8,80,00,00,27,80,40,00,C0,
2382402,02C13428,true,Rx,0,8,80,00,D8,80,88,CF,20,00,
2383496,02E10DF4,true,Rx,0,8,8F,A9,2F,AC,89,3A,F8,18,
2389471,01200028,true,Rx,1,8,08,00,00,49,F0,00,33,27,
2390076,00613DF8,true,Rx,0,8,C1,00,06,40,00,00,00,00,
2391252,01800028,true,Rx,0,8,80,00,78,00,00,00,00,00,
2392396,0340024C,true,Rx,0,8,00,00,60,00,0B,B3,00,00,
2394352,0102C02C,true,Rx,1,8,CF,C0,40,0D,C0,10,2B,AE,
2395013,01213FFC,true,Rx,0,8,0D,02,4D,40,E0,40,88,00,
2397361,01C030A2,true,Rx,0,8,40,5B,40,01,89,01,14,00,
2398494,0280142A,true,Rx,0,8,C1,10,00,20,07,00,00,00,
2399476,0132C07C,true,Rx,1,8,15,13,03,01,01,02,01,01,
2400083,01613FFC,true,Rx,0,8,15,13,03,01,01,02,01,01,
2404745,0240102A,true,Rx,0,8,00,00,00,00,00,00,00,00,
2409436,02001022,true,Rx,0,8,80,00,00,01,35,90,10,40,
2410588,00613DF8,true,Rx,0,8,03,00,06,40,00,00,00,00,
2411708,0261300A,true,Rx,0,8,C0,00,00,27,80,40,00,C0,
2414222,01E01266,true,Rx,0,8,40,00,02,00,00,00,40,00,
2415389,0140044A,true,Rx,0,8,00,00,00,1B,10,00,00,00,
2416511,02A03028,true,Rx,0,8,00,9F,81,11,1A,2C,00,00,
2419468,0102C02C,true,Rx,1,8,0F,C0,40,0D,C0,10,2B,AE,
2420033,01200028,true,Rx,1,8,48,08,00,49,F0,00,33,27,
2420116,01213FFC,true,Rx,0,8,4D,02,4D,00,F0,00,88,00,
2427776,0280142A,true,Rx,0,8,00,50,00,20,07,00,00,00,
2430125,00613DF8,true,Rx,0,8,41,00,06,40,00,00,00,00,
2431308,01800028,true,Rx,0,8,C0,00,78,00,00,00,00,00,
2432459,03801028,true,Rx,0,8,CC,00,20,08,9C,40,00,00,
2435023,02C13428,true,Rx,0,8,C0,00,D8,80,88,CF,20,00,
2436127,02E10DF4,true,Rx,0,8,CF,A9,0F,2C,89,3A,F8,18,
2439733,0240102A,true,Rx,0,8,41,00,00,00,00,00,00,00,
2440874,0261300A,true,Rx,0,8,00,00,00,27,80,40,00,C0,
2442159,01C030A2,true,Rx,0,8,80,5B,40,01,89,01,14,00,
2444456,0102C02C,true,Rx,1,8,4F,C0,40,0D,C0,10,2B,AE,
2445074,01213FFC,true,Rx,0,8,8D,02,4D,00,F0,00,88,00,
2446208,00400066,true,Rx,0,8,40,00,00,04,01,5E,40,7F,
2449526,00608024,true,Rx,1,8,C0,00,00,00,00,01,04,3E,
2450091,01200028,true,Rx,1,8,88,08,00,49,F0,00,33,27,
2450173,00613DF8,true,Rx,0,8,83,00,06,40,00,00,00,00,
2451299,02A03028,true,Rx,0,8,00,9F,81,11,1A,2C,00,00,
2452475,03200008,true,Rx,0,8,00,00,00,00,00,80,00,00,
2454667,0140044A,true,Rx,0,8,40,00,00,0B,00,00,00,00,
2455804,02001022,true,Rx,0,8,C0,00,00,01,35,90,10,40,
2457783,0280142A,true,Rx,0,8,40,50,00,20,07,00,00,00,
2459388,01E01266,true,Rx,0,8,80,00,02,00,00,00,40,00,
2469531,0102C02C,true,Rx,1,8,8F,C0,40,0D,C0,10,2B,AE,
2470156,00613DF8,true,Rx,0,8,C1,00,06,40,00,00,00,00,
2471292,01213FFC,true,Rx,0,8,CD,02,4D,40,E0,00,88,00,
2472507,01800028,true,Rx,0,8,00,00,78,00,00,00,00,00,
2473628,0261300A,true,Rx,0,8,40,00,00,27,80,40,00,C0,
2474795,0240102A,true,Rx,0,8,83,00,00,00,00,00,00,00,
2479463,01200028,true,Rx,1,8,C8,08,00,49,F0,00,33,27,
2484650,03C0002A,true,Rx,0,8,00,00,33,C0,27,00,1F,00,
2485785,02A03028,true,Rx,0,8,00,9F,C1,19,1A,2C,00,00,
2487234,01C030A2,true,Rx,0,8,C0,5B,40,01,89,01,14,00,
2488391,0280142A,true,Rx,0,8,80,10,00,20,07,00,00,00,
2490628,00613DF8,true,Rx,0,8,03,00,06,40,00,00,00,00,
2491739,02C13428,true,Rx,0,8,00,00,D8,80,88,CF,20,00,
2492850,02E10DF4,true,Rx,0,8,0F,A9,2F,AC,89,3A,F8,18,
2494398,0102C02C,true,Rx,1,8,CF,C0,40,0D,C0,11,2B,AE,
2494706,0140044A,true,Rx,0,8,80,00,00,1B,00,00,00,00,
2495854,01213FFC,true,Rx,0,8,0D,02,4D,00,F0,40,88,00,
2496995,04000002,true,Rx,0,8,C0,00,01,00,F4,00,00,52,
2499578,02001022,true,Rx,0,8,00,00,00,01,35,90,10,40,
2501639,0261300A,true,Rx,0,8,80,00,00,27,80,40,00,C0,
2504192,01E01266,true,Rx,0,8,C0,00,02,00,00,00,40,00,
2509482,01200028,true,Rx,1,8,08,00,00,CD,F0,00,33,27,
2509655,0240102A,true,Rx,0,8,C0,00,00,00,00,00,00,00,
2510811,00613DF8,true,Rx,0,8,41,00,06,40,00,00,00,00,
2511996,01800028,true,Rx,0,8,40,00,78,00,00,00,00,00,
2517766,0280142A,true,Rx,0,8,C0,50,00,28,07,00,00,00,
2519475,0102C02C,true,Rx,1,8,0F,C0,40,0D,C0,30,2B,AE,
2520090,01213FFC,true,Rx,0,8,4D,02,4D,00,F0,00,88,00,
2521215,02A03028,true,Rx,0,8,00,9F,91,11,1A,2C,80,00,
2522348,00400066,true,Rx,0,8,80,00,00,05,01,5E,40,7F,
2524481,00608024,true,Rx,1,8,00,00,00,00,00,01,05,3E,
2530065,00613DF8,true,Rx,0,8,83,00,06,40,00,00,00,00,
2532011,0261300A,true,Rx,0,8,C0,00,00,27,80,40,00,C0,
2533131,01C030A2,true,Rx,0,8,00,5B,40,01,89,01,14,00,
2534705,0140044A,true,Rx,0,8,C0,00,00,0B,10,00,00,00,
2539473,01200028,true,Rx,1,8,48,08,00,49,F0,00,33,27,
2544414,0102C02C,true,Rx,1,8,4F,C0,40,0D,C0,10,2B,AE,
2544677,0240102A,true,Rx,0,8,01,00,00,00,00,00,00,00,
2545804,01213FFC,true,Rx,0,8,8D,02,4D,40,E0,00,88,00,
2546958,02001022,true,Rx,0,8,40,00,00,01,35,90,10,40,
2548104,0280142A,true,Rx,0,8,00,50,00,20,07,00,00,00,
2549278,01E01266,true,Rx,0,8,00,00,02,00,00,00,40,00,
2550424,00613DF8,true,Rx,0,8,C1,00,06,40,00,00,00,00,
2551598,01800028,true,Rx,0,8,80,00,78,00,00,00,00,00,
2552698,02C13428,true,Rx,0,8,40,00,D8,80,88,CF,20,00,
2553794,02E10DF4,true,Rx,0,8,4F,A9,0F,2C,89,3A,F8,18,
2555052,02A03028,true,Rx,0,8,00,1F,01,11,1A,2C,00,00,
2556228,03200008,true,Rx,0,8,00,00,00,00,00,80,00,00,
2562339,0261300A,true,Rx,0,8,00,00,00,27,80,40,00,C0,
2569437,0102C02C,true,Rx,1,8,8F,C0,40,0D,C0,10,2B,AE,
2570013,01200028,true,Rx,1,8,88,08,00,49,F0,00,33,27,
2570095,00613DF8,true,Rx,0,8,03,00,06,40,00,00,00,00,
2571231,01213FFC,true,Rx,0,8,CD,02,4D,00,F0,00,88,00,
2572366,0340024C,true,Rx,0,8,40,00,70,00,0B,B3,00,00,
2574713,0140044A,true,Rx,0,8,00,00,00,0B,00,00,00,00,
2577309,01C030A2,true,Rx,0,8,40,5B,40,01,89,01,14,00,
2578450,0280142A,true,Rx,0,8,40,10,00,20,07,00,00,00,
2579728,0240102A,true,Rx,0,8,41,00,00,00,00,00,00,00,
2589443,02001022,true,Rx,0,8,80,00,00,01,35,90,10,40,
2590607,00613DF8,true,Rx,0,8,41,00,06,40,00,00,00,00,
2591791,01800028,true,Rx,0,8,C0,00,78,00,00,00,00,00,
2592905,0261300A,true,Rx,0,8,40,00,00,27,80,40,00,C0,
2594038,02A03028,true,Rx,0,8,00,9F,C1,19,1A,2C,00,00,
2594433,0102C02C,true,Rx,1,8,CF,C0,40,0D,C0,10,2B,AE,
2595165,01213FFC,true,Rx,0,8,0D,02,4D,00,E0,40,88,00,
2596341,01E01266,true,Rx,0,8,40,00,02,00,00,00,40,00,
2597575,00400066,true,Rx,0,8,C0,00,00,06,01,5E,40,7F,
2599533,00608024,true,Rx,1,8,40,00,00,00,00,01,06,3E,
2600090,01200028,true,Rx,1,8,C8,08,00,49,F0,00,33,27,
2600163,02C13428,true,Rx,0,8,80,00,D8,80,88,CF,20,00,
2601257,02E10DF4,true,Rx,0,8,8F,A9,2F,AC,89,3A,F8,18,
2607757,0280142A,true,Rx,0,8,80,50,00,20,07,00,00,00,
2610095,00613DF8,true,Rx,0,8,83,00,06,40,00,00,00,00,
2614671,0140044A,true,Rx,0,8,40,00,00,1B,10,00,00,00,
2615825,0240102A,true,Rx,0,8,81,00,00,00,00,00,00,00,
2619538,0102C02C,true,Rx,1,8,0F,C0,40,0D,C0,10,2B,AE,
2620162,01213FFC,true,Rx,0,8,4D,02,4D,40,F0,00,88,00,
2622263,01C030A2,true,Rx,0,8,80,5B,40,01,89,01,14,00,
2623398,0261300A,true,Rx,0,8,80,00,00,27,80,40,00,C0,
2624996,02A03028,true,Rx,0,8,00,9F,81,11,1A,2C,00,00,
2626179,0360000A,true,Rx,0,8,40,00,00,00,00,14,00,80,
2629497,01200028,true,Rx,1,8,08,00,00,49,F0,00,33,27,
2630111,00613DF8,true,Rx,0,8,C1,00,06,40,00,00,00,00,
2631329,01800028,true,Rx,0,8,00,00,78,00,00,00,00,00,
2634737,02001022,true,Rx,0,8,C0,00,00,01,35,90,10,40,
2637750,0280142A,true,Rx,0,8,C0,50,00,20,07,00,00,00,
2639417,01E01266,true,Rx,0,8,80,00,02,00,00,00,40,00,
2644397,0102C02C,true,Rx,1,8,4F,C0,40,0D,C0,10,2B,AE,
2645012,01213FFC,true,Rx,0,8,8D,02,4D,00,F0,00,88,00,
2649684,0240102A,true,Rx,0,8,C0,00,00,00,00,00,00,00,
2650836,00613DF8,true,Rx,0,8,03,00,06,40,00,00,00,00,
2652732,0261300A,true,Rx,0,8,C0,00,00,27,80,40,00,C0,
2654665,0140044A,true,Rx,0,8,80,00,00,0B,00,00,00,00,
2655758,02C13428,true,Rx,0,8,C0,00,D8,80,88,CF,20,00,
2656861,02E10DF4,true,Rx,0,8,CF,A9,0F,2C,89,3A,F8,18,
2659439,01200028,true,Rx,1,8,48,08,00,49,F0,00,33,27,
2660063,02A03028,true,Rx,0,8,00,9F,81,11,1A,2C,00,00,
2661240,03200008,true,Rx,0,8,00,00,00,00,00,80,00,00,
2667246,01C030A2,true,Rx,0,8,C0,5B,40,01,89,01,14,00,
2668387,0280142A,true,Rx,0,8,00,10,00,20,07,00,00,00,
2669510,0102C02C,true,Rx,1,8,8F,C0,40,0D,C0,10,2B,AE,
2670150,00613DF8,true,Rx,0,8,41,00,06,40,00,00,00,00,
2671303,01213FFC,true,Rx,0,8,CD,02,4D,00,E0,00,88,00,
2672469,01800028,true,Rx,0,8,40,00,78,00,00,00,00,00,
2673622,00400066,true,Rx,0,8,00,00,00,07,01,5E,40,7F,
2679454,02001022,true,Rx,0,8,00,00,00,01,35,90,10,40,
2679597,00608024,true,Rx,1,8,80,00,00,00,00,01,07,3E,
2682913,0261300A,true,Rx,0,8,00,00,00,27,80,40,00,C0,
2684229,01E01266,true,Rx,0,8,C0,00,02,00,00,00,40,00,
2684428,0132C07C,true,Rx,1,8,01,0F,B0,60,EC,7C,FE,FA,
2685386,01613FFC,true,Rx,0,8,01,0F,B0,60,EC,7C,FF,F6,
2686563,0240102A,true,Rx,0,8,01,00,00,00,00,00,00,00,
2689478,01200028,true,Rx,1,8,88,08,00,49,F0,00,33,27,
2690094,00613DF8,true,Rx,0,8,83,00,06,40,00,00,00,00,
2694393,0102C02C,true,Rx,1,8,CF,C0,40,0D,C0,11,2B,AE,
2694699,0140044A,true,Rx,0,8,C0,00,00,1B,00,00,00,00,
2695855,01213FFC,true,Rx,0,8,0D,02,4D,40,F0,40,88,00,
2696978,02A03028,true,Rx,0,8,00,9F,C1,19,1A,2C,00,00,
2698134,0280142A,true,Rx,0,8,40,50,00,20,07,00,00,00,
2709168,03A00002,true,Rx,0,8,80,00,00,04,07,04,98,63,
2710321,00613DF8,true,Rx,0,8,C1,00,06,40,00,00,00,00,
2711492,01800028,true,Rx,0,8,80,00,78,00,00,00,00,00,
2712607,01C030A2,true,Rx,0,8,00,5B,40,01,89,01,14,00,
2713731,0261300A,true,Rx,0,8,40,00,00,27,80,40,00,C0,
2714847,02C13428,true,Rx,0,8,00,00,D8,80,88,CF,20,00,
2715959,02E10DF4,true,Rx,0,8,0F,A9,2F,AC,89,3A,F8,18,
2719443,0102C02C,true,Rx,1,8,0F,C0,40,0D,C0,10,2B,AE,
2719696,0240102A,true,Rx,0,8,41,00,00,00,00,00,00,00,
2719998,01200028,true,Rx,1,8,C8,08,00,4B,F0,00,33,27,
2720824,01213FFC,true,Rx,0,8,4D,02,4D,00,F0,00,88,00,
2724801,02001022,true,Rx,0,8,40,00,00,01,35,90,10,40,
2727730,0280142A,true,Rx,0,8,80,50,00,28,07,00,00,00,
2729220,01E01266,true,Rx,0,8,00,00,02,00,00,00,40,00,
2730372,00613DF8,true,Rx,0,8,03,00,06,40,00,00,00,00,
2731486,02A03028,true,Rx,0,8,00,9F,91,11,1A,2C,80,00,
2734697,0140044A,true,Rx,0,8,00,00,00,0B,10,00,00,00,
2742944,0261300A,true,Rx,0,8,80,00,00,27,80,40,00,C0,
2744396,0102C02C,true,Rx,1,8,4F,C0,40,0D,C0,10,2B,AE,
2745011,01213FFC,true,Rx,0,8,8D,02,4D,00,E0,00,88,00,
2748120,00400066,true,Rx,0,8,40,00,00,00,01,5E,40,7F,
2749572,00608024,true,Rx,1,8,C0,00,00,00,00,01,00,3E,
2750151,01200028,true,Rx,1,8,08,00,00,49,F0,00,33,27,
2750223,00613DF8,true,Rx,0,8,41,00,06,40,00,00,00,00,
2751409,01800028,true,Rx,0,8,C0,00,78,00,00,00,00,00,
2752545,0340024C,true,Rx,0,8,80,00,60,00,0B,B3,00,00,
2753688,03801028,true,Rx,0,8,0C,00,20,08,DC,40,00,00,
2754856,0240102A,true,Rx,0,8,80,00,00,00,00,00,00,00,
2757238,01C030A2,true,Rx,0,8,40,5B,40,01,89,01,14,00,
2758390,0280142A,true,Rx,0,8,C0,10,00,20,07,00,00,00,
2765004,02A03028,true,Rx,0,8,00,9F,81,11,1A,2C,00,00,
2766105,02C13428,true,Rx,0,8,40,00,D8,80,88,CF,20,00,
2767194,02E10DF4,true,Rx,0,8,4F,A9,0F,2C,89,3A,F8,18,
2768380,03200008,true,Rx,0,8,00,00,00,00,00,80,00,00,
2769475,0102C02C,true,Rx,1,8,8F,C0,40,0D,C0,10,2B,AE,
2769526,02001022,true,Rx,0,8,80,00,00,01,35,90,10,40,
2770671,00613DF8,true,Rx,0,8,83,00,06,40,00,00,00,00,
2771809,01213FFC,true,Rx,0,8,CD,02,4D,00,F0,00,88,00,
2773048,0261300A,true,Rx,0,8,C0,00,00,27,80,40,00,C0,
2774376,01E01266,true,Rx,0,8,40,00,02,00,00,00,40,00,
2775528,0140044A,true,Rx,0,8,40,00,00,0B,00,00,00,00,
2779455,01200028,true,Rx,1,8,48,08,00,49,F0,00,33,27,
2787731,0280142A,true,Rx,0,8,00,50,00,20,07,00,00,00,
2789643,0240102A,true,Rx,0,8,C1,00,00,00,00,00,00,00,
2790797,00613DF8,true,Rx,0,8,C1,00,06,40,00,00,00,00,
2792010,01800028,true,Rx,0,8,00,00,78,00,00,00,00,00,
2794410,0102C02C,true,Rx,1,8,CF,C0,40,0D,C0,10,2B,AE,
2795039,01213FFC,true,Rx,0,8,0D,02,4D,40,E0,40,88,00,
2800071,02A03028,true,Rx,0,8,00,9F,C1,19,1A,2C,00,00,
2802129,01C030A2,true,Rx,0,8,80,5B,40,01,89,01,14,00,
2803312,0261300A,true,Rx,0,8,00,00,00,27,80,40,00,C0,
2809441,01200028,true,Rx,1,8,88,08,00,49,F0,00,33,27,
2810067,00613DF8,true,Rx,0,8,03,00,06,40,00,00,00,00,
2814646,0140044A,true,Rx,0,8,80,00,00,1B,10,00,00,00,
2815788,02001022,true,Rx,0,8,C0,00,00,01,35,90,10,40,
2817734,0280142A,true,Rx,0,8,40,50,00,20,07,00,00,00,
2819431,01E01266,true,Rx,0,8,80,00,06,00,00,00,40,00,
2819527,0102C02C,true,Rx,1,8,0F,C0,40,0D,C0,10,2B,AE,
2820567,01213FFC,true,Rx,0,8,4D,02,4D,00,F0,00,88,00,
2821672,02C13428,true,Rx,0,8,80,00,D8,80,88,CF,20,00,
2822773,02E10DF4,true,Rx,0,8,8F,A9,2F,AC,89,3A,F8,18,
2823919,00400066,true,Rx,0,8,80,00,00,01,01,5E,40,7F,
2825083,0240102A,true,Rx,0,8,03,00,00,00,00,00,00,00,
2829599,00608024,true,Rx,1,8,00,00,00,00,00,01,01,3E,
2830224,00613DF8,true,Rx,0,8,41,00,06,40,00,00,00,00,
2831411,01800028,true,Rx,0,8,40,00,78,00,00,00,00,00,
2833512,0261300A,true,Rx,0,8,40,00,00,27,80,40,00,C0,
2834985,02A03028,true,Rx,0,8,00,1F,01,11,1A,2C,00,00,
2839423,01200028,true,Rx,1,8,C8,08,00,49,F0,00,33,27,
2844403,0102C02C,true,Rx,1,8,4F,C0,40,0D,C0,10,2B,AE,
2845019,01213FFC,true,Rx,0,8,8D,02,4D,00,F0,00,88,00,
2847386,01C030A2,true,Rx,0,8,C0,5B,40,01,89,01,14,00,
2848538,0280142A,true,Rx,0,8,80,10,00,20,07,00,00,00,
2850066,00613DF8,true,Rx,0,8,83,00,06,40,00,00,00,00,
2854645,0140044A,true,Rx,0,8,C0,00,00,0B,00,00,00,00,
2859460,02001022,true,Rx,0,8,00,00,00,01,35,90,10,40,
2860622,0240102A,true,Rx,0,8,40,00,00,00,00,00,00,00,
2863755,0261300A,true,Rx,0,8,80,00,00,27,80,40,00,C0,
2864927,01E01266,true,Rx,0,8,C0,00,02,00,00,00,40,00,
2869499,0102C02C,true,Rx,1,8,8F,C0,40,0D,C0,10,2B,AE,
2870075,01200028,true,Rx,1,8,08,00,00,49,F0,00,33,27,
2870168,00613DF8,true,Rx,0,8,C1,00,06,40,00,00,00,00,
2871302,01213FFC,true,Rx,0,8,CD,02,4D,40,E0,00,88,00,
2872479,01800028,true,Rx,0,8,80,00,78,00,00,00,00,00,
2873600,02A03028,true,Rx,0,8,00,9F,81,11,1A,2C,00,00,
2874778,03200008,true,Rx,0,8,00,00,00,00,00,80,00,00,
2875881,02C13428,true,Rx,0,8,C0,00,D8,80,88,CF,20,00,
2876986,02E10DF4,true,Rx,0,8,CF,A9,0F,2C,89,3A,F8,18,
2878129,0280142A,true,Rx,0,8,C0,50,00,20,07,00,00,00,
2890055,00613DF8,true,Rx,0,8,03,00,06,40,00,00,00,00,
2892249,01C030A2,true,Rx,0,8,00,5B,40,01,89,01,14,00,
2893885,0261300A,true,Rx,0,8,C0,00,00,27,80,40,00,C0,
2894389,0102C02C,true,Rx,1,8,CF,C0,40,0D,C0,11,2B,AE,
2895028,01213FFC,true,Rx,0,8,0D,02,4D,00,F0,40,88,00,
2896194,0140044A,true,Rx,0,8,00,00,00,1B,00,00,00,00,
2897360,0240102A,true,Rx,0,8,81,00,00,00,00,00,00,00,
2898481,03C0002A,true,Rx,0,8,00,00,33,C0,27,00,9F,00,
2899514,01200028,true,Rx,1,8,48,08,00,49,F0,00,33,27,
2899628,00400066,true,Rx,0,8,C0,00,00,02,01,5E,40,7F,
2904714,00608024,true,Rx,1,8,40,00,00,00,00,01,02,3E,
2904743,02001022,true,Rx,0,8,40,00,00,01,35,90,10,40,
2905847,02A03028,true,Rx,0,8,00,9F,C1,19,1A,2C,00,00,
2907711,0280142A,true,Rx,0,8,00,50,00,28,07,00,00,00,
2909276,01E01266,true,Rx,0,8,00,00,02,00,00,00,40,00,
2910441,00613DF8,true,Rx,0,8,41,00,06,40,00,00,00,00,
2911626,01800028,true,Rx,0,8,C0,00,78,00,00,00,00,00,
2919463,0102C02C,true,Rx,1,8,0F,C0,40,0D,C0,10,2B,AE,
2920088,01213FFC,true,Rx,0,8,4D,02,4D,00,F0,00,88,00,
2924149,0261300A,true,Rx,0,8,00,00,00,27,80,40,00,C0,
2929442,01200028,true,Rx,1,8,88,08,00,CD,F0,00,33,27,
2929603,0240102A,true,Rx,0,8,C1,00,00,00,00,00,00,00,
2930760,00613DF8,true,Rx,0,8,83,00,06,40,00,00,00,00,
2931872,02C13428,true,Rx,0,8,00,00,D8,80,88,CF,20,00,
2932977,02E10DF4,true,Rx,0,8,0F,A9,2F,AC,89,3A,F8,18,
2934120,0340024C,true,Rx,0,8,C0,00,60,00,03,B3,00,00,
2935266,0140044A,true,Rx,0,8,40,00,00,0B,10,00,00,00,
2937336,01C030A2,true,Rx,0,8,40,5B,40,01,89,01,14,00,
2938478,0280142A,true,Rx,0,8,40,10,00,20,07,00,00,00,
2940084,02A03028,true,Rx,0,8,00,9F,81,11,1A,2C,00,00,
2944395,0102C02C,true,Rx,1,8,4F,C0,40,0D,C0,10,2B,AE,
2945019,01213FFC,true,Rx,0,8,8D,02,4D,40,E0,00,88,00,
2946185,0360000A,true,Rx,0,8,80,00,00,00,00,14,00,80,
2949541,02001022,true,Rx,0,8,80,00,00,01,35,90,10,40,
2950694,00613DF8,true,Rx,0,8,C1,00,06,40,00,00,00,00,
2951908,01800028,true,Rx,0,8,00,00,78,00,00,00,00,00,
2954203,0261300A,true,Rx,0,8,40,00,00,27,80,40,00,C0,
2955371,01E01266,true,Rx,0,8,40,00,02,00,00,00,40,00,
2956535,04000002,true,Rx,0,8,00,00,01,00,B4,00,00,52,
2959471,01200028,true,Rx,1,8,C8,08,00,49,F0,00,33,27,
2964391,0132C07C,true,Rx,1,8,02,52,BC,40,62,04,98,63,
2964634,0240102A,true,Rx,0,8,01,00,00,00,00,00,00,00,
2965739,01613FFC,true,Rx,0,8,02,52,BC,40,62,04,98,63,
2967708,0280142A,true,Rx,0,8,80,50,00,20,07,00,00,00,
2969541,0102C02C,true,Rx,1,8,8F,C0,40,0D,C0,10,2B,AE,
2970170,00613DF8,true,Rx,0,8,03,00,06,40,00,00,00,00,
2971304,01213FFC,true,Rx,0,8,CD,02,4D,00,F0,00,88,00,
2974506,00400066,true,Rx,0,8,00,00,00,03,01,5E,40,7F,
2975668,0140044A,true,Rx,0,8,80,00,00,0B,00,00,00,00,
2976790,02A03028,true,Rx,0,8,00,9F,81,11,1A,2C,00,00,
2977976,03200008,true,Rx,0,8,00,00,00,00,00,80,00,00,
2979616,00608024,true,Rx,1,8,80,00,00,00,00,01,03,3E,
2982147,01C030A2,true,Rx,0,8,80,5B,40,01,89,01,14,00,
2984483,0261300A,true,Rx,0,8,80,00,00,27,80,40,00,C0,
2985573,02C13428,true,Rx,0,8,40,00,D8,80,88,CF,20,00,
2986684,02E10DF4,true,Rx,0,8,4F,A9,2F,AC,89,3A,F8,18,
2989465,01200028,true,Rx,1,8,08,00,00,49,F0,00,33,27,
2990084,00613DF8,true,Rx,0,8,41,00,06,40,00,00,00,00,
2991269,01800028,true,Rx,0,8,40,00,78,00,00,00,00,00,
2994328,0102C02C,true,Rx,1,8,CF,C0,40,0D,C0,10,2B,AE,
2994747,02001022,true,Rx,0,8,C0,00,00,01,35,90,10,40,
2995893,01213FFC,true,Rx,0,8,0D,02,4D,00,E0,40,88,00,
2997695,0280142A,true,Rx,0,8,C0,50,00,20,07,00,00,00,
2999516,01E01266,true,Rx,0,8,80,00,02,00,00,00,40,00,
3000673,0240102A,true,Rx,0,8,40,00,00,00,00,00,00,00,
3010053,00613DF8,true,Rx,0,8,83,00,06,40,00,00,00,00,
3011165,02A03028,true,Rx,0,8,00,9F,D1,19,1A,2C,80,00,
3014596,0261300A,true,Rx,0,8,C0,00,00,27,80,40,00,C0,
3015749,0140044A,true,Rx,0,8,C0,00,00,1B,10,00,00,00,
3019450,0102C02C,true,Rx,1,8,0F,C0,40,0D,C0,10,2B,AE,
3020016,01200028,true,Rx,1,8,48,08,00,49,F0,00,33,27,
3020088,01213FFC,true,Rx,0,8,4D,02,4D,40,F0,00,88,00,
3027261,01C030A2,true,Rx,0,8,C0,5B,40,01,89,01,14,00,
3028412,0280142A,true,Rx,0,8,00,10,00,20,07,00,00,00,
3030079,00613DF8,true,Rx,0,8,C1,00,06,40,00,00,00,00,
3031256,01800028,true,Rx,0,8,80,00,78,00,00,00,00,00,
3034663,0240102A,true,Rx,0,8,81,00,00,00,00,00,00,00,
3039468,02001022,true,Rx,0,8,00,00,00,01,35,90,10,40,
3040579,02C13428,true,Rx,0,8,80,00,D8,80,88,CF,20,00,
3041669,02E10DF4,true,Rx,0,8,8F,A9,0F,2C,89,3A,F8,18,
3044275,01E01266,true,Rx,0,8,C0,00,02,00,00,00,40,00,
3044381,0102C02C,true,Rx,1,8,4F,C0,40,0D,C0,10,2B,AE,
3045412,01213FFC,true,Rx,0,8,8D,02,4D,00,F0,00,88,00,
3046537,0261300A,true,Rx,0,8,00,00,00,27,80,40,00,C0,
3047658,02A03028,true,Rx,0,8,00,9F,81,11,1A,2C,00,00,
3049464,01200028,true,Rx,1,8,88,08,00,49,F0,00,33,27,
3049845,00400066,true,Rx,0,8,40,00,00,04,01,5E,40,7F,
3051000,00613DF8,true,Rx,0,8,03,00,06,40,00,00,00,00,
3054459,00608024,true,Rx,1,8,C0,00,00,00,00,01,04,3E,
3054640,0140044A,true,Rx,0,8,00,00,00,0B,00,00,00,00,
3057698,0280142A,true,Rx,0,8,40,50,00,20,07,00,00,00,
3069475,0102C02C,true,Rx,1,8,8F,C0,40,0D,C0,10,2B,AE,
3069595,0240102A,true,Rx,0,8,C1,00,00,00,00,00,00,00,
3070751,00613DF8,true,Rx,0,8,41,00,06,40,00,00,00,00,
3071885,01213FFC,true,Rx,0,8,CD,02,4D,00,E0,00,88,00,
3073071,01800028,true,Rx,0,8,C0,00,78,00,00,00,00,00,
3074196,01C030A2,true,Rx,0,8,00,5B,40,01,89,01,14,00,
3075310,0261300A,true,Rx,0,8,40,00,00,27,80,40,00,C0,
3076444,03801028,true,Rx,0,8,44,00,20,08,9C,40,00,00,
3079638,01200028,true,Rx,1,8,C8,08,00,49,F0,00,33,27,
3080263,02A03028,true,Rx,0,8,00,9F,01,11,1A,2C,00,00,
3081449,03200008,true,Rx,0,8,00,00,00,00,00,80,00,00,
3084733,02001022,true,Rx,0,8,40,00,00,01,35,90,10,40,
3087692,0280142A,true,Rx,0,8,80,50,00,20,07,00,00,00,
3089257,01E01266,true,Rx,0,8,00,00,02,00,00,00,40,00,
3090409,00613DF8,true,Rx,0,8,83,00,06,40,00,00,00,00,
3094399,0102C02C,true,Rx,1,8,CF,C0,40,0D,C0,11,2B,AE,
3094672,0140044A,true,Rx,0,8,40,00,00,1B,00,00,00,00,
3095830,01213FFC,true,Rx,0,8,0D,02,4D,40,F0,40,88,00,
3096922,02C13428,true,Rx,0,8,C0,00,D8,80,88,CF,20,00,
3098027,02E10DF4,true,Rx,0,8,CF,A9,2F,AC,89,3A,F8,18,
3104613,0240102A,true,Rx,0,8,00,00,00,00,00,00,00,00,
3105746,0261300A,true,Rx,0,8,80,00,00,27,80,40,00,C0,
3109490,01200028,true,Rx,1,8,08,00,00,49,F0,00,33,27,
3110104,00613DF8,true,Rx,0,8,C1,00,06,40,00,00,00,00,
3111322,01800028,true,Rx,0,8,00,00,78,00,00,00,00,00,
3112454,0340024C,true,Rx,0,8,01,00,70,01,0B,B3,00,00,
3114968,02A03028,true,Rx,0,8,00,1F,C1,19,1A,2C,00,00,
3117253,01C030A2,true,Rx,0,8,40,5B,40,01,89,01,14,00,
3118383,0280142A,true,Rx,0,8,C0,10,00,28,07,00,00,00,
3119438,0102C02C,true,Rx,1,8,0F,C0,40,0D,C0,10,2B,AE,
3120054,01213FFC,true,Rx,0,8,4D,02,4D,00,F0,00,88,00,
3124250,03A00002,true,Rx,0,8,C0,00,00,04,07,04,98,63,
3125391,00400066,true,Rx,0,8,80,00,00,05,01,5E,40,7F,
3129467,02001022,true,Rx,0,8,80,00,00,01,35,90,10,40,
3129549,00608024,true,Rx,1,8,00,00,00,00,00,01,05,3E,
3130620,00613DF8,true,Rx,0,8,03,00,06,40,00,00,00,00,
3134284,01E01266,true,Rx,0,8,40,00,02,00,00,00,40,00,
3135435,0140044A,true,Rx,0,8,80,00,00,0B,10,00,00,00,
3136556,0261300A,true,Rx,0,8,C0,00,00,27,80,40,00,C0,
3139472,01200028,true,Rx,1,8,48,08,00,4B,F0,00,33,27,
3139616,0240102A,true,Rx,0,8,41,00,00,00,00,00,00,00,
3144410,0102C02C,true,Rx,1,8,4F,C0,40,0D,C0,10,2B,AE,
3145035,01213FFC,true,Rx,0,8,8D,02,4D,00,E0,00,88,00,
3147680,0280142A,true,Rx,0,8,00,50,00,20,07,00,00,00,
3150099,00613DF8,true,Rx,0,8,41,00,06,40,00,00,00,00,
3151282,01800028,true,Rx,0,8,40,00,78,00,00,00,00,00,
3152408,02A03028,true,Rx,0,8,00,9F,81,11,1A,2C,00,00,
3153520,02C13428,true,Rx,0,8,00,00,D8,80,88,CF,20,00,
3154609,02E10DF4,true,Rx,0,8,0F,A9,0F,2C,89,3A,F8,18,
3162151,01C030A2,true,Rx,0,8,80,5B,40,01,89,01,14,00,
3165568,0261300A,true,Rx,0,8,00,00,00,27,80,40,00,C0,
3169432,0102C02C,true,Rx,1,8,8F,C0,40,0D,C0,10,2B,AE,
3170006,01200028,true,Rx,1,8,88,08,00,49,F0,00,33,27,
3170100,00613DF8,true,Rx,0,8,83,00,06,40,00,00,00,00,
3171235,01213FFC,true,Rx,0,8,CD,02,4D,00,F0,00,88,00,
3174663,0140044A,true,Rx,0,8,C0,00,00,0B,00,00,00,00,
3175796,02001022,true,Rx,0,8,C0,00,00,01,35,90,10,40,
3176957,0240102A,true,Rx,0,8,83,00,00,00,00,00,00,00,
3178104,0280142A,true,Rx,0,8,40,50,00,20,07,00,00,00,
3179515,01E01266,true,Rx,0,8,80,00,02,00,00,00,40,00,
3184977,02A03028,true,Rx,0,8,00,9F,C1,19,1A,2C,00,00,
3186159,03200008,true,Rx,0,8,00,00,00,00,00,80,00,00,
3190059,00613DF8,true,Rx,0,8,C1,00,06,40,00,00,00,00,
3191230,01800028,true,Rx,0,8,80,00,78,00,00,00,00,00,
3194332,0102C02C,true,Rx,1,8,CF,C0,40,0D,C0,10,2B,AE,
3194988,01213FFC,true,Rx,0,8,0D,02,4D,40,E0,40,88,00,
3196102,0261300A,true,Rx,0,8,40,00,00,27,80,40,00,C0,
3199408,01200028,true,Rx,1,8,C8,08,00,49,F0,00,33,27,
3200807,00400066,true,Rx,0,8,C0,00,00,06,01,5E,40,7F,
3204479,00608024,true,Rx,1,8,40,00,00,00,00,01,06,3E,
3205094,02C13428,true,Rx,0,8,40,00,D8,80,88,CF,20,00,
3206199,02E10DF4,true,Rx,0,8,4F,A9,2F,AC,89,3A,F8,18,
3207311,01C030A2,true,Rx,0,8,C0,5B,40,01,89,01,14,00,
3208467,0280142A,true,Rx,0,8,80,10,00,20,07,00,00,00,
3209663,0240102A,true,Rx,0,8,C0,00,00,00,00,00,00,00,
3210817,00613DF8,true,Rx,0,8,03,00,06,40,00,00,00,00,
3214667,0140044A,true,Rx,0,8,00,00,00,1B,10,00,00,00,
3219473,02001022,true,Rx,0,8,00,00,00,01,35,90,10,40,
3219513,0102C02C,true,Rx,1,8,0F,C0,40,0D,C0,10,2B,AE,
3220605,01213FFC,true,Rx,0,8,4D,02,4D,00,F0,00,88,00,
3221719,02A03028,true,Rx,0,8,00,9F,81,11,1A,2C,00,00,
3224335,01E01266,true,Rx,0,8,C0,00,02,00,00,00,40,00,
3226105,0261300A,true,Rx,0,8,80,00,00,27,80,40,00,C0,
3229484,01200028,true,Rx,1,8,08,00,00,49,F0,00,33,27,
3230109,00613DF8,true,Rx,0,8,41,00,06,40,00,00,00,00,
3231295,01800028,true,Rx,0,8,C0,00,78,00,00,00,00,00,
3237666,0280142A,true,Rx,0,8,C0,50,00,20,07,00,00,00,
3239459,0132C07C,true,Rx,1,8,11,05,05,05,01,01,01,05,
3240074,01613FFC,true,Rx,0,8,11,05,05,05,01,01,01,05,
3244311,0102C02C,true,Rx,1,8,4F,C0,40,0D,C0,10,2B,AE,
3244616,0240102A,true,Rx,0,8,01,00,00,00,00,00,00,00,
3245752,01213FFC,true,Rx,0,8,8D,02,4D,00,F0,00,88,00,
3250059,00613DF8,true,Rx,0,8,83,00,06,40,00,00,00,00,
3252356,01C030A2,true,Rx,0,8,00,5B,40,01,89,01,14,00,
3254622,0140044A,true,Rx,0,8,40,00,00,0B,00,00,00,00,
3255744,02A03028,true,Rx,0,8,00,9F,91,11,1A,2C,80,00,
3256865,0261300A,true,Rx,0,8,C0,00,00,27,80,40,00,C0,
3259439,01200028,true,Rx,1,8,48,08,00,49,F0,00,33,27,
3260058,02C13428,true,Rx,0,8,80,00,D8,80,88,CF,20,00,
3261150,02E10DF4,true,Rx,0,8,8F,A9,0F,2C,89,3A,F8,18,
3264776,02001022,true,Rx,0,8,40,00,00,01,35,90,10,40,
3266072,0360000A,true,Rx,0,8,C0,00,00,00,00,14,00,80,
3267244,04200002,true,Rx,0,8,00,00,00,00,00,00,01,03,
3268390,0280142A,true,Rx,0,8,00,50,00,20,07,00,00,00,
3269503,0102C02C,true,Rx,1,8,8F,C0,40,0D,C0,10,2B,AE,
3269555,01E01266,true,Rx,0,8,00,00,02,00,00,00,40,00,
3270711,00613DF8,true,Rx,0,8,C1,00,06,40,00,00,00,00,
3271847,01213FFC,true,Rx,0,8,CD,02,4D,40,E0,00,88,00,
3273061,01800028,true,Rx,0,8,00,00,78,00,00,00,00,00,
3276335,00400066,true,Rx,0,8,00,00,00,07,01,5E,40,7F,
3279572,0240102A,true,Rx,0,8,41,00,00,00,00,00,00,00,
3279623,00608024,true,Rx,1,8,80,00,00,00,00,01,07,3E,
3286250,0261300A,true,Rx,0,8,00,00,00,27,80,40,00,C0,
3289429,01200028,true,Rx,1,8,88,08,00,49,F0,00,33,27,
3290055,00613DF8,true,Rx,0,8,03,00,06,40,00,00,00,00,
3291179,02A03028,true,Rx,0,8,00,9F,C1,19,1A,2C,00,00,
3292365,03200008,true,Rx,0,8,00,00,00,00,00,80,00,00,
3293496,0340024C,true,Rx,0,8,41,00,60,01,0B,B3,00,00,
3294314,0102C02C,true,Rx,1,8,CF,C0,40,0D,C0,11,2B,AE,
3294871,0140044A,true,Rx,0,8,80,00,00,1B,00,00,00,00,
3296016,01213FFC,true,Rx,0,8,0D,02,4D,00,F0,40,88,00,
3297316,01C030A2,true,Rx,0,8,40,5B,40,01,89,01,14,00,
3298460,0280142A,true,Rx,0,8,40,10,00,20,07,00,00,00,
3304576,03C0002A,true,Rx,0,8,00,00,33,C0,27,00,1F,00,
3309464,02001022,true,Rx,0,8,80,00,00,01,35,90,10,40,
3310626,00613DF8,true,Rx,0,8,41,00,06,40,00,00,00,00,
3311809,01800028,true,Rx,0,8,40,00,78,00,00,00,00,00,
3314310,01E01266,true,Rx,0,8,40,00,06,00,00,00,40,00,
3315466,0240102A,true,Rx,0,8,81,00,00,00,00,00,00,00,
3316589,0261300A,true,Rx,0,8,40,00,00,27,80,40,00,C0,
3317689,02C13428,true,Rx,0,8,C0,00,D8,80,88,CF,20,00,
3318784,02E10DF4,true,Rx,0,8,CF,A9,2F,AC,89,3A,F8,18,
3319467,0102C02C,true,Rx,1,8,0F,C0,40,0D,C0,10,2B,AE,
3320036,01200028,true,Rx,1,8,C8,08,00,CD,F0,00,33,27,
3320108,01213FFC,true,Rx,0,8,4D,02,4D,00,F0,00,88,00,
3324981,02A03028,true,Rx,0,8,00,9F,81,11,1A,2C,00,00,
3327641,0280142A,true,Rx,0,8,80,50,00,28,07,00,00,00,
3330062,00613DF8,true,Rx,0,8,83,00,06,40,00,00,00,00,
3334649,0140044A,true,Rx,0,8,C0,00,00,0B,10,00,00,00,
3342160,01C030A2,true,Rx,0,8,80,5B,40,01,89,01,14,00,
3344363,0102C02C,true,Rx,1,8,4F,C0,40,0D,C0,10,2B,AE,
3344989,01213FFC,true,Rx,0,8,8D,02,4D,40,E0,00,88,00,
3346583,0261300A,true,Rx,0,8,80,00,00,27,80,40,00,C0,
3349458,01200028,true,Rx,1,8,08,00,00,49,F0,00,33,27,
3349602,0240102A,true,Rx,0,8,C0,00,00,00,00,00,00,00,
3350757,00613DF8,true,Rx,0,8,C1,00,06,40,00,00,00,00,
3351902,00400066,true,Rx,0,8,40,00,00,00,01,5E,40,7F,
3353077,01800028,true,Rx,0,8,80,00,78,00,00,00,00,00,
3354488,00608024,true,Rx,1,8,C0,00,00,00,00,01,00,3E,
3354767,02001022,true,Rx,0,8,C0,00,00,01,35,90,10,40,
3357651,0280142A,true,Rx,0,8,C0,50,00,20,07,00,00,00,
3359504,01E01266,true,Rx,0,8,80,00,02,00,00,00,40,00,
3360625,02A03028,true,Rx,0,8,00,9F,81,11,1A,2C,00,00,
3369443,0102C02C,true,Rx,1,8,8F,C0,40,0D,C0,10,2B,AE,
3370079,00613DF8,true,Rx,0,8,03,00,06,40,00,00,00,00,
3371213,01213FFC,true,Rx,0,8,CD,02,4D,00,F0,00,88,00,
3372327,02C13428,true,Rx,0,8,00,00,D8,80,88,CF,20,00,
3373420,02E10DF4,true,Rx,0,8,0F,A9,0F,2C,89,3A,F8,18,
3374657,0140044A,true,Rx,0,8,00,00,00,0B,00,00,00,00,
3377221,0261300A,true,Rx,0,8,C0,00,00,27,80,40,00,C0,
3379435,01200028,true,Rx,1,8,48,08,00,49,F0,00,33,27,
3384581,0240102A,true,Rx,0,8,01,00,00,00,00,00,00,00,
3387282,01C030A2,true,Rx,0,8,C0,5B,40,01,89,01,14,00,
3388424,0280142A,true,Rx,0,8,00,10,00,20,07,00,00,00,
3390102,00613DF8,true,Rx,0,8,41,00,06,40,00,00,00,00,
3391290,01800028,true,Rx,0,8,C0,00,78,00,00,00,00,00,
3392432,03801028,true,Rx,0,8,8C,00,20,08,9C,40,00,00,
3394400,0102C02C,true,Rx,1,8,CF,C0,40,0D,C0,10,2B,AE,
3395028,01213FFC,true,Rx,0,8,0D,02,4D,00,E0,40,88,00,
3396152,02A03028,true,Rx,0,8,00,1F,41,19,1A,2C,00,00,
3397328,03200008,true,Rx,0,8,00,00,00,00,00,80,00,00,
3399565,02001022,true,Rx,0,8,00,00,00,01,35,90,10,40,
3404267,01E01266,true,Rx,0,8,C0,00,02,00,00,00,40,00,
3407289,0261300A,true,Rx,0,8,00,00,00,27,80,40,00,C0,
3409443,01200028,true,Rx,1,8,88,08,00,49,F0,00,33,27,
3410068,00613DF8,true,Rx,0,8,83,00,06,40,00,00,00,00,
3414605,0140044A,true,Rx,0,8,40,00,00,1B,10,00,00,00,
3415758,04000002,true,Rx,0,8,40,00,01,00,F4,00,00,52,
3417641,0280142A,true,Rx,0,8,41,50,00,20,07,00,00,00,
3419526,0102C02C,true,Rx,1,8,0F,C0,40,0D,C0,30,2B,AE,
3419598,0240102A,true,Rx,0,8,41,00,00,00,00,00,00,00,
3420723,01213FFC,true,Rx,0,8,4D,02,4D,40,F0,00,88,00,
3424947,02C13428,true,Rx,0,8,40,00,D8,80,88,CF,20,00,
3426048,02E10DF4,true,Rx,0,8,4F,A9,2F,AC,89,3A,F8,18,
3427468,00400066,true,Rx,0,8,80,00,00,01,01,5E,40,7F,
3429547,00608024,true,Rx,1,8,00,00,00,00,00,01,01,3E,
3430166,00613DF8,true,Rx,0,8,C1,00,06,40,00,00,00,00,
3431382,01800028,true,Rx,0,8,00,00,78,00,00,00,00,00,
3432507,01C030A2,true,Rx,0,8,00,5B,40,01,89,01,14,00,
3433620,02A03028,true,Rx,0,8,00,9F,81,11,1A,2C,00,00,
3437204,0261300A,true,Rx,0,8,40,00,00,27,80,40,00,C0,
3439399,01200028,true,Rx,1,8,C8,08,00,49,F0,00,33,27,
3444372,0102C02C,true,Rx,1,8,4F,C0,40,0D,C0,10,2B,AE,
3444739,02001022,true,Rx,0,8,40,00,00,01,35,90,10,40,
3445875,01213FFC,true,Rx,0,8,8D,02,4D,00,F0,00,88,00,
3447636,0280142A,true,Rx,0,8,80,50,00,20,07,00,00,00,
3449355,01E01266,true,Rx,0,8,00,00,02,00,00,00,40,00,
3450507,00613DF8,true,Rx,0,8,03,00,06,40,00,00,00,00,
3454587,0240102A,true,Rx,0,8,80,00,00,00,00,00,00,00,
3455749,0140044A,true,Rx,0,8,80,00,00,0B,00,00,00,00,
3464934,02A03028,true,Rx,0,8,00,9F,81,11,1A,2C,00,00,
3467493,0261300A,true,Rx,0,8,80,00,00,27,80,40,00,C0,
3469469,0102C02C,true,Rx,1,8,8F,C0,40,0D,C0,10,2B,AE,
3470055,01200028,true,Rx,1,8,08,00,00,49,F0,00,33,27,
3470148,00613DF8,true,Rx,0,8,41,00,06,40,00,00,00,00,
3471284,01213FFC,true,Rx,0,8,CD,02,4D,00,E0,00,88,00,
3472460,01800028,true,Rx,0,8,40,00,78,00,00,00,00,00,
3473602,0340024C,true,Rx,0,8,81,00,60,01,03,B3,00,00,
3477350,01C030A2,true,Rx,0,8,40,5B,40,01,89,01,14,00,
3478501,0280142A,true,Rx,0,8,C0,10,00,20,07,00,00,00,
3480025,02C13428,true,Rx,0,8,80,00,D8,80,88,CF,20,00,
3481108,02E10DF4,true,Rx,0,8,8F,A9,0F,2C,89,3A,F8,18,
3489477,02001022,true,Rx,0,8,80,00,00,01,35,90,10,40,
3490630,00613DF8,true,Rx,0,8,83,00,06,40,00,00,00,00,
3491792,0240102A,true,Rx,0,8,C1,00,00,00,00,00,00,00,
3494356,01E01266,true,Rx,0,8,40,00,02,00,00,00,40,00,
3494390,0102C02C,true,Rx,1,8,CF,C0,41,0D,C0,11,2B,AE,
3495502,01213FFC,true,Rx,0,8,0D,02,4D,40,F0,40,88,00,
3496659,0140044A,true,Rx,0,8,C0,00,00,1B,00,00,00,00,
3497780,0261300A,true,Rx,0,8,C0,00,00,27,80,40,00,C0,
3499452,01200028,true,Rx,1,8,48,08,00,49,F0,00,33,27,
3500079,02A03028,true,Rx,0,8,00,9F,D1,19,1A,2C,80,00,
3501266,03200008,true,Rx,0,8,00,00,00,00,00,80,00,00,
3502409,00400066,true,Rx,0,8,C0,00,00,02,01,5E,40,7F,
3504470,00608024,true,Rx,1,8,40,00,00,00,00,01,02,3E,
3507629,0280142A,true,Rx,0,8,00,50,00,28,07,00,00,00,
3510082,00613DF8,true,Rx,0,8,C1,00,06,40,00,00,00,00,
3511255,01800028,true,Rx,0,8,80,00,78,00,00,00,00,00,
3519434,0102C02C,true,Rx,1,8,0F,C0,41,0D,C0,10,2B,AE,
3520009,0132C07C,true,Rx,1,8,16,01,43,04,01,02,01,01,
3520081,01213FFC,true,Rx,0,8,4D,02,4D,00,F0,00,88,00,
3521217,01613FFC,true,Rx,0,8,16,01,43,04,01,02,01,01,
3522362,01C030A2,true,Rx,0,8,80,5B,40,01,89,01,14,00,
3524617,0240102A,true,Rx,0,8,03,00,00,00,00,00,00,00,
3527707,0261300A,true,Rx,0,8,00,00,00,27,80,40,00,C0,
3529437,01200028,true,Rx,1,8,88,08,00,49,F0,00,33,27,
3530063,00613DF8,true,Rx,0,8,03,00,06,40,00,00,00,00,
3534640,0140044A,true,Rx,0,8,00,00,00,0B,10,00,00,00,
3535774,02001022,true,Rx,0,8,C0,00,00,01,35,90,10,40,
3536894,02A03028,true,Rx,0,8,00,9F,81,11,1A,2C,00,00,
3538050,0280142A,true,Rx,0,8,40,50,00,20,07,00,00,00,
3539142,02C13428,true,Rx,0,8,C0,00,D8,80,88,CF,20,00,
3540309,01E01266,true,Rx,0,8,80,00,02,00,00,00,40,00,
3541412,02E10DF4,true,Rx,0,8,CF,A9,2F,AC,89,3A,F8,18,
3542547,03A00002,true,Rx,0,8,00,00,00,04,07,04,98,63,
3544373,0102C02C,true,Rx,1,8,4F,C0,41,0D,C0,10,2B,AE,
3544988,01213FFC,true,Rx,0,8,8D,02,4D,00,E0,00,88,00,
3550053,00613DF8,true,Rx,0,8,41,00,06,40,00,00,00,00,
3551236,01800028,true,Rx,0,8,C0,00,78,00,00,00,00,00,
3557600,0261300A,true,Rx,0,8,40,00,00,27,80,40,00,C0,
3559392,01200028,true,Rx,1,8,C8,08,00,4B,F0,00,33,27,
3559538,0240102A,true,Rx,0,8,40,00,00,00,00,00,00,00,
3567298,01C030A2,true,Rx,0,8,C0,5B,40,01,89,01,14,00,
3568449,0280142A,true,Rx,0,8,80,10,00,20,07,00,00,00,
3569449,0102C02C,true,Rx,1,8,8F,C0,41,0D,C0,10,2B,AE,
3570087,00613DF8,true,Rx,0,8,83,00,06,40,00,00,00,00,
3571223,01213FFC,true,Rx,0,8,CD,02,4D,00,F0,00,88,00,
3572347,02A03028,true,Rx,0,8,00,9F,81,11,1A,2C,00,00,
3574643,0140044A,true,Rx,0,8,40,00,00,0B,00,00,00,00,
3578015,00400066,true,Rx,0,8,00,00,00,03,01,5E,40,7F,
3579486,02001022,true,Rx,0,8,00,00,00,01,35,90,10,40,
3579602,00608024,true,Rx,1,8,80,00,00,00,00,01,03,3E,
3584292,01E01266,true,Rx,0,8,C0,00,02,00,00,00,40,00,
3586052,0360000A,true,Rx,0,8,00,00,00,00,00,14,00,80,
3588008,0261300A,true,Rx,0,8,80,00,00,27,80,40,00,C0,
3589480,01200028,true,Rx,1,8,08,00,00,49,F0,00,33,27,
3590098,00613DF8,true,Rx,0,8,C1,00,06,40,00,00,00,00,
3591314,01800028,true,Rx,0,8,00,00,78,00,00,00,00,00,
3592424,02C13428,true,Rx,0,8,00,00,D8,80,88,CF,20,00,
3593540,02E10DF4,true,Rx,0,8,0F,A9,2F,AC,89,3A,F8,18,
3594357,0102C02C,true,Rx,1,8,CF,C0,41,0D,C0,10,2B,AE,
3594697,0240102A,true,Rx,0,8,81,00,00,00,00,00,00,00,
3595834,01213FFC,true,Rx,0,8,0D,02,4D,40,E0,40,88,00,
3597625,0280142A,true,Rx,0,8,C0,50,00,20,07,00,00,00,
3604935,02A03028,true,Rx,0,8,00,9F,C1,19,1A,2C,00,00,
3606117,03200008,true,Rx,0,8,00,00,00,00,00,80,00,00,
3610026,00613DF8,true,Rx,0,8,03,00,06,40,00,00,00,00,
3612251,01C030A2,true,Rx,0,8,00,5B,40,01,89,01,14,00,
3614589,0140044A,true,Rx,0,8,80,00,00,1B,10,00,00,00,
3618048,0261300A,true,Rx,0,8,C0,00,00,27,80,40,00,C0,
3619418,0102C02C,true,Rx,1,8,0F,C0,41,0D,C0,10,2B,AE,
3619986,01200028,true,Rx,1,8,48,08,00,49,F0,00,33,27,
3620068,01213FFC,true,Rx,0,8,4D,02,4D,00,F0,00,88,00,
3624827,02001022,true,Rx,0,8,40,00,00,01,35,90,10,40,
3627611,0280142A,true,Rx,0,8,00,50,00,20,07,00,00,00,
3629319,01E01266,true,Rx,0,8,00,00,02,00,00,00,40,00,
3630482,00613DF8,true,Rx,0,8,41,00,06,40,00,00,00,00,
3631666,01800028,true,Rx,0,8,40,00,78,00,00,00,00,00,
3632823,0240102A,true,Rx,0,8,C1,00,00,00,00,00,00,00,
3640039,02A03028,true,Rx,0,8,00,9F,81,11,1A,2C,00,00,
3644286,0102C02C,true,Rx,1,8,4F,C0,41,0D,C0,10,2B,AE,
3644953,01213FFC,true,Rx,0,8,8D,02,4D,00,F0,00,88,00,
3646046,02C13428,true,Rx,0,8,40,00,D8,80,88,CF,20,00,
3647139,02E10DF4,true,Rx,0,8,4F,A9,0F,2C,89,3A,F8,18,
3648274,0261300A,true,Rx,0,8,00,00,00,27,80,40,00,C0,
3649378,01200028,true,Rx,1,8,88,08,00,49,F0,00,33,27,
3650006,00613DF8,true,Rx,0,8,83,00,06,40,00,00,00,00,
3651150,0340024C,true,Rx,0,8,C0,00,70,00,0B,B3,00,00,
3653168,00400066,true,Rx,0,8,40,00,00,04,01,5E,40,7F,
3654587,0140044A,true,Rx,0,8,C0,00,00,0B,00,00,00,00,
3657275,01C030A2,true,Rx,0,8,40,5B,40,01,89,01,14,00,
3658426,0280142A,true,Rx,0,8,40,10,00,20,07,00,00,00,
3659553,00608024,true,Rx,1,8,C0,00,00,00,00,01,04,3E,
3664571,0240102A,true,Rx,0,8,01,00,00,00,00,00,00,00,
3669500,02001022,true,Rx,0,8,80,00,00,01,35,90,10,40,
3669514,0102C02C,true,Rx,1,8,8F,C0,41,0D,C0,10,2B,AE,
3670635,00613DF8,true,Rx,0,8,C1,00,06,40,00,00,00,00,
3671778,01213FFC,true,Rx,0,8,CD,02,4D,40,E0,00,88,00,
3672954,01800028,true,Rx,0,8,80,00,78,00,00,00,00,00,
3674437,01E01266,true,Rx,0,8,40,00,02,00,00,00,40,00,
3675579,02A03028,true,Rx,0,8,00,1F,01,11,1A,2C,00,00,
3678545,0261300A,true,Rx,0,8,40,00,00,27,80,40,00,C0,
3679393,01200028,true,Rx,1,8,C8,08,00,49,F0,00,33,27,
3687607,0280142A,true,Rx,0,8,80,50,00,20,07,00,00,00,
3690051,00613DF8,true,Rx,0,8,03,00,06,40,00,00,00,00,
3694348,0102C02C,true,Rx,1,8,CF,C0,41,0D,C0,11,2B,AE,
3694860,0140044A,true,Rx,0,8,00,00,00,1B,00,00,00,00,
3696005,01213FFC,true,Rx,0,8,0D,02,4D,00,F0,40,88,00,
3699587,0240102A,true,Rx,0,8,40,00,00,00,00,00,00,00,
3700697,02C13428,true,Rx,0,8,80,00,D8,80,88,CF,20,00,
3701789,02E10DF4,true,Rx,0,8,8F,A9,2F,AC,89,3A,F8,18,
3702893,01C030A2,true,Rx,0,8,80,5B,40,01,89,01,14,00,
3708598,0261300A,true,Rx,0,8,80,00,00,27,80,40,00,C0,
3709411,01200028,true,Rx,1,8,08,00,00,49,F0,00,33,27,
3710030,00613DF8,true,Rx,0,8,41,00,06,40,00,00,00,00,
3711214,01800028,true,Rx,0,8,C0,00,78,00,00,00,00,00,
3712340,02A03028,true,Rx,0,8,00,9F,C1,19,1A,2C,00,00,
3713525,03200008,true,Rx,0,8,00,00,00,00,00,80,00,00,
3714677,03801028,true,Rx,0,8,CC,00,20,08,DC,40,00,00,
3715805,02001022,true,Rx,0,8,C0,00,00,01,35,90,10,40,
3716939,03C0002A,true,Rx,0,8,00,00,33,C0,27,00,9F,00,
3718084,0280142A,true,Rx,0,8,C0,50,00,28,07,00,00,00,
3719680,01E01266,true,Rx,0,8,80,00,02,00,00,00,40,00,
3719714,0102C02C,true,Rx,1,8,0F,C0,41,0D,C0,10,2B,AE,
3720808,01213FFC,true,Rx,0,8,4D,02,4D,00,F0,00,88,00,
3728628,00400066,true,Rx,0,8,80,00,00,05,01,5E,40,7F,
3730049,00613DF8,true,Rx,0,8,83,00,06,40,00,00,00,00,
3734448,00608024,true,Rx,1,8,00,00,00,00,00,01,05,3E,
3734547,0240102A,true,Rx,0,8,81,00,00,00,00,00,00,00,
3735703,0140044A,true,Rx,0,8,40,00,00,0B,10,00,00,00,
3738579,0261300A,true,Rx,0,8,C0,00,00,27,80,40,00,C0,
3739423,01200028,true,Rx,1,8,48,08,00,CD,F0,00,33,27,
3744386,0102C02C,true,Rx,1,8,4F,C0,41,0D,C0,10,2B,AE,
3745012,01213FFC,true,Rx,0,8,8D,02,4D,40,E0,00,88,00,
3746127,02A03028,true,Rx,0,8,00,9F,91,11,1A,2C,80,00,
3747383,01C030A2,true,Rx,0,8,C0,5B,40,01,89,01,14,00,
3748525,0280142A,true,Rx,0,8,00,10,00,20,07,00,00,00,
3750053,00613DF8,true,Rx,0,8,C1,00,06,40,00,00,00,00,
3751268,01800028,true,Rx,0,8,00,00,78,00,00,00,00,00,
3754979,02C13428,true,Rx,0,8,C0,00,D8,80,88,CF,20,00,
3756079,02E10DF4,true,Rx,0,8,CF,A9,0F,2C,89,3A,F8,18,
3759542,02001022,true,Rx,0,8,00,00,00,01,35,90,10,40,
3764317,01E01266,true,Rx,0,8,C0,00,02,00,00,00,40,00,
3768740,0261300A,true,Rx,0,8,00,00,00,27,80,40,00,C0,
3769408,0102C02C,true,Rx,1,8,8F,C0,41,0D,C0,10,2B,AE,
3769893,0240102A,true,Rx,0,8,C1,00,00,00,00,00,00,00,
3769979,01200028,true,Rx,1,8,88,08,00,49,F0,00,33,27,
3771051,00613DF8,true,Rx,0,8,03,00,06,40,00,00,00,00,
3772187,01213FFC,true,Rx,0,8,CD,02,4D,00,F0,00,88,00,
3774628,0140044A,true,Rx,0,8,80,00,00,0B,00,00,00,00,
3777598,0280142A,true,Rx,0,8,40,50,00,20,07,00,00,00,
3780072,02A03028,true,Rx,0,8,00,9F,C1,19,1A,2C,00,00,
3790049,00613DF8,true,Rx,0,8,41,00,06,40,00,00,00,00,
3791231,01800028,true,Rx,0,8,40,00,78,00,00,00,00,00,
3792352,01C030A2,true,Rx,0,8,00,5B,40,01,89,01,14,00,
3794391,0102C02C,true,Rx,1,8,CF,C0,41,0D,C0,10,2B,AE,
3795010,01213FFC,true,Rx,0,8,0D,02,4D,00,E0,40,88,00,
3798826,0261300A,true,Rx,0,8,40,00,00,27,80,40,00,C0,
3799464,01200028,true,Rx,1,8,C8,08,00,49,F0,00,33,27,
3800043,0132C07C,true,Rx,1,8,01,0F,B0,60,EC,88,01,05,
3800126,01613FFC,true,Rx,0,8,01,0F,B0,60,EC,88,00,09,
3803732,00400066,true,Rx,0,8,C0,00,00,06,01,5E,40,7F,
3804883,02001022,true,Rx,0,8,40,00,00,01,35,90,10,40,
3806066,0240102A,true,Rx,0,8,00,00,00,00,00,00,00,00,
3807593,0280142A,true,Rx,0,8,80,50,00,20,07,00,00,00,
3809375,01E01266,true,Rx,0,8,00,00,02,00,00,00,40,00,
3809573,00608024,true,Rx,1,8,40,00,00,00,00,01,06,3E,
3810530,00613DF8,true,Rx,0,8,83,00,06,40,00,00,00,00,
3811645,02C13428,true,Rx,0,8,00,00,D8,80,88,CF,20,00,
3812748,02E10DF4,true,Rx,0,8,0F,A9,2F,AC,89,3A,F8,18,
3814579,0140044A,true,Rx,0,8,C0,00,00,1B,10,00,00,00,
3815694,02A03028,true,Rx,0,8,00,9F,81,11,1A,2C,00,00,
3816880,03200008,true,Rx,0,8,00,00,00,00,00,80,00,00,
3819464,0102C02C,true,Rx,1,8,0F,C0,41,0D,C0,10,2B,AE,
3820090,01213FFC,true,Rx,0,8,4D,02,4D,40,F0,00,88,00,
3828760,0261300A,true,Rx,0,8,80,00,00,27,80,40,00,C0,
3829408,01200028,true,Rx,1,8,08,00,00,49,F0,00,33,27,
3830027,00613DF8,true,Rx,0,8,C1,00,06,40,00,00,00,00,
3831201,01800028,true,Rx,0,8,80,00,78,00,00,00,00,00,
3832347,0340024C,true,Rx,0,8,00,00,60,00,0B,B3,00,00,
3837286,01C030A2,true,Rx,0,8,40,5B,40,01,89,01,14,00,
3838438,0280142A,true,Rx,0,8,C0,10,00,20,07,00,00,00,
3839610,0240102A,true,Rx,0,8,41,00,00,00,00,00,00,00,
3844388,0102C02C,true,Rx,1,8,4F,C0,41,0D,C0,10,2B,AE,
3845002,01213FFC,true,Rx,0,8,8D,02,4D,00,F0,00,88,00,
3849570,02001022,true,Rx,0,8,80,00,00,01,35,90,10,40,
3850723,00613DF8,true,Rx,0,8,03,00,06,40,00,00,00,00,
3851844,02A03028,true,Rx,0,8,00,9F,81,11,1A,2C,00,00,
3854387,01E01266,true,Rx,0,8,40,00,06,00,00,00,40,00,
3855542,0140044A,true,Rx,0,8,00,00,00,0B,00,00,00,00,
3858722,0261300A,true,Rx,0,8,C0,00,00,27,80,40,00,C0,
3859412,01200028,true,Rx,1,8,48,08,00,49,F0,00,33,27,
3864965,02C13428,true,Rx,0,8,40,00,D8,80,88,CF,20,00,
3866066,02E10DF4,true,Rx,0,8,4F,A9,0F,2C,89,3A,F8,18,
3867588,0280142A,true,Rx,0,8,00,50,00,20,07,00,00,00,
3869472,0102C02C,true,Rx,1,8,8F,C0,41,0D,C0,10,2B,AE,
3870123,00613DF8,true,Rx,0,8,41,00,06,40,00,00,00,00,
3871256,01213FFC,true,Rx,0,8,CD,02,4D,00,E0,00,88,00,
3872442,01800028,true,Rx,0,8,C0,00,78,00,00,00,00,00,
3874586,0240102A,true,Rx,0,8,83,00,00,00,00,00,00,00,
3875728,04000002,true,Rx,0,8,80,00,01,00,B4,00,00,52,
3878889,00400066,true,Rx,0,8,00,00,00,07,01,5E,40,7F,
3882191,01C030A2,true,Rx,0,8,80,5B,40,01,89,01,14,00,
3884479,00608024,true,Rx,1,8,80,00,00,00,00,01,07,3E,
3885114,02A03028,true,Rx,0,8,00,9F,C1,19,1A,2C,00,00,
3889010,0261300A,true,Rx,0,8,00,00,00,27,80,40,00,C0,
3889379,01200028,true,Rx,1,8,88,08,00,49,F0,00,33,27,
3890162,00613DF8,true,Rx,0,8,83,00,06,40,00,00,00,00,
3894345,0102C02C,true,Rx,1,8,CF,C0,41,0D,C0,11,2B,AE,
3894629,0140044A,true,Rx,0,8,40,00,00,1B,00,00,00,00,
3895775,01213FFC,true,Rx,0,8,0D,02,4D,40,F0,40,88,00,
3896909,02001022,true,Rx,0,8,C0,00,00,01,35,90,10,40,
3898064,0280142A,true,Rx,0,8,40,50,00,20,07,00,00,00,
3899629,01E01266,true,Rx,0,8,80,00,02,00,00,00,40,00,
3906029,0360000A,true,Rx,0,8,40,00,00,00,00,14,00,80,
3909485,0240102A,true,Rx,0,8,C0,00,00,00,00,00,00,00,
3910638,00613DF8,true,Rx,0,8,C1,00,06,40,00,00,00,00,
3911852,01800028,true,Rx,0,8,00,00,78,00,00,00,00,00,
3919052,0261300A,true,Rx,0,8,40,00,00,27,80,40,00,C0,
3919338,0102C02C,true,Rx,1,8,0F,C0,41,0D,C0,10,2B,AE,
3919908,01200028,true,Rx,1,8,C8,08,00,49,F0,00,33,27,
3920176,01213FFC,true,Rx,0,8,4D,02,4D,00,F0,00,88,00,
3921291,02A03028,true,Rx,0,8,00,9F,81,11,1A,2C,00,00,
3922406,02C13428,true,Rx,0,8,80,00,D8,80,88,CF,20,00,
