Time Stamp,ID,Extended,Dir,Bus,LEN,D1,D2,D3,D4,D5,D6,D7,D8
144295,0032C01E,true,Rx,1,8,C0,00,14,00,04,00,60,00,
144864,00F2C006,true,Rx,1,8,4C,00,B0,00,F0,1E,00,00,
145607,00E00020,true,Rx,1,8,03,C0,00,13,04,61,00,00,
150407,01200028,true,Rx,1,8,48,08,00,43,F0,00,33,27,
151042,00613DF8,true,Rx,0,8,03,00,0E,20,00,00,00,40,
151458,00C24008,true,Rx,1,8,0D,00,F2,00,80,00,80,00,
152170,0340024C,true,Rx,0,8,41,00,E0,01,03,AC,08,00,
155631,0022C01E,true,Rx,1,8,04,0B,40,89,C4,00,A4,60,
156196,0012C024,true,Rx,1,8,A4,A1,00,00,C5,FF,B8,00,
156775,0032C01E,true,Rx,1,8,00,00,14,00,04,00,60,00,
157363,00524000,true,Rx,1,8,40,00,00,00,C0,00,C0,00,
157922,00B00002,true,Rx,1,8,80,00,A5,AD,F4,3B,C3,35,
158490,00D28026,true,Rx,1,8,0A,8F,67,00,C0,00,00,00,
159069,01100014,true,Rx,1,8,80,00,00,00,00,11,20,00,
159636,01500006,true,Rx,1,8,05,0F,08,35,2C,89,00,00,
160207,01700012,true,Rx,1,8,0B,C0,80,00,AA,AA,00,00,
160930,0102C02C,true,Rx,1,8,0F,C0,30,0E,C0,30,2B,AE,
161509,00C24008,true,Rx,1,8,FD,00,02,00,80,00,80,00,
161540,01213FFC,true,Rx,0,8,4E,02,5D,80,F0,80,B8,00,
162091,00E00020,true,Rx,1,8,03,C0,00,13,04,63,00,00,
162659,01600022,true,Rx,1,8,40,00,AA,AA,00,00,00,00,
163228,00F2C006,true,Rx,1,8,88,00,B0,00,F0,1D,00,00,
166137,02A03028,true,Rx,0,8,00,9F,81,51,1A,2C,00,00,
167319,03200008,true,Rx,0,8,00,00,00,00,00,80,00,00,
167642,0022C01E,true,Rx,1,8,40,0B,40,89,44,00,24,60,
168218,0032C01E,true,Rx,1,8,42,00,84,00,04,00,60,00,
168445,0280142A,true,Rx,0,8,C0,50,00,20,17,00,00,00,
169612,01E01266,true,Rx,0,8,40,00,03,00,00,00,40,00,
169729,0012C024,true,Rx,1,8,AC,A1,00,00,C5,FF,B8,00,
170310,00524000,true,Rx,1,8,40,00,00,00,C0,00,C0,00,
170734,01C030A2,true,Rx,0,8,C0,5B,40,01,89,01,14,00,
170871,00D28026,true,Rx,1,8,4E,8F,67,00,C0,00,00,00,
171459,00C24008,true,Rx,1,8,ED,00,12,00,80,00,80,00,
171882,00613DF8,true,Rx,0,8,41,00,0E,20,00,00,00,40,
173074,01800028,true,Rx,0,8,40,00,7A,00,00,00,00,00,
174219,0140044A,true,Rx,0,8,C0,00,00,0B,10,00,00,00,
175342,0261300A,true,Rx,0,8,40,00,00,27,80,40,00,C0,
175643,00B00002,true,Rx,1,8,C0,00,A5,AD,F4,3B,C3,35,
176223,01100014,true,Rx,1,8,C0,00,00,00,00,11,20,00,
176460,02C13428,true,Rx,0,8,01,02,78,8A,89,CF,20,00,
177545,00E00020,true,Rx,1,8,03,C0,00,13,04,61,00,00,
177628,0240102A,true,Rx,0,8,00,00,00,00,00,00,00,00,
178754,02E10DF4,true,Rx,0,8,0F,A9,2F,AC,99,3A,F8,18,
179662,0022C01E,true,Rx,1,8,84,0B,40,89,C4,00,A4,60,
180231,0032C01E,true,Rx,1,8,80,00,14,00,04,00,60,00,
180800,01200028,true,Rx,1,8,88,40,00,41,F0,00,33,27,
181450,00C24008,true,Rx,1,8,DD,00,22,00,80,00,80,00,
183769,0012C024,true,Rx,1,8,A4,A1,00,00,C5,FF,B8,00,
184221,02001022,true,Rx,0,8,00,00,00,01,35,90,10,40,
184356,00524000,true,Rx,1,8,40,00,00,00,C0,00,C0,00,
184915,00D28026,true,Rx,1,8,8A,8F,67,00,C0,00,00,00,
185369,00400066,true,Rx,0,8,00,00,00,03,01,5E,40,7F,
185485,00F2C006,true,Rx,1,8,CC,00,B0,00,F0,1D,00,00,
186044,0102C02C,true,Rx,1,8,4F,C8,30,0E,C0,10,2B,AE,
186491,01213FFC,true,Rx,0,8,8E,02,5D,C0,F0,80,B8,00,
190698,00608024,true,Rx,1,8,40,00,00,00,00,01,03,3E,
191313,00613DF8,true,Rx,0,8,83,00,0E,20,01,00,00,40,
191450,00C24008,true,Rx,1,8,CD,00,32,00,80,00,80,00,
191998,0022C01E,true,Rx,1,8,C4,0B,40,89,C4,00,A4,60,
192576,0032C01E,true,Rx,1,8,C0,00,14,00,04,00,60,00,
193548,00E00020,true,Rx,1,8,03,C0,00,13,04,61,00,00,
195658,00B00002,true,Rx,1,8,00,00,A5,AD,F4,3B,C3,35,
196238,01100014,true,Rx,1,8,00,00,00,04,00,11,20,00,
197308,0280142A,true,Rx,0,8,00,10,00,20,17,00,00,00,
197755,0012C024,true,Rx,1,8,AC,A1,00,00,C5,FF,B8,00,
198344,00524000,true,Rx,1,8,40,00,00,00,C0,00,C0,00,
198901,00D28026,true,Rx,1,8,CA,8F,67,00,C0,00,00,00,
199386,0261300A,true,Rx,0,8,80,00,00,27,80,40,00,C0,
199492,01828002,true,Rx,1,8,00,80,00,7F,00,00,00,00,
201327,02A03028,true,Rx,0,8,00,9F,91,11,1A,2C,80,00,
201444,00C24008,true,Rx,1,8,BD,00,42,00,80,00,80,00,
203669,0022C01E,true,Rx,1,8,04,0B,40,89,C4,00,A4,60,
204237,0032C01E,true,Rx,1,8,02,00,94,00,04,00,60,00,
204806,00F2C006,true,Rx,1,8,0C,00,B0,00,F0,1D,00,00,
209573,00E00020,true,Rx,1,8,4B,C0,00,13,04,60,00,00,
210446,0102C02C,true,Rx,1,8,8F,C0,30,0E,C0,10,2B,AE,
211016,01200028,true,Rx,1,8,C8,08,00,41,F0,00,33,27,
211109,00613DF8,true,Rx,0,8,C1,00,0E,20,00,00,00,40,
211586,00C24008,true,Rx,1,8,AD,00,52,00,80,00,80,00,
212147,0012C024,true,Rx,1,8,A4,A1,00,00,C5,FF,B8,00,
212240,01213FFC,true,Rx,0,8,CE,02,5D,80,E0,80,B8,00,
212737,00524000,true,Rx,1,8,40,00,00,00,C0,00,C0,00,
213305,00D28026,true,Rx,1,8,0A,8F,67,00,C0,00,00,00,
213419,01800028,true,Rx,0,8,80,00,7E,00,00,00,00,00,
214579,0140044A,true,Rx,0,8,00,00,00,0B,00,00,00,00,
215710,01C030A2,true,Rx,0,8,00,5B,40,01,89,01,14,00,
215724,0022C01E,true,Rx,1,8,40,0B,40,89,44,00,24,60,
216273,0032C01E,true,Rx,1,8,40,00,04,00,04,00,60,00,
216821,00B00002,true,Rx,1,8,40,00,A5,AD,F4,3B,C3,35,
216862,01E01266,true,Rx,0,8,80,00,03,00,00,00,40,00,
217401,01100014,true,Rx,1,8,40,00,00,00,00,11,20,00,
217966,01500006,true,Rx,1,8,45,2F,08,B5,2C,89,00,00,
218028,0240102A,true,Rx,0,8,41,00,00,00,00,00,00,00,
218525,01700012,true,Rx,1,8,4B,C0,80,00,AA,AA,00,00,
221444,00C24008,true,Rx,1,8,9D,00,62,00,80,00,80,00,
222019,01600022,true,Rx,1,8,81,00,AA,AA,00,00,00,00,
222606,01A00002,true,Rx,1,8,C0,00,00,00,00,00,00,04,
225584,00E00020,true,Rx,1,8,33,C0,00,13,04,61,00,00,
225838,02C13428,true,Rx,0,8,49,02,78,8A,89,CF,20,00,
226151,0012C024,true,Rx,1,8,AC,A1,00,00,C5,FF,B8,00,
226741,00524000,true,Rx,1,8,40,00,00,00,C0,00,C0,00,
226926,02E10DF4,true,Rx,0,8,4F,A9,0F,2C,99,3A,F8,18,
227299,00D28026,true,Rx,1,8,4E,8F,67,00,C0,00,00,00,
227852,0022C01E,true,Rx,1,8,84,0B,40,89,C4,00,A4,60,
228058,0280142A,true,Rx,0,8,40,50,00,20,17,00,00,00,
228422,0032C01E,true,Rx,1,8,82,00,94,00,04,00,60,00,
229002,00F2C006,true,Rx,1,8,4C,00,B0,00,F0,1D,00,00,
229218,02001022,true,Rx,0,8,40,00,00,01,35,90,10,40,
230338,0261300A,true,Rx,0,8,C0,00,00,27,80,40,00,C0,
230970,0132C07C,true,Rx,1,8,01,0F,B0,60,DC,4E,FE,FA,
231538,00C24008,true,Rx,1,8,8D,00,72,00,80,00,80,00,
231580,00613DF8,true,Rx,0,8,03,00,0E,20,01,00,00,40,
232728,01613FFC,true,Rx,0,8,01,0F,B0,60,DC,4E,FF,F6,
235283,0102C02C,true,Rx,1,8,CF,C8,30,0E,C0,11,2B,AE,
235838,00B00002,true,Rx,1,8,80,00,A5,AD,F4,3B,C3,35,
235921,01213FFC,true,Rx,0,8,0E,02,5D,80,F0,C0,B8,00,
236428,01100014,true,Rx,1,8,80,00,00,00,00,11,20,00,
237047,02A03028,true,Rx,0,8,00,9F,C1,59,1A,2C,00,00,
239668,0022C01E,true,Rx,1,8,C4,0B,40,89,C4,00,A4,60,
240233,0012C024,true,Rx,1,8,A4,A1,00,00,C5,FF,B8,00,
240802,0032C01E,true,Rx,1,8,C0,00,14,00,04,00,60,00,
241391,00524000,true,Rx,1,8,40,00,00,00,C0,00,C0,00,
241982,00C24008,true,Rx,1,8,7D,00,82,00,80,00,80,00,
242538,00D28026,true,Rx,1,8,8A,8F,67,00,C0,00,00,00,
243107,00E00020,true,Rx,1,8,03,C0,00,13,04,61,00,00,
243686,01200028,true,Rx,1,8,08,08,00,41,F0,00,33,27,
246818,00F2C006,true,Rx,1,8,88,00,B0,00,F0,1C,00,00,
247051,0240102A,true,Rx,0,8,81,00,00,00,00,00,00,00,
251006,00613DF8,true,Rx,0,8,41,00,0E,20,00,00,00,40,
251438,00C24008,true,Rx,1,8,6D,00,92,00,80,00,80,00,
251997,0022C01E,true,Rx,1,8,04,0B,40,89,C4,00,A4,60,
252202,01800028,true,Rx,0,8,C0,00,7A,00,00,00,00,00,
252576,0032C01E,true,Rx,1,8,00,00,14,00,04,00,60,00,
253361,0360000A,true,Rx,0,8,40,00,00,00,00,16,00,00,
253788,0012C024,true,Rx,1,8,AC,A1,00,00,C5,FF,B8,00,
254377,00524000,true,Rx,1,8,40,00,00,00,C0,00,C0,00,
254511,0140044A,true,Rx,0,8,40,00,00,1B,10,00,00,00,
254936,00D28026,true,Rx,1,8,CA,8F,67,00,C0,00,00,00,
255683,00B00002,true,Rx,1,8,C0,00,A5,AD,F4,3B,C3,35,
256254,01100014,true,Rx,1,8,C0,00,00,04,00,11,20,00,
257292,0280142A,true,Rx,0,8,80,50,00,20,17,00,00,00,
257553,00E00020,true,Rx,1,8,03,C0,00,13,04,5E,00,00,
258791,01E01266,true,Rx,0,8,C0,00,03,00,00,00,40,00,
259927,00400066,true,Rx,0,8,40,00,00,04,01,5E,40,7F,
260847,0102C02C,true,Rx,1,8,0F,C8,30,0E,C0,10,2B,AE,
261032,01C030A2,true,Rx,0,8,40,5B,40,01,89,01,14,00,
261437,00C24008,true,Rx,1,8,5D,00,A2,00,80,00,80,00,
262149,01213FFC,true,Rx,0,8,4E,02,5D,C0,F0,80,B8,00,
263282,0261300A,true,Rx,0,8,00,00,00,27,80,40,00,C0,
263687,0022C01E,true,Rx,1,8,40,0B,40,89,44,00,24,60,
264256,0032C01E,true,Rx,1,8,42,00,84,00,04,00,60,00,
265442,00608024,true,Rx,1,8,80,00,00,00,00,01,04,3E,
267811,0012C024,true,Rx,1,8,A4,A1,00,00,C5,FF,B8,00,
268399,00524000,true,Rx,1,8,40,00,00,00,C0,00,C0,00,
268968,00D28026,true,Rx,1,8,0A,8F,67,00,C0,00,00,00,
269535,00F2C006,true,Rx,1,8,CC,00,B0,00,F0,1D,00,00,
270558,01200028,true,Rx,1,8,48,08,00,41,F0,00,33,27,
271196,00613DF8,true,Rx,0,8,83,00,06,20,00,00,00,40,
271435,00C24008,true,Rx,1,8,4D,00,B2,00,80,00,80,00,
272301,02A03028,true,Rx,0,8,00,9F,81,11,1A,2C,00,00,
273488,03200008,true,Rx,0,8,00,00,00,00,00,80,00,00,
273594,00E00020,true,Rx,1,8,03,C0,00,13,04,60,00,00,
274635,02001022,true,Rx,0,8,80,00,00,01,35,90,10,40,
274824,01828002,true,Rx,1,8,00,80,00,7B,00,00,00,00,
275682,0022C01E,true,Rx,1,8,84,0B,40,89,C4,00,A4,60,
275767,03C0002A,true,Rx,0,8,00,00,33,C0,27,00,1F,00,
276253,0032C01E,true,Rx,1,8,80,00,14,00,04,00,60,00,
276812,00B00002,true,Rx,1,8,00,00,A5,AD,F4,3B,C3,35,
277403,01100014,true,Rx,1,8,00,00,00,00,00,11,20,00,
277961,01500006,true,Rx,1,8,85,0F,08,35,2C,89,00,00,
278529,01700012,true,Rx,1,8,8B,C0,80,00,AA,AA,00,00,
281439,00C24008,true,Rx,1,8,3D,00,C2,00,80,00,80,00,
281817,02C13428,true,Rx,0,8,81,02,78,8A,89,CF,20,00,
282006,0012C024,true,Rx,1,8,AC,A1,00,00,C5,FF,B8,00,
282594,00524000,true,Rx,1,8,40,00,00,00,C0,00,C0,00,
282977,0240102A,true,Rx,0,8,C1,00,00,00,00,00,00,00,
283154,00D28026,true,Rx,1,8,4E,8F,67,00,C0,00,00,00,
283728,01600022,true,Rx,1,8,C0,00,AA,AA,00,00,00,00,
284088,02E10DF4,true,Rx,0,8,8F,A9,2F,AC,99,3A,F8,18,
285542,0102C02C,true,Rx,1,8,4F,C0,30,0E,C0,10,2B,AE,
286171,01213FFC,true,Rx,0,8,8E,02,5D,80,E0,80,B8,00,
287337,0280142A,true,Rx,0,8,C0,10,00,28,17,00,00,00,
287701,0022C01E,true,Rx,1,8,C4,0B,40,89,C4,00,A4,60,
288270,0032C01E,true,Rx,1,8,C0,00,14,00,04,00,60,00,
288849,00F2C006,true,Rx,1,8,0C,00,B0,00,F0,1C,00,00,
289570,00E00020,true,Rx,1,8,03,C0,00,13,04,5D,00,00,
289902,0261300A,true,Rx,0,8,40,00,00,27,80,40,00,C0,
291315,00613DF8,true,Rx,0,8,C1,00,0E,20,01,00,00,40,
291431,00C24008,true,Rx,1,8,2D,00,D2,00,80,00,80,00,
292515,01800028,true,Rx,0,8,00,00,7A,00,00,00,00,00,
293668,03801028,true,Rx,0,8,4E,00,20,89,9C,40,00,00,
294824,0140044A,true,Rx,0,8,80,00,00,0B,00,00,00,00,
295679,00B00002,true,Rx,1,8,40,00,A5,AD,F4,3B,C3,35,
296238,0012C024,true,Rx,1,8,A4,A1,00,00,C5,FF,B8,00,
296828,00524000,true,Rx,1,8,40,00,00,00,C0,00,C0,00,
297386,00D28026,true,Rx,1,8,8A,8F,67,00,C0,00,00,00,
297966,01100014,true,Rx,1,8,40,00,00,00,00,11,20,00,
299695,0022C01E,true,Rx,1,8,04,0B,40,89,C4,00,A4,60,
300273,0032C01E,true,Rx,1,8,02,00,94,00,04,00,60,00,
300842,01200028,true,Rx,1,8,88,08,00,C5,F0,00,33,27,
301441,00C24008,true,Rx,1,8,1D,00,E2,00,80,00,80,00,
303711,01E01266,true,Rx,0,8,00,00,03,00,00,00,40,00,
304832,01C030A2,true,Rx,0,8,80,5B,40,01,89,01,14,00,
305556,00E00020,true,Rx,1,8,4B,C0,00,13,04,60,00,00,
306204,02A03028,true,Rx,0,8,00,9F,81,51,1A,2C,00,00,
309760,0012C024,true,Rx,1,8,AC,A1,00,00,C5,FF,B8,00,
310344,00524000,true,Rx,1,8,40,00,00,00,C0,00,C0,00,
310903,00D28026,true,Rx,1,8,CA,8F,67,00,C0,00,00,00,
310985,00613DF8,true,Rx,0,8,03,00,06,20,00,00,00,40,
311483,00C24008,true,Rx,1,8,0D,00,F2,00,80,00,80,00,
312044,0022C01E,true,Rx,1,8,40,0B,40,89,44,00,24,60,
312106,01213FFC,true,Rx,0,8,CE,02,5D,80,F0,80,B8,00,
312613,0032C01E,true,Rx,1,8,40,00,04,00,04,00,60,00,
313182,00F2C006,true,Rx,1,8,4C,00,B0,00,F0,1B,00,00,
313751,0102C02C,true,Rx,1,8,8F,C8,30,0E,C0,10,2B,AE,
315704,00B00002,true,Rx,1,8,80,00,A5,AD,F4,3B,C3,35,
316289,01100014,true,Rx,1,8,80,00,00,04,00,11,20,00,
317135,0240102A,true,Rx,0,8,00,00,00,00,00,00,00,00,
318279,0280142A,true,Rx,0,8,00,50,00,20,17,00,00,00,
319414,02001022,true,Rx,0,8,C0,00,00,01,35,90,10,40,
320548,0261300A,true,Rx,0,8,80,00,00,27,80,40,00,C0,
321437,00C24008,true,Rx,1,8,FD,00,02,00,80,00,80,00,
322015,00E00020,true,Rx,1,8,33,C0,00,13,04,5D,00,00,
323695,0022C01E,true,Rx,1,8,84,0B,40,89,C4,00,A4,60,
324262,0012C024,true,Rx,1,8,A4,A1,00,00,C5,FF,B8,00,
324841,0032C01E,true,Rx,1,8,82,00,94,00,04,00,60,00,
325430,00524000,true,Rx,1,8,40,00,00,00,C0,00,C0,00,
325999,00D28026,true,Rx,1,8,0A,8F,67,00,C0,00,00,00,
330607,01200028,true,Rx,1,8,C8,00,00,41,F0,00,33,27,
331182,00F2C006,true,Rx,1,8,88,00,B0,00,F0,1B,00,00,
331224,00613DF8,true,Rx,0,8,41,00,0E,20,00,00,00,40,
331762,00C24008,true,Rx,1,8,ED,00,12,00,80,00,80,00,
332411,01800028,true,Rx,0,8,40,00,7A,00,00,00,00,00,
333550,0340024C,true,Rx,0,8,80,00,F0,00,0B,AC,08,00,
334701,0140044A,true,Rx,0,8,C0,00,00,1B,00,00,00,00,
335282,0102C02C,true,Rx,1,8,CF,C0,30,0E,C0,10,2B,AE,
335839,00400066,true,Rx,0,8,80,00,00,05,01,5E,40,7F,
335853,0022C01E,true,Rx,1,8,C4,0B,40,89,C4,00,A4,60,
336400,0032C01E,true,Rx,1,8,C0,00,14,00,04,00,60,00,
336972,00B00002,true,Rx,1,8,C0,00,A5,AD,F4,3B,C3,35,
336994,01213FFC,true,Rx,0,8,0E,02,5D,C0,E0,C0,B8,00,
337543,01100014,true,Rx,1,8,C0,00,00,00,00,11,20,00,
338070,02C13428,true,Rx,0,8,C1,00,58,88,89,CF,20,00,
338104,0012C024,true,Rx,1,8,AC,A1,00,00,C5,FF,B8,00,
338691,00524000,true,Rx,1,8,40,00,00,00,C0,00,C0,00,
339163,02E10DF4,true,Rx,0,8,CF,A9,2F,AC,99,3A,F8,18,
339248,00D28026,true,Rx,1,8,4E,8F,67,00,C0,00,00,00,
339828,00E00020,true,Rx,1,8,03,C0,00,13,04,60,00,00,
340385,01500006,true,Rx,1,8,C5,0F,08,35,2C,89,00,00,
340966,00608024,true,Rx,1,8,C0,00,00,00,00,01,05,3E,
341389,02A03028,true,Rx,0,8,00,9F,41,19,1A,2C,00,00,
341536,00C24008,true,Rx,1,8,DD,00,22,00,80,00,80,00,
342115,01600022,true,Rx,1,8,01,00,AA,AA,00,00,00,00,
342683,01700012,true,Rx,1,8,CB,C0,80,00,AA,AA,00,00,
347288,0280142A,true,Rx,0,8,40,50,00,20,17,00,00,00,
347708,0022C01E,true,Rx,1,8,04,0B,40,89,C4,00,A4,60,
348287,0032C01E,true,Rx,1,8,00,00,14,00,04,00,60,00,
348753,01E01266,true,Rx,0,8,40,00,03,00,00,00,40,00,
349878,01C030A2,true,Rx,0,8,C0,5B,40,01,89,01,14,00,
350992,0261300A,true,Rx,0,8,C0,00,00,27,80,40,00,C0,
351426,00C24008,true,Rx,1,8,CD,00,32,00,80,00,80,00,
351995,0012C024,true,Rx,1,8,A4,A1,00,00,C5,FF,B8,00,
352139,00613DF8,true,Rx,0,8,83,00,0E,20,01,00,00,40,
352585,00524000,true,Rx,1,8,40,00,00,00,C0,00,C0,00,
353143,00D28026,true,Rx,1,8,8A,8F,67,00,C0,00,00,00,
353308,0240102A,true,Rx,0,8,41,00,00,00,00,00,00,00,
353709,00E00020,true,Rx,1,8,03,C0,00,13,04,5D,00,00,
354278,00F2C006,true,Rx,1,8,CC,00,B0,00,F0,1B,00,00,
354867,01828002,true,Rx,1,8,00,80,00,7F,00,00,00,00,
355724,00B00002,true,Rx,1,8,00,00,A5,AD,F4,3B,C3,35,
356313,01100014,true,Rx,1,8,00,00,00,00,00,11,20,00,
359705,0022C01E,true,Rx,1,8,40,0B,40,89,44,00,24,60,
360270,0032C01E,true,Rx,1,8,42,00,84,00,04,00,60,00,
360838,0102C02C,true,Rx,1,8,0F,C8,30,0E,C0,10,2B,AE,
361168,01213FFC,true,Rx,0,8,4E,02,5D,80,F0,80,B8,00,
361418,01200028,true,Rx,1,8,08,08,00,41,F0,00,33,27,
361989,00C24008,true,Rx,1,8,BD,00,42,00,80,00,80,00,
364263,02001022,true,Rx,0,8,00,00,00,01,35,90,10,40,
365849,0012C024,true,Rx,1,8,AC,A1,00,00,C5,FF,B8,00,
366437,00524000,true,Rx,1,8,40,00,00,00,C0,00,C0,00,
366995,00D28026,true,Rx,1,8,CA,8F,67,00,C0,00,00,00,
369552,00E00020,true,Rx,1,8,03,C0,00,13,04,60,00,00,
371187,00613DF8,true,Rx,0,8,C1,00,0E,00,00,00,00,40,
371417,00C24008,true,Rx,1,8,AD,00,52,00,80,00,80,00,
371974,0022C01E,true,Rx,1,8,84,0B,40,89,C4,00,A4,60,
372364,01800028,true,Rx,0,8,80,00,7E,00,00,00,00,00,
372554,0032C01E,true,Rx,1,8,80,00,14,00,04,00,60,00,
373122,00F2C006,true,Rx,1,8,0C,00,B0,00,F0,1B,00,00,
374114,0140044A,true,Rx,0,8,00,00,00,0B,10,00,00,00,
375724,00B00002,true,Rx,1,8,40,00,A5,AD,F4,3B,C3,35,
376083,02A03028,true,Rx,0,8,00,1F,81,51,1A,2C,00,00,
376302,01100014,true,Rx,1,8,40,00,00,04,00,11,20,00,
377273,03200008,true,Rx,0,8,00,00,00,00,00,80,00,00,
378397,0280142A,true,Rx,0,8,81,10,00,20,17,00,00,00,
379792,0012C024,true,Rx,1,8,A4,A1,00,00,C5,FF,B8,00,
379824,0261300A,true,Rx,0,8,00,00,00,27,80,40,00,C0,
380383,00524000,true,Rx,1,8,40,00,00,00,C0,00,C0,00,
380951,00D28026,true,Rx,1,8,0A,8F,67,00,C0,00,00,00,
381529,00C24008,true,Rx,1,8,9D,00,62,00,80,00,80,00,
383716,0022C01E,true,Rx,1,8,C4,0B,40,89,C4,00,A4,60,
384292,0032C01E,true,Rx,1,8,C0,00,14,00,04,00,60,00,
385549,00E00020,true,Rx,1,8,03,C0,00,13,04,5E,00,00,
386106,0102C02C,true,Rx,1,8,4F,C0,30,0E,C0,10,2B,AE,
386189,01213FFC,true,Rx,0,8,8E,02,5D,80,F0,80,B8,00,
387356,0240102A,true,Rx,0,8,81,00,00,00,00,00,00,00,
390382,01200028,true,Rx,1,8,48,08,00,41,F0,00,33,27,
391018,00613DF8,true,Rx,0,8,03,00,0E,20,00,00,00,40,
391422,00C24008,true,Rx,1,8,8D,00,72,00,80,00,80,00,
392123,02C13428,true,Rx,0,8,01,02,78,8A,89,CF,20,00,
393227,02E10DF4,true,Rx,0,8,0F,A9,0F,2C,99,3A,F8,18,
393828,0012C024,true,Rx,1,8,AC,A1,00,00,C5,FF,B8,00,
394395,01E01266,true,Rx,0,8,80,00,03,00,00,00,40,00,
394419,00524000,true,Rx,1,8,40,00,00,00,C0,00,C0,00,
394980,00D28026,true,Rx,1,8,4E,8F,67,00,C0,00,00,00,
395515,01C030A2,true,Rx,0,8,00,5B,40,01,89,01,14,00,
395549,00F2C006,true,Rx,1,8,4C,00,B0,00,F0,1B,00,00,
396108,0022C01E,true,Rx,1,8,04,0B,40,89,C4,00,A4,60,
396680,0032C01E,true,Rx,1,8,02,00,94,00,04,00,60,00,
397239,00B00002,true,Rx,1,8,80,00,A5,AD,F4,3B,C3,35,
397817,01100014,true,Rx,1,8,80,00,00,00,00,11,20,00,
398385,01500006,true,Rx,1,8,05,0F,08,35,2C,89,00,00,
398956,01700012,true,Rx,1,8,0B,C0,80,00,AA,AA,00,00,
401426,00C24008,true,Rx,1,8,7D,00,82,00,80,00,80,00,
402005,00E00020,true,Rx,1,8,4B,C0,00,13,04,60,00,00,
402571,01600022,true,Rx,1,8,41,00,AA,AA,00,00,00,00,
407271,0280142A,true,Rx,0,8,C0,50,00,20,17,00,00,00,
407722,0022C01E,true,Rx,1,8,40,0B,40,89,44,00,24,60,
408291,0012C024,true,Rx,1,8,A4,A1,00,00,C5,FF,B8,00,
408861,0032C01E,true,Rx,1,8,40,00,04,00,04,00,60,00,
409108,02001022,true,Rx,0,8,40,00,00,01,35,90,10,40,
409453,00524000,true,Rx,1,8,40,00,00,00,C0,00,C0,00,
410011,00D28026,true,Rx,1,8,8A,8F,67,00,C0,00,00,00,
410249,00400066,true,Rx,0,8,C0,00,00,06,01,5E,40,7F,
410571,0102C02C,true,Rx,1,8,8F,C8,30,0E,C0,10,2B,AE,
411407,00613DF8,true,Rx,0,8,41,00,0E,20,01,00,00,40,
411422,00C24008,true,Rx,1,8,6D,00,92,00,80,00,80,00,
412525,01213FFC,true,Rx,0,8,CE,02,5D,80,E0,80,B8,00,
413721,01800028,true,Rx,0,8,C0,00,7A,00,00,00,00,00,
414878,0140044A,true,Rx,0,8,40,00,00,0B,00,00,00,00,
414892,00F2C006,true,Rx,1,8,88,00,B0,00,F0,1D,00,00,
415563,00608024,true,Rx,1,8,00,00,00,00,00,01,06,3E,
415996,0261300A,true,Rx,0,8,40,00,00,27,80,40,00,C0,
416123,00B00002,true,Rx,1,8,C0,00,A5,AD,F4,3B,C3,35,
416701,01100014,true,Rx,1,8,C0,00,00,00,00,11,20,00,
417125,02A03028,true,Rx,0,8,00,9F,81,51,1A,2C,00,00,
417585,00E00020,true,Rx,1,8,33,C0,00,13,04,5E,00,00,
419737,0022C01E,true,Rx,1,8,84,0B,40,89,C4,00,A4,60,
420315,0032C01E,true,Rx,1,8,82,00,94,00,04,00,60,00,
420883,01200028,true,Rx,1,8,88,00,00,41,F0,00,33,27,
421461,00C24008,true,Rx,1,8,5D,00,A2,00,80,00,80,00,
422029,0012C024,true,Rx,1,8,AC,A1,00,00,C5,FF,B8,00,
422051,0240102A,true,Rx,0,8,C0,00,00,00,00,00,00,00,
422610,00524000,true,Rx,1,8,40,00,00,00,C0,00,C0,00,
423168,00D28026,true,Rx,1,8,CA,8F,67,00,C0,00,00,00,
428874,01828002,true,Rx,1,8,00,80,00,7F,00,00,00,00,
431117,00613DF8,true,Rx,0,8,83,00,0E,20,00,00,00,40,
431414,00C24008,true,Rx,1,8,4D,00,B2,00,80,00,80,00,
431963,0022C01E,true,Rx,1,8,C4,0B,40,89,C4,00,A4,60,
432541,0032C01E,true,Rx,1,8,C0,00,14,00,04,00,60,00,
433563,00E00020,true,Rx,1,8,03,C0,00,13,04,60,00,00,
435425,0102C02C,true,Rx,1,8,CF,C0,30,0E,C0,11,2B,AE,
435984,0012C024,true,Rx,1,8,A4,A1,00,00,C5,FF,B8,00,
436056,01213FFC,true,Rx,0,8,0E,02,5D,C0,F0,C0,B8,00,
436574,00524000,true,Rx,1,8,40,00,00,00,C0,00,C0,00,
437133,00B00002,true,Rx,1,8,00,00,A5,AD,F4,3B,C3,35,
437323,0280142A,true,Rx,0,8,00,50,00,20,17,00,00,00,
437696,00D28026,true,Rx,1,8,0A,8F,67,00,C0,00,00,00,
438265,00F2C006,true,Rx,1,8,CC,00,B0,00,F0,1D,00,00,
438812,01E01266,true,Rx,0,8,C0,00,03,00,00,00,40,00,
438857,01100014,true,Rx,1,8,00,00,00,04,00,11,20,00,
439922,01C030A2,true,Rx,0,8,40,5B,40,01,89,01,14,00,
441048,0261300A,true,Rx,0,8,80,00,00,27,80,40,00,C0,
441419,00C24008,true,Rx,1,8,3D,00,C2,00,80,00,80,00,
443735,0022C01E,true,Rx,1,8,04,0B,40,89,C4,00,A4,60,
444314,0032C01E,true,Rx,1,8,00,00,14,00,04,00,60,00,
445982,02A03028,true,Rx,0,8,00,9F,D1,19,1A,2C,80,00,
447076,02C13428,true,Rx,0,8,41,02,78,8A,89,CF,20,00,
448178,02E10DF4,true,Rx,0,8,4F,A9,2F,AC,99,3A,F8,18,
449547,00E00020,true,Rx,1,8,03,C0,00,13,04,5E,00,00,
450117,0012C024,true,Rx,1,8,AC,A1,00,00,C5,FF,B8,00,
450704,00524000,true,Rx,1,8,40,00,00,00,C0,00,C0,00,
451004,00613DF8,true,Rx,0,8,C1,00,0E,20,00,00,00,40,
451264,00D28026,true,Rx,1,8,4E,8F,67,00,C0,00,00,00,
451838,00C24008,true,Rx,1,8,2D,00,D2,00,80,00,80,00,
452198,01800028,true,Rx,0,8,00,00,7E,00,00,00,00,00,
452408,01200028,true,Rx,1,8,C8,48,00,41,F0,00,33,27,
454067,0140044A,true,Rx,0,8,80,00,00,1B,10,00,00,00,
455212,02001022,true,Rx,0,8,80,00,00,01,35,90,10,40,
455750,0022C01E,true,Rx,1,8,40,0B,40,89,44,00,24,60,
456318,0032C01E,true,Rx,1,8,42,00,84,00,04,00,60,00,
456866,00B00002,true,Rx,1,8,40,00,A5,AD,F4,3B,C3,35,
457093,0240102A,true,Rx,0,8,01,00,00,00,00,00,00,00,
457448,00F2C006,true,Rx,1,8,0C,00,B0,00,F0,1C,00,00,
458027,01100014,true,Rx,1,8,40,00,00,00,00,11,20,00,
458585,01500006,true,Rx,1,8,45,0F,08,35,2C,89,00,00,
459153,01700012,true,Rx,1,8,4B,C0,80,00,AA,AA,00,00,
460910,0102C02C,true,Rx,1,8,0F,C8,30,0E,C0,10,2B,AE,
461493,00C24008,true,Rx,1,8,1D,00,E2,00,80,00,80,00,
461524,01213FFC,true,Rx,0,8,4E,02,5D,80,F0,80,B8,00,
462064,01600022,true,Rx,1,8,80,00,AA,AA,00,00,00,00,
463785,03A00002,true,Rx,0,8,80,00,00,04,07,04,98,63,
463881,0012C024,true,Rx,1,8,A4,A1,00,00,C5,FF,B8,00,
464469,00524000,true,Rx,1,8,40,00,00,00,C0,00,C0,00,
465028,00D28026,true,Rx,1,8,8A,8F,67,00,C0,00,00,00,
465609,00E00020,true,Rx,1,8,03,C0,00,13,04,5E,00,00,
467268,0280142A,true,Rx,0,8,40,10,00,20,17,00,00,00,
467754,0022C01E,true,Rx,1,8,84,0B,40,89,C4,00,A4,60,
468332,0032C01E,true,Rx,1,8,80,00,14,00,04,00,60,00,
470309,0261300A,true,Rx,0,8,C0,00,00,27,80,40,00,C0,
471414,00C24008,true,Rx,1,8,0D,00,F2,00,80,00,80,00,
471464,00613DF8,true,Rx,0,8,03,00,0E,20,01,00,00,40,
475752,00B00002,true,Rx,1,8,80,00,A5,AD,F4,3B,C3,35,
476337,01100014,true,Rx,1,8,80,00,00,00,00,11,20,00,
477870,0012C024,true,Rx,1,8,AC,A1,00,00,C5,FF,B8,00,
478457,00524000,true,Rx,1,8,40,00,00,00,C0,00,C0,00,
479016,00D28026,true,Rx,1,8,CA,8F,67,00,C0,00,00,00,
479584,00F2C006,true,Rx,1,8,4C,00,B0,00,F0,1B,00,00,
480135,0022C01E,true,Rx,1,8,C4,0B,40,89,C4,00,A4,60,
480712,0032C01E,true,Rx,1,8,C0,00,14,00,04,00,60,00,
480931,02A03028,true,Rx,0,8,00,9F,81,51,1A,2C,00,00,
481283,01200028,true,Rx,1,8,08,08,00,41,F0,00,33,27,
481865,00C24008,true,Rx,1,8,FD,00,02,00,80,00,80,00,
482122,03200008,true,Rx,0,8,00,00,00,00,00,80,00,00,
482435,00E00020,true,Rx,1,8,03,C0,00,13,04,5D,00,00,
483837,01E01266,true,Rx,0,8,00,00,03,00,00,00,40,00,
484932,01C030A2,true,Rx,0,8,80,5B,40,01,89,01,14,00,
485862,0102C02C,true,Rx,1,8,4F,C8,30,0E,C0,10,2B,AE,
486067,00400066,true,Rx,0,8,00,00,00,07,01,5E,40,7F,
487203,01213FFC,true,Rx,0,8,8E,02,5D,80,E0,80,B8,00,
490444,00608024,true,Rx,1,8,40,00,00,00,00,01,07,3E,
491070,00613DF8,true,Rx,0,8,41,00,0E,20,00,00,00,40,
491402,00C24008,true,Rx,1,8,14,00,10,00,02,AE,80,AB,
491961,0012C024,true,Rx,1,8,A4,A1,00,00,C5,FF,B8,00,
492259,01800028,true,Rx,0,8,40,00,7A,00,00,00,00,00,
492522,0022C01E,true,Rx,1,8,04,0B,40,89,C4,00,A4,60,
493090,0032C01E,true,Rx,1,8,02,00,94,00,04,00,60,00,
493410,0240102A,true,Rx,0,8,43,00,00,00,00,00,00,00,
493681,00524000,true,Rx,1,8,40,00,00,00,C0,00,C0,00,
494250,00D28026,true,Rx,1,8,0A,8F,67,00,C0,00,00,00,
494563,0140044A,true,Rx,0,8,C0,00,00,0B,00,00,00,00,
495763,00B00002,true,Rx,1,8,C0,00,A5,AD,F4,3B,C3,35,
496342,01100014,true,Rx,1,8,C0,00,00,00,00,11,20,00,
497269,0280142A,true,Rx,0,8,80,50,00,28,17,00,00,00,
497550,00E00020,true,Rx,1,8,03,C0,00,13,04,61,00,00,
498921,00F2C006,true,Rx,1,8,88,00,B0,00,F0,1D,00,00,
499096,02001022,true,Rx,0,8,C0,00,00,01,35,90,10,40,
500335,0261300A,true,Rx,0,8,00,00,00,27,80,40,00,C0,
501399,00C24008,true,Rx,1,8,04,00,20,00,02,AE,80,AB,
501430,02C13428,true,Rx,0,8,81,02,78,8A,89,CF,20,00,
502525,02E10DF4,true,Rx,0,8,8F,A9,0F,2C,99,3A,F8,18,
503765,0022C01E,true,Rx,1,8,40,0B,40,89,44,00,24,60,
504343,0032C01E,true,Rx,1,8,40,00,04,00,04,00,60,00,
505321,0132C07C,true,Rx,1,8,02,52,BC,40,61,04,98,63,
505919,01613FFC,true,Rx,0,8,02,52,BC,40,61,04,98,63,
505933,0012C024,true,Rx,1,8,AC,A1,00,00,C5,FF,B8,00,
506501,00524000,true,Rx,1,8,40,00,00,00,C0,00,C0,00,
507063,00D28026,true,Rx,1,8,4E,8F,67,00,C0,00,00,00,
507650,01828002,true,Rx,1,8,00,80,00,7B,00,00,00,00,
510732,0102C02C,true,Rx,1,8,8F,C0,30,0E,C0,10,2B,AE,
511306,01200028,true,Rx,1,8,48,08,00,41,F0,00,33,27,
511389,00613DF8,true,Rx,0,8,83,00,0E,20,01,00,00,40,
511867,00C24008,true,Rx,1,8,BD,00,30,00,04,05,80,89,
512516,01213FFC,true,Rx,0,8,CE,02,5D,C0,F0,80,B8,00,
513603,00E00020,true,Rx,1,8,7B,C0,00,13,04,61,00,00,
513645,0340024C,true,Rx,0,8,C0,00,E0,00,0B,AC,00,00,
515759,0022C01E,true,Rx,1,8,84,0B,40,89,C4,00,A4,60,
515831,02A03028,true,Rx,0,8,00,9F,81,11,1A,2C,00,00,
516339,0032C01E,true,Rx,1,8,82,00,94,00,04,00,60,00,
516897,00B00002,true,Rx,1,8,00,00,A5,AD,F4,3B,C3,35,
517486,01100014,true,Rx,1,8,00,00,00,04,00,11,20,00,
518034,01500006,true,Rx,1,8,85,2F,08,B5,2C,89,00,00,
518602,01700012,true,Rx,1,8,8B,C0,80,00,AA,AA,00,00,
519894,0012C024,true,Rx,1,8,A4,A1,00,00,C5,FF,B8,00,
520483,00524000,true,Rx,1,8,40,00,00,00,C0,00,C0,00,
521050,00D28026,true,Rx,1,8,8A,8F,67,00,C0,00,00,00,
521608,00C24008,true,Rx,1,8,AD,00,40,00,04,05,80,89,
522186,00F2C006,true,Rx,1,8,CC,00,B0,00,F0,1E,00,00,
522755,01600022,true,Rx,1,8,C1,00,AA,AA,00,00,00,00,
527016,0240102A,true,Rx,0,8,80,00,00,00,00,00,00,00,
527757,0022C01E,true,Rx,1,8,C4,0B,40,89,C4,00,A4,60,
528148,0280142A,true,Rx,0,8,C0,50,00,20,17,00,00,00,
528336,0032C01E,true,Rx,1,8,C0,00,14,00,04,00,60,00,
529317,01E01266,true,Rx,0,8,40,00,03,00,00,00,40,00,
529587,00E00020,true,Rx,1,8,03,C0,00,13,04,60,00,00,
530432,01C030A2,true,Rx,0,8,C0,5B,40,01,89,01,14,00,
531394,00C24008,true,Rx,1,8,68,00,50,00,05,5B,80,67,
531580,00613DF8,true,Rx,0,8,C1,00,0E,20,00,00,00,40,
532758,01800028,true,Rx,0,8,80,00,7A,00,00,00,00,00,
533883,0261300A,true,Rx,0,8,40,00,00,27,80,40,00,C0,
533917,0012C024,true,Rx,1,8,AC,A1,00,00,C5,FF,B8,00,
534505,00524000,true,Rx,1,8,40,00,00,00,C0,00,C0,00,
535061,0140044A,true,Rx,0,8,00,00,00,1B,00,00,00,00,
535076,00D28026,true,Rx,1,8,CA,8F,67,00,C0,00,00,00,
535628,0102C02C,true,Rx,1,8,CF,C8,30,0E,C0,10,2B,AE,
536186,00B00002,true,Rx,1,8,40,00,A5,AD,F4,3B,C3,35,
536208,01213FFC,true,Rx,0,8,0E,02,5D,80,E0,C0,B8,00,
536757,01100014,true,Rx,1,8,40,00,00,00,00,11,20,00,
539784,0022C01E,true,Rx,1,8,04,0B,40,89,C4,00,A4,60,
540358,0032C01E,true,Rx,1,8,00,00,14,00,04,00,60,00,
540948,00F2C006,true,Rx,1,8,0C,00,BF,FF,F0,1F,00,00,
541505,00C24008,true,Rx,1,8,AF,00,60,00,04,05,80,67,
542084,01200028,true,Rx,1,8,88,08,00,41,F0,00,33,27,
544192,02001022,true,Rx,0,8,00,00,00,01,35,90,10,40,
545617,00E00020,true,Rx,1,8,03,C0,00,13,04,60,00,00,
547936,0012C024,true,Rx,1,8,A4,A1,00,00,C5,FF,B8,00,
548531,00524000,true,Rx,1,8,40,00,00,00,C0,00,C0,00,
549099,00D28026,true,Rx,1,8,0A,8F,67,00,C0,00,00,00,
550932,00613DF8,true,Rx,0,8,03,00,0E,20,00,00,00,40,
551388,00C24008,true,Rx,1,8,6A,00,70,00,05,5B,80,45,
551957,0022C01E,true,Rx,1,8,40,0B,40,89,44,00,24,60,
552060,02A03028,true,Rx,0,8,00,9F,C1,59,1A,2C,00,00,
552517,0032C01E,true,Rx,1,8,42,00,84,00,04,00,60,00,
555775,00B00002,true,Rx,1,8,80,00,A5,AD,F4,3B,C3,35,
556153,02C13428,true,Rx,0,8,C9,02,78,8A,89,CF,20,00,
556361,01100014,true,Rx,1,8,80,00,00,00,00,11,20,00,
557299,0280142A,true,Rx,0,8,00,10,00,20,17,00,00,00,
558394,02E10DF4,true,Rx,0,8,CF,A9,2F,AC,99,3A,F8,18,
560424,0102C02C,true,Rx,1,8,0F,C0,30,0E,C0,10,2B,AE,
560465,00400066,true,Rx,0,8,40,00,00,00,01,5E,40,7F,
561385,00C24008,true,Rx,1,8,5A,00,80,00,05,5B,80,45,
561582,01213FFC,true,Rx,0,8,4E,02,5D,80,F0,80,B8,00,
561946,0012C024,true,Rx,1,8,AC,A1,00,00,C5,FF,B8,00,
562539,00524000,true,Rx,1,8,40,00,00,00,C0,00,C0,00,
562746,0240102A,true,Rx,0,8,C1,00,00,00,00,00,00,00,
563100,00D28026,true,Rx,1,8,4E,8F,67,00,C0,00,00,00,
563677,00E00020,true,Rx,1,8,03,C0,00,13,04,60,00,00,
563875,0261300A,true,Rx,0,8,80,00,00,27,80,40,00,C0,
564222,0022C01E,true,Rx,1,8,84,0B,40,89,C4,00,A4,60,
564801,0032C01E,true,Rx,1,8,80,00,14,00,04,00,60,00,
565369,00F2C006,true,Rx,1,8,4C,00,B0,00,F0,1E,00,00,
565957,00608024,true,Rx,1,8,80,00,00,00,00,01,00,3E,
570863,01200028,true,Rx,1,8,C8,00,00,43,F0,00,33,27,
571425,00C24008,true,Rx,1,8,15,00,90,00,06,B2,80,22,
571478,00613DF8,true,Rx,0,8,41,00,0E,20,01,00,00,40,
572674,01800028,true,Rx,0,8,C0,00,7A,00,00,00,00,00,
573822,0360000A,true,Rx,0,8,80,00,00,00,00,16,00,00,
574973,0140044A,true,Rx,0,8,40,00,00,0B,10,00,00,00,
575780,0022C01E,true,Rx,1,8,C4,0B,40,89,C4,00,A4,60,
576100,01C030A2,true,Rx,0,8,00,5B,40,01,89,01,14,00,
576340,0012C024,true,Rx,1,8,A4,A1,00,00,C5,FF,B8,00,
576933,0032C01E,true,Rx,1,8,C0,00,14,00,04,00,60,00,
577262,01E01266,true,Rx,0,8,80,00,03,00,00,00,40,00,
577501,00524000,true,Rx,1,8,40,00,00,00,C0,00,C0,00,
578060,00B00002,true,Rx,1,8,C0,00,A5,AD,F4,3B,C3,35,
578618,00D28026,true,Rx,1,8,8A,8F,67,00,C0,00,00,00,
579191,00E00020,true,Rx,1,8,03,C0,00,13,04,61,00,00,
579769,01100014,true,Rx,1,8,C0,00,00,04,00,11,20,00,
580327,01500006,true,Rx,1,8,C5,0F,08,35,2C,89,00,00,
580896,01700012,true,Rx,1,8,CB,C0,80,00,AA,AA,00,00,
581456,00C24008,true,Rx,1,8,5D,00,A0,00,05,5B,80,22,
582024,01600022,true,Rx,1,8,00,00,AA,AA,00,00,00,00,
582943,00F2C006,true,Rx,1,8,88,00,B0,00,F0,1E,00,00,
583531,01828002,true,Rx,1,8,00,80,00,7F,00,00,00,00,
585683,0102C02C,true,Rx,1,8,4F,C8,30,0E,C0,10,2B,AE,
586302,01213FFC,true,Rx,0,8,8E,02,5D,C0,F0,80,B8,00,
587435,0280142A,true,Rx,0,8,40,50,00,20,17,00,00,00,
587800,0022C01E,true,Rx,1,8,04,0B,40,89,C4,00,A4,60,
588379,0032C01E,true,Rx,1,8,02,00,94,00,04,00,60,00,
588564,02A03028,true,Rx,0,8,00,9F,81,51,1A,2C,00,00,
589712,02001022,true,Rx,0,8,40,00,00,01,35,90,10,40,
589934,0012C024,true,Rx,1,8,AC,A1,00,00,C5,FF,B8,00,
590521,00524000,true,Rx,1,8,40,00,00,00,C0,00,C0,00,
590832,0261300A,true,Rx,0,8,C0,00,00,27,80,40,00,C0,
591074,00D28026,true,Rx,1,8,CA,8F,67,00,C0,00,00,00,
591641,00C24008,true,Rx,1,8,97,00,B0,00,06,B2,00,00,
591982,00613DF8,true,Rx,0,8,83,00,0E,20,00,00,00,40,
593170,03200008,true,Rx,0,8,00,00,00,00,00,80,00,00,
593595,00E00020,true,Rx,1,8,03,C0,00,13,04,5E,00,00,
594327,04000002,true,Rx,0,8,00,00,01,00,B4,00,00,52,
595806,00B00002,true,Rx,1,8,00,00,A5,AD,F4,3B,C3,35,
596394,01100014,true,Rx,1,8,00,00,00,00,00,11,20,00,
597054,0240102A,true,Rx,0,8,01,00,00,00,00,00,00,00,
599802,0022C01E,true,Rx,1,8,40,0B,40,89,44,00,24,60,
600366,0032C01E,true,Rx,1,8,40,00,04,00,04,00,60,00,
600945,01200028,true,Rx,1,8,08,08,00,41,F0,00,33,27,
601524,00C24008,true,Rx,1,8,0C,00,C0,00,08,09,00,22,
603948,0012C024,true,Rx,1,8,A4,A1,00,00,C5,FF,B8,00,
604532,00524000,true,Rx,1,8,40,00,00,00,C0,00,C0,00,
605100,00D28026,true,Rx,1,8,0A,8F,67,00,C0,00,00,00,
605678,00F2C006,true,Rx,1,8,CC,00,B0,00,F0,1D,00,00,
609605,00E00020,true,Rx,1,8,4B,C0,00,13,04,61,00,00,
610593,0102C02C,true,Rx,1,8,8F,C0,30,0E,C0,10,2B,AE,
611243,00613DF8,true,Rx,0,8,C1,00,0E,00,00,00,00,40,
611380,00C24008,true,Rx,1,8,55,00,D0,00,06,B2,00,22,
611939,0022C01E,true,Rx,1,8,84,0B,40,89,C4,00,A4,60,
612372,01213FFC,true,Rx,0,8,CE,02,5D,80,E0,80,B8,00,
612509,0032C01E,true,Rx,1,8,82,00,94,00,04,00,60,00,
613560,01800028,true,Rx,0,8,00,00,7E,00,00,00,00,00,
614719,0140044A,true,Rx,0,8,80,00,00,0B,00,00,00,00,
615790,00B00002,true,Rx,1,8,40,00,A5,AD,F4,3B,C3,35,
615832,02C13428,true,Rx,0,8,01,02,78,8A,89,CF,20,00,
616370,01100014,true,Rx,1,8,40,00,00,00,00,11,20,00,
616939,02E10DF4,true,Rx,0,8,0F,A9,0F,2C,99,3A,F8,18,
617964,0012C024,true,Rx,1,8,AC,A1,00,00,C5,FF,B8,00,
618078,0280142A,true,Rx,0,8,80,50,00,20,17,00,00,00,
618555,00524000,true,Rx,1,8,40,00,00,00,C0,00,C0,00,
619114,00D28026,true,Rx,1,8,4E,8F,67,00,C0,00,00,00,
619227,01E01266,true,Rx,0,8,C0,00,07,00,00,00,40,00,
620335,01C030A2,true,Rx,0,8,40,5B,40,01,89,01,14,00,
621380,00C24008,true,Rx,1,8,C9,00,E0,00,08,09,00,45,
621462,0261300A,true,Rx,0,8,00,00,00,27,80,40,00,C0,
622586,02A03028,true,Rx,0,8,00,9F,01,11,1A,2C,00,00,
623722,03801028,true,Rx,0,8,8E,00,20,09,DC,40,00,00,
623786,0022C01E,true,Rx,1,8,C4,0B,40,89,C4,00,A4,60,
624363,0032C01E,true,Rx,1,8,C0,00,14,00,04,00,60,00,
624974,00F2C006,true,Rx,1,8,0C,00,BF,FF,F0,1B,00,00,
625562,00E00020,true,Rx,1,8,33,C0,00,13,04,60,00,00,
630393,01200028,true,Rx,1,8,48,08,00,41,F0,00,33,27,
631018,00613DF8,true,Rx,0,8,03,00,0E,20,01,00,00,40,
631393,00C24008,true,Rx,1,8,12,00,F0,00,06,B2,00,45,
631950,0012C024,true,Rx,1,8,A4,A1,00,00,C5,FF,B8,00,
632188,0240102A,true,Rx,0,8,41,00,00,00,00,00,00,00,
632543,00524000,true,Rx,1,8,40,00,00,00,C0,00,C0,00,
633102,00D28026,true,Rx,1,8,8A,8F,67,00,C0,00,00,00,
634225,02001022,true,Rx,0,8,80,00,00,01,35,90,10,40,
635495,0102C02C,true,Rx,1,8,CF,C8,30,0E,C0,11,2B,AE,
635774,00400066,true,Rx,0,8,80,00,00,01,01,5E,40,7F,
636046,0022C01E,true,Rx,1,8,04,0B,40,89,C4,00,A4,60,
636633,0032C01E,true,Rx,1,8,00,00,14,00,04,00,60,00,
636903,01213FFC,true,Rx,0,8,0E,02,5D,80,F0,C0,B8,00,
637184,00B00002,true,Rx,1,8,80,00,A5,AD,F4,3B,C3,35,
637774,01100014,true,Rx,1,8,80,00,00,04,00,11,20,00,
638331,01500006,true,Rx,1,8,05,0F,0A,75,2C,89,00,00,
638904,01700012,true,Rx,1,8,0B,C0,80,00,AA,AA,00,00,
641014,00608024,true,Rx,1,8,C0,00,00,00,00,01,01,3E,
641582,00C24008,true,Rx,1,8,87,00,00,00,08,09,00,67,
642161,00E00020,true,Rx,1,8,03,C0,00,13,04,60,00,00,
642729,01600022,true,Rx,1,8,41,00,AA,AA,00,00,00,00,
645954,0012C024,true,Rx,1,8,AC,A1,00,00,C5,FF,B8,00,
646547,00524000,true,Rx,1,8,40,00,00,00,C0,00,C0,00,
647106,00D28026,true,Rx,1,8,CA,8F,67,00,C0,00,00,00,
647230,0280142A,true,Rx,0,8,C0,10,00,20,17,00,00,00,
647676,00F2C006,true,Rx,1,8,4C,00,BF,F9,F0,1B,00,00,
648234,0022C01E,true,Rx,1,8,40,0B,40,89,44,00,24,60,
648808,0032C01E,true,Rx,1,8,42,00,84,00,04,00,60,00,
650638,0261300A,true,Rx,0,8,40,00,00,27,80,40,00,C0,
651383,00C24008,true,Rx,1,8,D0,00,10,00,06,B2,00,67,
651785,00613DF8,true,Rx,0,8,41,00,0E,20,00,00,00,40,
652973,01800028,true,Rx,0,8,40,00,7A,00,00,00,00,00,
654118,0140044A,true,Rx,0,8,C0,00,00,1B,10,00,00,00,
655799,00B00002,true,Rx,1,8,C0,00,A5,AD,F4,3B,C3,35,
655861,02A03028,true,Rx,0,8,00,1F,C1,59,1A,2C,00,00,
656379,01100014,true,Rx,1,8,C0,00,00,00,00,11,20,00,
657597,00E00020,true,Rx,1,8,03,C0,00,13,04,60,00,00,
659811,0022C01E,true,Rx,1,8,84,0B,40,89,C4,00,A4,60,
660378,0012C024,true,Rx,1,8,A4,A1,00,00,C5,FF,B8,00,
660956,0032C01E,true,Rx,1,8,80,00,14,00,04,00,60,00,
660997,01213FFC,true,Rx,0,8,4E,02,5D,C0,F0,80,B8,00,
661536,00524000,true,Rx,1,8,40,00,00,00,C0,00,C0,00,
662115,00C24008,true,Rx,1,8,45,00,20,00,08,09,00,89,
662684,00D28026,true,Rx,1,8,0A,8F,67,00,C0,00,00,00,
663243,0102C02C,true,Rx,1,8,0F,C0,30,0E,C0,10,2B,AE,
663820,01E01266,true,Rx,0,8,00,00,03,00,00,00,40,00,
663835,01200028,true,Rx,1,8,88,08,00,41,F0,00,33,27,
664413,01828002,true,Rx,1,8,00,80,00,7F,00,00,00,00,
664943,01C030A2,true,Rx,0,8,80,5B,40,01,89,01,14,00,
666418,02C13428,true,Rx,0,8,41,02,78,8A,89,CF,20,00,
667038,00F2C006,true,Rx,1,8,88,00,BF,F6,F0,1C,00,00,
667584,0240102A,true,Rx,0,8,80,00,00,00,00,00,00,00,
668688,02E10DF4,true,Rx,0,8,4F,A9,2F,AC,99,3A,F8,18,
671177,00613DF8,true,Rx,0,8,83,00,0E,20,00,00,00,40,
671372,00C24008,true,Rx,1,8,8E,00,30,00,06,B2,00,89,
671930,0022C01E,true,Rx,1,8,C4,0B,40,89,C4,00,A4,60,
672498,0032C01E,true,Rx,1,8,C0,00,14,00,04,00,60,00,
673613,00E00020,true,Rx,1,8,03,C0,00,13,04,61,00,00,
674171,0012C024,true,Rx,1,8,AC,A1,00,00,C5,FF,B8,00,
674761,00524000,true,Rx,1,8,40,00,00,00,C0,00,C0,00,
675318,00D28026,true,Rx,1,8,4E,8F,67,00,C0,00,00,00,
675876,00B00002,true,Rx,1,8,00,00,A5,AD,F4,3B,C3,35,
676465,01100014,true,Rx,1,8,00,00,00,00,00,11,20,00,
677259,0280142A,true,Rx,0,8,00,50,00,20,17,00,00,00,
679106,02001022,true,Rx,0,8,C0,00,00,01,35,90,10,40,
680620,0261300A,true,Rx,0,8,80,00,00,27,80,40,00,C0,
681372,00C24008,true,Rx,1,8,7E,00,40,00,06,B2,00,89,
682000,03C0002A,true,Rx,0,8,00,00,33,C0,27,00,9F,00,
683816,0022C01E,true,Rx,1,8,04,0B,40,89,C4,00,A4,60,
684384,0032C01E,true,Rx,1,8,02,00,94,00,04,00,60,00,
685547,0102C02C,true,Rx,1,8,4F,C8,30,0E,C0,10,2B,AE,
686166,01213FFC,true,Rx,0,8,8E,02,5D,80,E0,80,B8,00,
688001,0012C024,true,Rx,1,8,A4,A1,00,00,C5,FF,B8,00,
688590,00524000,true,Rx,1,8,40,00,00,00,C0,00,C0,00,
689148,00D28026,true,Rx,1,8,8A,8F,67,00,C0,00,00,00,
689728,00E00020,true,Rx,1,8,03,C0,00,13,04,60,00,00,
690305,00F2C006,true,Rx,1,8,CC,00,BF,F7,F0,1C,00,00,
690874,01200028,true,Rx,1,8,C8,40,00,C5,F0,00,33,27,
690988,00613DF8,true,Rx,0,8,C1,00,06,20,01,00,00,40,
691436,00C24008,true,Rx,1,8,4C,00,50,00,06,B2,00,AB,
692168,01800028,true,Rx,0,8,80,00,7E,00,00,00,00,00,
693293,02A03028,true,Rx,0,8,00,9F,91,11,1A,2C,80,00,
694450,0140044A,true,Rx,0,8,00,00,00,0B,00,00,00,00,
695632,03200008,true,Rx,0,8,00,00,00,00,00,80,00,00,
695852,0022C01E,true,Rx,1,8,40,0B,40,89,44,00,24,60,
696420,0032C01E,true,Rx,1,8,40,00,04,00,04,00,60,00,
696792,0340024C,true,Rx,0,8,00,00,F0,00,0B,AC,08,00,
696980,00B00002,true,Rx,1,8,40,00,A5,AD,F4,3B,C3,35,
697553,01100014,true,Rx,1,8,40,00,00,04,00,11,20,00,
698110,01500006,true,Rx,1,8,45,0F,08,35,2C,89,00,00,
698678,01700012,true,Rx,1,8,4B,C0,80,00,AA,AA,00,00,
701371,00C24008,true,Rx,1,8,94,00,60,00,05,5B,00,AB,
701945,01600022,true,Rx,1,8,81,00,AA,AA,00,00,00,00,
702008,0240102A,true,Rx,0,8,C1,00,00,00,00,00,00,00,
702504,0012C024,true,Rx,1,8,AC,A1,00,00,C5,FF,B8,00,
703094,00524000,true,Rx,1,8,40,00,00,00,C0,00,C0,00,
703654,00D28026,true,Rx,1,8,CA,8F,67,00,C0,00,00,00,
705558,00E00020,true,Rx,1,8,4B,C0,00,13,04,61,00,00,
707227,0280142A,true,Rx,0,8,40,50,00,28,17,00,00,00,
707837,0022C01E,true,Rx,1,8,84,0B,40,89,C4,00,A4,60,
708405,0032C01E,true,Rx,1,8,82,00,94,00,04,00,60,00,
708817,01E01266,true,Rx,0,8,40,00,03,00,00,00,40,00,
708997,00F2C006,true,Rx,1,8,0C,00,BF,FA,F0,1C,00,00,
709937,01C030A2,true,Rx,0,8,C0,5B,40,01,89,01,14,00,
710795,0102C02C,true,Rx,1,8,8F,C8,30,0E,C0,10,2B,AE,
711083,00400066,true,Rx,0,8,C0,00,00,02,01,5E,40,7F,
711375,00C24008,true,Rx,1,8,09,00,70,00,06,B2,00,CE,
712243,00613DF8,true,Rx,0,8,03,00,0E,20,00,00,00,40,
713367,01213FFC,true,Rx,0,8,CE,02,5D,80,F0,80,B8,00,
714481,0261300A,true,Rx,0,8,C0,00,00,27,80,40,00,C0,
715349,00608024,true,Rx,1,8,00,00,00,00,00,01,02,3E,
715907,00B00002,true,Rx,1,8,80,00,A5,AD,F4,3B,C3,35,
716473,0012C024,true,Rx,1,8,A4,A1,00,00,C5,FF,B8,00,
717063,00524000,true,Rx,1,8,40,00,00,00,C0,00,C0,00,
717631,00D28026,true,Rx,1,8,0A,8F,67,00,C0,00,00,00,
718211,01100014,true,Rx,1,8,80,00,00,00,00,11,20,00,
719838,0022C01E,true,Rx,1,8,C4,0B,40,89,C4,00,A4,60,
720415,0032C01E,true,Rx,1,8,C0,00,14,00,04,00,60,00,
720985,01200028,true,Rx,1,8,08,08,00,41,F0,00,33,27,
721150,02C13428,true,Rx,0,8,81,02,78,8A,89,CF,20,00,
721567,00C24008,true,Rx,1,8,51,00,80,00,05,5B,00,CE,
722137,00E00020,true,Rx,1,8,33,C0,00,13,04,60,00,00,
722260,02E10DF4,true,Rx,0,8,8F,A9,2F,AC,99,3A,F8,18,
724251,02001022,true,Rx,0,8,00,00,00,01,35,90,10,40,
726104,02A03028,true,Rx,0,8,00,9F,C1,59,1A,2C,00,00,
729949,0012C024,true,Rx,1,8,AC,A1,00,00,C5,FF,B8,00,
730533,00524000,true,Rx,1,8,40,00,00,00,C0,00,C0,00,
730946,00613DF8,true,Rx,0,8,41,00,06,20,00,00,00,40,
731093,00D28026,true,Rx,1,8,4E,8F,67,00,C0,00,00,00,
731661,00C24008,true,Rx,1,8,41,00,90,00,05,5B,00,CE,
732138,01800028,true,Rx,0,8,C0,00,7A,00,00,00,00,00,
732213,0022C01E,true,Rx,1,8,04,0B,40,89,C4,00,A4,60,
732793,0032C01E,true,Rx,1,8,00,00,14,00,04,00,60,00,
733370,00F2C006,true,Rx,1,8,4C,00,BF,FD,F0,1E,00,00,
734094,0140044A,true,Rx,0,8,40,00,00,1B,00,00,00,00,
735704,0102C02C,true,Rx,1,8,CF,C0,30,0E,C0,10,2B,AE,
736261,00B00002,true,Rx,1,8,C0,00,A5,AD,F4,3B,C3,35,
736343,01213FFC,true,Rx,0,8,0E,02,5D,C0,E0,C0,B8,00,
736842,01100014,true,Rx,1,8,C0,00,00,00,00,11,20,00,
737431,01828002,true,Rx,1,8,00,80,00,7B,00,00,00,00,
737523,0240102A,true,Rx,0,8,01,00,00,00,00,00,00,00,
738000,00E00020,true,Rx,1,8,03,C0,00,13,04,5E,00,00,
738677,0280142A,true,Rx,0,8,80,10,00,20,17,00,00,00,
740942,0261300A,true,Rx,0,8,00,00,00,27,80,40,00,C0,
741378,00C24008,true,Rx,1,8,0F,00,A0,00,05,5B,00,F0,
743831,0022C01E,true,Rx,1,8,40,0B,40,89,44,00,24,60,
744395,0012C024,true,Rx,1,8,A4,A1,00,00,C5,FF,B8,00,
744963,0032C01E,true,Rx,1,8,42,00,84,00,04,00,60,00,
745551,00524000,true,Rx,1,8,40,00,00,00,C0,00,C0,00,
746110,00D28026,true,Rx,1,8,8A,8F,67,00,C0,00,00,00,
750541,01200028,true,Rx,1,8,48,08,00,41,F0,00,33,27,
751115,00F2C006,true,Rx,1,8,88,00,B0,00,F0,20,00,00,
751156,00613DF8,true,Rx,0,8,83,00,0E,20,01,00,00,40,
751685,00C24008,true,Rx,1,8,FF,00,B0,00,05,5B,00,F0,
753563,00E00020,true,Rx,1,8,03,C0,00,13,04,60,00,00,
754027,01E01266,true,Rx,0,8,80,00,03,00,00,00,40,00,
755150,01C030A2,true,Rx,0,8,00,5B,40,01,89,01,14,00,
755865,0022C01E,true,Rx,1,8,84,0B,40,89,C4,00,A4,60,
756442,0032C01E,true,Rx,1,8,80,00,14,00,04,00,60,00,
757001,00B00002,true,Rx,1,8,00,00,A5,AD,F4,3B,C3,35,
757589,01100014,true,Rx,1,8,00,00,00,04,00,11,20,00,
758148,0012C024,true,Rx,1,8,AC,A1,00,00,C5,FF,B8,00,
758737,00524000,true,Rx,1,8,40,00,00,00,C0,00,C0,00,
759294,00D28026,true,Rx,1,8,CA,8F,67,00,C0,00,00,00,
759853,01500006,true,Rx,1,8,85,2F,08,B5,2C,89,00,00,
760411,01700012,true,Rx,1,8,8B,C0,80,00,AA,AA,00,00,
760981,0102C02C,true,Rx,1,8,0F,C8,30,0E,C0,10,2B,AE,
761312,01213FFC,true,Rx,0,8,4E,02,5D,80,F0,80,B8,00,
761551,00C24008,true,Rx,1,8,46,00,C0,00,04,05,00,F0,
762120,01600022,true,Rx,1,8,C0,00,AA,AA,00,00,00,00,
762429,02A03028,true,Rx,0,8,00,9F,81,11,1A,2C,00,00,
767231,0280142A,true,Rx,0,8,C0,50,00,20,17,00,00,00,
767839,0022C01E,true,Rx,1,8,C4,0B,40,89,C4,00,A4,60,
768417,0032C01E,true,Rx,1,8,C0,00,14,00,04,00,60,00,
769118,02001022,true,Rx,0,8,40,00,00,01,35,90,10,40,
769564,00E00020,true,Rx,1,8,03,C0,00,13,04,60,00,00,
771038,0261300A,true,Rx,0,8,40,00,00,27,80,40,00,C0,
771390,00C24008,true,Rx,1,8,36,00,D0,00,04,05,00,F0,
772000,0012C024,true,Rx,1,8,A4,A1,00,00,C5,FF,B8,00,
772185,00613DF8,true,Rx,0,8,C1,00,0E,20,00,00,00,40,
772589,00524000,true,Rx,1,8,40,00,00,00,C0,00,C0,00,
773148,00D28026,true,Rx,1,8,0A,8F,67,00,C0,00,00,00,
773389,01800028,true,Rx,0,8,00,00,7A,00,00,00,00,00,
773722,00F2C006,true,Rx,1,8,CC,00,B0,03,F0,1E,00,00,
774537,0140044A,true,Rx,0,8,80,00,00,0B,10,00,00,00,
775702,0240102A,true,Rx,0,8,40,00,00,00,00,00,00,00,
775853,00B00002,true,Rx,1,8,40,00,A5,AD,F4,3B,C3,35,
776430,01100014,true,Rx,1,8,40,00,00,00,00,11,20,00,
776782,02C13428,true,Rx,0,8,C9,02,78,8A,89,CF,20,00,
777878,02E10DF4,true,Rx,0,8,CF,A9,0F,2C,99,3A,F8,18,
779856,0022C01E,true,Rx,1,8,04,0B,40,89,C4,00,A4,60,
780424,0032C01E,true,Rx,1,8,02,00,94,00,04,00,60,00,
781002,01200028,true,Rx,1,8,88,08,00,41,F0,00,33,27,
781570,00C24008,true,Rx,1,8,AC,00,E0,00,05,5B,01,12,
785423,0102C02C,true,Rx,1,8,4F,C0,30,0E,C0,10,2B,AE,
785999,00E00020,true,Rx,1,8,03,C0,00,13,04,61,00,00,
786050,00400066,true,Rx,0,8,00,00,00,03,01,5E,40,7F,
786558,0012C024,true,Rx,1,8,AC,A1,00,00,C5,FF,B8,00,
787147,00524000,true,Rx,1,8,40,00,00,00,C0,00,C0,00,
787178,01213FFC,true,Rx,0,8,8E,02,5D,80,F0,80,B8,00,
787711,00D28026,true,Rx,1,8,4E,8F,67,00,C0,00,00,00,
788280,0132C07C,true,Rx,1,8,11,05,05,05,01,01,01,05,
788311,01613FFC,true,Rx,0,8,11,05,05,05,01,01,01,05,
790632,00608024,true,Rx,1,8,40,00,00,00,00,01,03,3E,
791262,00613DF8,true,Rx,0,8,03,00,0E,20,01,00,00,40,
791389,00C24008,true,Rx,1,8,F3,00,F0,00,04,05,01,12,
791958,0022C01E,true,Rx,1,8,40,0B,40,89,44,00,24,60,
792524,0032C01E,true,Rx,1,8,40,00,04,00,04,00,60,00,
793104,00F2C006,true,Rx,1,8,0C,00,B0,05,F0,1E,00,00,
795860,00B00002,true,Rx,1,8,80,00,A5,AD,F4,3B,C3,35,
796010,02A03028,true,Rx,0,8,00,9F,81,51,1A,2C,00,00,
796445,01100014,true,Rx,1,8,80,00,00,00,00,11,20,00,
797198,03200008,true,Rx,0,8,00,00,00,00,00,80,00,00,
798334,0280142A,true,Rx,0,8,00,50,00,20,17,00,00,00,
799510,01E01266,true,Rx,0,8,C0,00,03,00,00,00,40,00,
799997,0012C024,true,Rx,1,8,A4,A1,00,00,C5,FF,B8,00,
800585,00524000,true,Rx,1,8,40,00,00,00,C0,00,C0,00,
800616,01C030A2,true,Rx,0,8,40,5B,40,01,89,01,14,00,
801146,00D28026,true,Rx,1,8,8A,8F,67,00,C0,00,00,00,
801713,00C24008,true,Rx,1,8,E3,00,00,00,04,05,01,12,
801745,0261300A,true,Rx,0,8,80,00,00,27,80,40,00,C0,
802290,00E00020,true,Rx,1,8,4B,C0,00,13,04,5E,00,00,
803869,0022C01E,true,Rx,1,8,84,0B,40,89,C4,00,A4,60,
804445,0032C01E,true,Rx,1,8,82,00,94,00,04,00,60,00,
806986,0240102A,true,Rx,0,8,81,00,00,00,00,00,00,00,
810399,0102C02C,true,Rx,1,8,8F,C8,30,0E,C0,10,2B,AE,
810973,01200028,true,Rx,1,8,C8,00,00,41,F0,00,33,27,
811067,00613DF8,true,Rx,0,8,41,00,0E,20,00,00,00,40,
811553,00C24008,true,Rx,1,8,B0,00,10,00,04,05,01,35,
812193,01213FFC,true,Rx,0,8,CE,02,5D,80,E0,80,B8,00,
813382,01800028,true,Rx,0,8,40,00,7A,00,00,00,00,00,
814024,0012C024,true,Rx,1,8,AC,A1,00,00,C5,FF,B8,00,
814527,0140044A,true,Rx,0,8,C0,00,00,0B,00,00,00,00,
814612,00524000,true,Rx,1,8,40,00,00,00,C0,00,C0,00,
815171,00D28026,true,Rx,1,8,CA,8F,67,00,C0,00,00,00,
815676,02001022,true,Rx,0,8,80,00,00,01,35,90,10,40,
815742,00F2C006,true,Rx,1,8,4C,00,B0,07,F0,1C,00,00,
816288,0022C01E,true,Rx,1,8,C4,0B,40,89,C4,00,A4,60,
816864,0032C01E,true,Rx,1,8,C0,00,14,00,04,00,60,00,
817422,00B00002,true,Rx,1,8,C0,00,A5,AD,F4,3B,C3,35,
817991,00E00020,true,Rx,1,8,33,C0,00,13,07,E5,00,00,
818569,01100014,true,Rx,1,8,C0,00,00,00,00,11,20,00,
819128,01500006,true,Rx,1,8,C5,0F,08,35,2C,89,00,00,
819695,01700012,true,Rx,1,8,C3,00,00,00,AA,AA,00,00,
820285,01828002,true,Rx,1,8,00,80,00,7F,00,00,00,00,
821401,00C24008,true,Rx,1,8,A0,00,20,00,04,05,01,35,
821971,01600022,true,Rx,1,8,01,00,AA,AA,00,00,00,00,
827210,0280142A,true,Rx,0,8,40,10,00,20,17,00,00,00,
827858,0022C01E,true,Rx,1,8,04,0B,40,89,C4,00,A4,60,
828426,0012C024,true,Rx,1,8,A4,A1,00,00,C5,FF,B8,00,
829005,0032C01E,true,Rx,1,8,00,00,14,00,04,00,60,00,
829594,00524000,true,Rx,1,8,40,00,00,00,C0,00,C0,00,
830162,00D28026,true,Rx,1,8,0A,8F,67,00,C0,00,00,00,
831039,00613DF8,true,Rx,0,8,83,00,0E,20,00,00,00,40,
831403,00C24008,true,Rx,1,8,90,00,30,00,04,05,01,35,
832166,0261300A,true,Rx,0,8,C0,00,00,27,80,40,00,C0,
833288,02A03028,true,Rx,0,8,00,9F,C1,59,1A,2C,00,00,
833549,00E00020,true,Rx,1,8,03,C0,00,13,08,A8,00,00,
834405,02C13428,true,Rx,0,8,01,02,78,8A,89,CF,20,00,
835068,00F2C006,true,Rx,1,8,88,00,B0,08,F0,1C,00,00,
835523,02E10DF4,true,Rx,0,8,0F,A9,2F,AC,99,3A,F8,18,
835629,0102C02C,true,Rx,1,8,CF,C0,30,0E,C0,11,2B,AE,
836177,00B00002,true,Rx,1,8,00,00,A5,AD,F4,3B,C3,35,
836652,01213FFC,true,Rx,0,8,0E,02,5D,C0,F0,C0,B8,00,
836769,01100014,true,Rx,1,8,00,00,00,04,00,11,20,00,
839880,0022C01E,true,Rx,1,8,40,0B,40,89,44,00,24,60,
840454,0032C01E,true,Rx,1,8,42,00,84,00,04,00,60,00,
841023,01200028,true,Rx,1,8,08,08,00,41,F0,00,33,27,
841590,00C24008,true,Rx,1,8,D9,00,40,00,02,AE,01,35,
842076,0240102A,true,Rx,0,8,C3,00,00,00,00,00,00,00,
842161,0012C024,true,Rx,1,8,AC,A1,00,00,C5,FF,B8,00,
842751,00524000,true,Rx,1,8,40,00,00,00,C0,00,C0,00,
843307,00D28026,true,Rx,1,8,4E,8F,67,00,C0,00,00,00,
843825,01E01266,true,Rx,0,8,00,00,03,00,00,00,40,00,
844934,01C030A2,true,Rx,0,8,80,5B,40,01,89,01,14,00,
849589,00E00020,true,Rx,1,8,03,C0,00,13,05,80,00,00,
850935,00613DF8,true,Rx,0,8,C1,00,0E,00,01,00,00,40,
851391,00C24008,true,Rx,1,8,C9,00,50,00,02,AE,01,35,
851938,0022C01E,true,Rx,1,8,84,0B,40,89,C4,00,A4,60,
852123,01800028,true,Rx,0,8,80,00,7E,00,00,00,00,00,
852517,0032C01E,true,Rx,1,8,80,00,14,00,04,00,60,00,
854063,0140044A,true,Rx,0,8,00,00,00,1B,10,00,00,00,
855877,00B00002,true,Rx,1,8,40,00,A5,AD,F4,3B,C3,35,
856445,0012C024,true,Rx,1,8,A4,A1,00,00,C5,FF,B8,00,
857034,00524000,true,Rx,1,8,40,00,00,00,C0,00,C0,00,
857220,0280142A,true,Rx,0,8,80,50,00,20,17,00,00,00,
857593,00D28026,true,Rx,1,8,8A,8F,67,00,C0,00,00,00,
858157,00F2C006,true,Rx,1,8,CC,00,B0,08,F0,1C,00,00,
858736,01100014,true,Rx,1,8,40,00,00,00,00,11,20,00,
859117,02001022,true,Rx,0,8,C0,00,00,01,35,90,10,40,
860779,0102C02C,true,Rx,1,8,0F,C8,30,0E,C0,10,2B,AE,
861336,00400066,true,Rx,0,8,40,00,00,04,01,5E,40,7F,
861411,00C24008,true,Rx,1,8,3E,00,60,00,04,05,01,57,
862462,01213FFC,true,Rx,0,8,4E,02,5D,80,F0,80,B8,00,
863587,0261300A,true,Rx,0,8,00,00,00,27,80,40,00,C0,
863878,0022C01E,true,Rx,1,8,C4,0B,40,89,C4,00,A4,60,
864456,0032C01E,true,Rx,1,8,C0,00,14,00,04,00,60,00,
865354,00608024,true,Rx,1,8,80,00,00,00,00,01,04,3E,
865933,00E00020,true,Rx,1,8,03,C0,00,13,07,B5,00,00,
865975,02A03028,true,Rx,0,8,00,9F,81,11,1A,2C,00,00,
870068,0012C024,true,Rx,1,8,AC,A1,00,00,C5,FF,B8,00,
870652,00524000,true,Rx,1,8,40,00,00,00,C0,00,C0,00,
871076,00613DF8,true,Rx,0,8,03,00,0E,20,00,00,00,40,
871213,00D28026,true,Rx,1,8,CA,8F,67,00,C0,00,00,00,
871793,00C24008,true,Rx,1,8,2E,00,70,00,04,05,01,57,
872206,0340024C,true,Rx,0,8,40,00,E0,00,03,AC,08,00,
872364,01200028,true,Rx,1,8,48,08,00,41,F0,00,33,27,
875890,0022C01E,true,Rx,1,8,04,0B,40,89,C4,00,A4,60,
876464,0032C01E,true,Rx,1,8,02,00,94,00,04,00,60,00,
877030,0240102A,true,Rx,0,8,00,00,00,00,00,00,00,00,
877044,00B00002,true,Rx,1,8,80,00,A5,AD,F4,3B,C3,35,
877591,00F2C006,true,Rx,1,8,0C,00,B0,09,F0,1B,00,00,
878174,01100014,true,Rx,1,8,80,00,00,00,00,11,20,00,
878743,01500006,true,Rx,1,8,05,0F,08,35,2C,89,00,00,
878846,03A00002,true,Rx,0,8,C0,00,00,04,07,04,98,63,
879311,01700012,true,Rx,1,8,0B,C0,80,00,AA,AA,00,00,
881407,00C24008,true,Rx,1,8,77,00,80,00,02,AE,01,57,
881976,00E00020,true,Rx,1,8,03,C0,00,13,06,A7,00,00,
882542,01600022,true,Rx,1,8,40,00,AA,AA,00,00,00,00,
884069,0012C024,true,Rx,1,8,A4,A1,00,00,C5,FF,B8,00,
884655,00524000,true,Rx,1,8,40,00,00,00,C0,00,C0,00,
885224,00D28026,true,Rx,1,8,0A,8F,67,00,C0,00,00,00,
885783,0102C02C,true,Rx,1,8,4F,C0,30,0E,C0,10,2B,AE,
885855,01213FFC,true,Rx,0,8,8E,02,5D,80,E0,80,B8,00,
886950,02C13428,true,Rx,0,8,41,02,78,8A,89,CF,20,00,
887923,0022C01E,true,Rx,1,8,40,0B,40,89,44,00,24,60,
888078,0280142A,true,Rx,0,8,C0,50,00,28,17,00,00,00,
888492,0032C01E,true,Rx,1,8,40,00,04,00,04,00,60,00,
889245,01E01266,true,Rx,0,8,40,00,03,00,00,00,40,00,
890358,01C030A2,true,Rx,0,8,C0,5B,40,01,89,01,14,00,
891125,01828002,true,Rx,1,8,00,80,00,7F,00,00,00,00,
891454,02E10DF4,true,Rx,0,8,4F,A9,0F,2C,99,3A,F8,18,
891694,00C24008,true,Rx,1,8,67,00,90,00,02,AE,01,57,
892604,00613DF8,true,Rx,0,8,41,00,0E,20,00,00,00,40,
893791,01800028,true,Rx,0,8,C0,00,7A,00,00,00,00,00,
894959,0140044A,true,Rx,0,8,40,00,00,0B,00,00,00,00,
895898,00B00002,true,Rx,1,8,C0,00,A5,AD,F4,3B,C3,35,
896063,0261300A,true,Rx,0,8,40,00,00,27,80,40,00,C0,
896468,01100014,true,Rx,1,8,C0,00,00,04,00,11,20,00,
897221,0360000A,true,Rx,0,8,C0,00,00,00,00,16,00,00,
897553,00E00020,true,Rx,1,8,03,C0,00,13,07,06,00,00,
898122,0012C024,true,Rx,1,8,AC,A1,00,00,C5,FF,B8,00,
898713,00524000,true,Rx,1,8,40,00,00,00,C0,00,C0,00,
899271,00D28026,true,Rx,1,8,4E,8F,67,00,C0,00,00,00,
899840,00F2C006,true,Rx,1,8,4C,00,B0,0A,F0,1A,00,00,
900387,0022C01E,true,Rx,1,8,84,0B,40,89,C4,00,A4,60,
900967,0032C01E,true,Rx,1,8,82,00,94,00,04,00,60,00,
900998,02A03028,true,Rx,0,8,00,9F,01,51,1A,2C,00,00,
901535,00C24008,true,Rx,1,8,DC,00,A0,00,04,05,01,79,
902104,01200028,true,Rx,1,8,88,00,00,41,F0,00,33,27,
902187,03200008,true,Rx,0,8,00,00,00,00,00,80,00,00,
904205,02001022,true,Rx,0,8,00,00,00,01,35,90,10,40,
910337,0102C02C,true,Rx,1,8,8F,C8,30,0E,C0,10,2B,AE,
910973,00613DF8,true,Rx,0,8,83,00,0E,20,01,00,00,40,
911407,00C24008,true,Rx,1,8,25,00,B0,00,02,AE,01,79,
911956,0022C01E,true,Rx,1,8,C4,0B,40,89,C4,00,A4,60,
912090,01213FFC,true,Rx,0,8,CE,02,5D,C0,F0,80,B8,00,
912518,0012C024,true,Rx,1,8,A4,A1,00,00,C5,FF,B8,00,
913096,0032C01E,true,Rx,1,8,C0,00,14,00,04,00,60,00,
913262,0240102A,true,Rx,0,8,41,00,00,00,00,00,00,00,
913687,00524000,true,Rx,1,8,40,00,00,00,C0,00,C0,00,
914246,00D28026,true,Rx,1,8,8A,8F,67,00,C0,00,00,00,
914809,00E00020,true,Rx,1,8,7B,C0,00,13,06,E6,00,00,
915923,00B00002,true,Rx,1,8,00,00,A5,AD,F4,3B,C3,35,
916510,01100014,true,Rx,1,8,00,00,00,00,00,11,20,00,
917222,0280142A,true,Rx,0,8,00,10,00,20,17,00,00,00,
919118,00F2C006,true,Rx,1,8,88,00,B0,0B,F0,1C,00,00,
921413,00C24008,true,Rx,1,8,15,00,C0,00,02,AE,01,79,
921827,0261300A,true,Rx,0,8,80,00,00,27,80,40,00,C0,
923898,0022C01E,true,Rx,1,8,04,0B,40,89,C4,00,A4,60,
924483,0032C01E,true,Rx,1,8,00,00,14,00,04,00,60,00,
926102,0012C024,true,Rx,1,8,AC,A1,00,00,C5,FF,B8,00,
926689,00524000,true,Rx,1,8,40,00,00,00,C0,00,C0,00,
927249,00D28026,true,Rx,1,8,CA,8F,67,00,C0,00,00,00,
929598,00E00020,true,Rx,1,8,03,C0,00,13,06,E3,00,00,
930687,01200028,true,Rx,1,8,C8,48,00,41,F0,00,33,27,
931306,00613DF8,true,Rx,0,8,C1,00,0E,20,00,00,00,40,
931402,00C24008,true,Rx,1,8,05,00,D0,00,02,AE,01,79,
932495,01800028,true,Rx,0,8,00,00,7E,00,00,00,00,00,
933642,03801028,true,Rx,0,8,C6,00,20,89,9C,40,00,00,
934796,0140044A,true,Rx,0,8,80,00,00,1B,00,00,00,00,
935169,0102C02C,true,Rx,1,8,CF,C0,30,0E,C0,10,2B,AE,
935913,0022C01E,true,Rx,1,8,40,0B,40,89,44,00,24,60,
935944,01213FFC,true,Rx,0,8,0E,02,5D,80,E0,C0,B8,00,
936483,0032C01E,true,Rx,1,8,42,00,84,00,04,00,60,00,
937036,00B00002,true,Rx,1,8,40,00,A5,AD,F4,3B,C3,35,
937067,01C030A2,true,Rx,0,8,00,5B,40,01,89,01,14,00,
937615,01100014,true,Rx,1,8,40,00,00,00,00,11,20,00,
938183,01500006,true,Rx,1,8,45,0F,08,35,2C,89,00,00,
938205,00400066,true,Rx,0,8,80,00,00,05,01,5E,40,7F,
938739,01700012,true,Rx,1,8,4B,C0,80,00,AA,AA,00,00,
939357,01E01266,true,Rx,0,8,80,00,03,00,00,00,40,00,
940081,0012C024,true,Rx,1,8,A4,A1,00,00,C5,FF,B8,00,
940462,02A03028,true,Rx,0,8,00,1F,D1,19,1A,2C,80,00,
940673,00524000,true,Rx,1,8,40,00,00,00,C0,00,C0,00,
941253,00608024,true,Rx,1,8,C0,00,00,00,00,01,05,3E,
941582,02C13428,true,Rx,0,8,81,02,78,8A,89,CF,20,00,
941814,00C24008,true,Rx,1,8,F5,00,E0,00,02,AE,01,79,
942381,00D28026,true,Rx,1,8,0A,8F,67,00,C0,00,00,00,
942695,02E10DF4,true,Rx,0,8,8F,A9,2F,AC,99,3A,F8,18,
942946,00F2C006,true,Rx,1,8,CC,00,B0,0C,F0,1D,00,00,
943514,01600022,true,Rx,1,8,81,00,AA,AA,00,00,00,00,
945546,00E00020,true,Rx,1,8,03,C0,00,13,06,A3,00,00,
947027,0240102A,true,Rx,0,8,81,00,00,00,00,00,00,00,
947917,0022C01E,true,Rx,1,8,84,0B,40,89,C4,00,A4,60,
948163,0280142A,true,Rx,0,8,40,50,00,20,17,00,00,00,
948495,0032C01E,true,Rx,1,8,80,00,14,00,04,00,60,00,
949313,02001022,true,Rx,0,8,40,00,00,01,35,90,10,40,
951279,00613DF8,true,Rx,0,8,03,00,0E,20,00,00,00,40,
951405,00C24008,true,Rx,1,8,E5,00,F0,00,02,AE,01,79,
952396,0261300A,true,Rx,0,8,C0,00,00,27,80,40,00,C0,
954099,0012C024,true,Rx,1,8,AC,A1,00,00,C5,FF,B8,00,
954688,00524000,true,Rx,1,8,40,00,00,00,C0,00,C0,00,
955243,00D28026,true,Rx,1,8,4E,8F,67,00,C0,00,00,00,
955915,00B00002,true,Rx,1,8,80,00,A5,AD,F4,3B,C3,35,
956504,01100014,true,Rx,1,8,80,00,00,04,00,11,20,00,
959914,0022C01E,true,Rx,1,8,C4,0B,40,89,C4,00,A4,60,
960478,0032C01E,true,Rx,1,8,C0,00,14,00,04,00,60,00,
961048,0102C02C,true,Rx,1,8,0F,C8,30,0E,C0,10,2B,AE,
961161,01213FFC,true,Rx,0,8,4E,02,5D,80,F0,80,B8,00,
961618,00C24008,true,Rx,1,8,B3,00,00,00,02,AE,01,9B,
962188,00E00020,true,Rx,1,8,03,C0,00,13,06,95,00,00,
962767,00F2C006,true,Rx,1,8,0C,00,B0,0D,F0,1C,00,00,
963335,01200028,true,Rx,1,8,08,08,00,41,F0,00,33,27,
968161,0012C024,true,Rx,1,8,A4,A1,00,00,C5,FF,B8,00,
968747,00524000,true,Rx,1,8,40,00,00,00,C0,00,C0,00,
969304,00D28026,true,Rx,1,8,8A,8F,67,00,C0,00,00,00,
969893,01828002,true,Rx,1,8,00,80,00,7F,00,00,00,00,
970904,00613DF8,true,Rx,0,8,41,00,0E,20,01,00,00,40,
971400,00C24008,true,Rx,1,8,A3,00,10,00,02,AE,01,9B,
971970,0022C01E,true,Rx,1,8,04,0B,40,89,C4,00,A4,60,
972093,01800028,true,Rx,0,8,40,00,7A,00,00,00,00,00,
972542,0032C01E,true,Rx,1,8,02,00,94,00,04,00,60,00,
973223,02A03028,true,Rx,0,8,00,9F,81,51,1A,2C,00,00,
974376,0140044A,true,Rx,0,8,C0,00,00,0B,10,00,00,00,
975915,00B00002,true,Rx,1,8,C0,00,A5,AD,F4,3B,C3,35,
976492,01100014,true,Rx,1,8,C0,00,00,00,00,11,20,00,
977193,0280142A,true,Rx,0,8,80,50,00,20,17,00,00,00,
977576,00E00020,true,Rx,1,8,03,C0,00,13,06,97,00,00,
978887,01E01266,true,Rx,0,8,C0,00,03,00,00,00,40,00,
979990,01C030A2,true,Rx,0,8,40,5B,40,01,89,01,14,00,
981403,00C24008,true,Rx,1,8,93,00,20,00,02,AE,01,9B,
981992,0240102A,true,Rx,0,8,C1,00,00,00,00,00,00,00,
982067,0012C024,true,Rx,1,8,AC,A1,00,00,C5,FF,B8,00,
982655,00524000,true,Rx,1,8,40,00,00,00,C0,00,C0,00,
983121,0261300A,true,Rx,0,8,00,00,00,27,80,40,00,C0,
983216,00D28026,true,Rx,1,8,CA,8F,67,00,C0,00,00,00,
983775,00F2C006,true,Rx,1,8,4C,00,B0,0E,F0,1B,00,00,
984335,0022C01E,true,Rx,1,8,40,0B,40,89,44,00,24,60,
984904,0032C01E,true,Rx,1,8,40,00,04,00,04,00,60,00,
985544,0102C02C,true,Rx,1,8,4F,C8,30,0E,C0,10,2B,AE,
986151,01213FFC,true,Rx,0,8,8E,02,5D,C0,F0,80,B8,00,
990352,01200028,true,Rx,1,8,48,08,00,43,F0,00,33,27,
990988,00613DF8,true,Rx,0,8,83,00,0E,20,00,00,00,40,
991412,00C24008,true,Rx,1,8,83,00,30,00,02,AE,01,9B,
993596,00E00020,true,Rx,1,8,03,C0,00,13,06,95,00,00,
994248,02001022,true,Rx,0,8,80,00,00,01,35,90,10,40,
995814,02C13428,true,Rx,0,8,C1,00,58,88,89,CF,20,00,
995930,0022C01E,true,Rx,1,8,84,0B,40,89,C4,00,A4,60,
996496,0012C024,true,Rx,1,8,A4,A1,00,00,C5,FF,B8,00,
996920,02E10DF4,true,Rx,0,8,CF,A9,0F,2C,99,3A,F8,18,
997078,0032C01E,true,Rx,1,8,82,00,94,00,04,00,60,00,
997665,00524000,true,Rx,1,8,40,00,00,00,C0,00,C0,00,
998214,00B00002,true,Rx,1,8,00,00,A5,AD,F4,3B,C3,35,
998787,00D28026,true,Rx,1,8,0A,8F,67,00,C0,00,00,00,
999376,01100014,true,Rx,1,8,00,00,00,00,00,11,20,00,
999934,01500006,true,Rx,1,8,85,2F,08,B5,2C,89,00,00,
1000492,01700012,true,Rx,1,8,8B,C0,80,00,AA,AA,00,00,
1001400,00C24008,true,Rx,1,8,CB,00,40,00,01,57,01,9B,
1001970,01600022,true,Rx,1,8,C1,00,AA,AA,00,00,00,00,
1003157,00F2C006,true,Rx,1,8,88,00,B0,0F,F0,1F,00,00,
1006152,02A03028,true,Rx,0,8,00,9F,81,51,1A,2C,00,00,
1007283,0280142A,true,Rx,0,8,C0,10,00,20,17,00,00,00,
1007925,0022C01E,true,Rx,1,8,C4,0B,40,89,C4,00,A4,60,
1008481,03200008,true,Rx,0,8,00,00,00,00,00,80,00,00,
1008495,0032C01E,true,Rx,1,8,C0,00,14,00,04,00,60,00,
1009549,00E00020,true,Rx,1,8,4B,C0,00,13,06,95,00,00,
1010108,0012C024,true,Rx,1,8,AC,A1,00,00,C5,FF,B8,00,
1010694,00524000,true,Rx,1,8,40,00,00,00,C0,00,C0,00,
1011252,00D28026,true,Rx,1,8,4E,8F,67,00,C0,00,00,00,
1011284,00613DF8,true,Rx,0,8,C1,00,0E,20,00,00,00,40,
1011813,00C24008,true,Rx,1,8,BB,00,50,00,01,57,01,9B,
1012381,0102C02C,true,Rx,1,8,8F,C0,30,0E,C0,10,2B,AE,
1012412,01213FFC,true,Rx,0,8,CE,02,5D,80,E0,80,B8,00,
1013543,00400066,true,Rx,0,8,C0,00,00,06,01,5E,40,7F,
1014706,0140044A,true,Rx,0,8,00,00,00,0B,00,00,00,00,
1015564,00608024,true,Rx,1,8,00,00,00,00,00,01,06,3E,
1015895,01800028,true,Rx,0,8,80,00,7E,00,00,00,00,00,
1016125,00B00002,true,Rx,1,8,40,00,A5,AD,F4,3B,C3,35,
1016694,01100014,true,Rx,1,8,40,00,00,04,00,11,20,00,
1017015,0261300A,true,Rx,0,8,40,00,00,27,80,40,00,C0,
1018191,0240102A,true,Rx,0,8,00,00,00,00,00,00,00,00,
1019926,0022C01E,true,Rx,1,8,04,0B,40,89,C4,00,A4,60,
1020504,0032C01E,true,Rx,1,8,00,00,14,00,04,00,60,00,
1021082,01200028,true,Rx,1,8,88,00,00,41,F0,00,33,27,
1021660,00C24008,true,Rx,1,8,30,00,60,00,02,AE,01,BE,
1023823,01E01266,true,Rx,0,8,00,00,03,00,00,00,40,00,
1024134,0012C024,true,Rx,1,8,A4,A1,00,00,C5,FF,B8,00,
1024721,00524000,true,Rx,1,8,40,00,00,00,C0,00,C0,00,
1024928,01C030A2,true,Rx,0,8,80,5B,40,01,89,01,14,00,
1025281,00D28026,true,Rx,1,8,8A,8F,67,00,C0,00,00,00,
1025850,00E00020,true,Rx,1,8,33,C0,00,13,06,95,00,00,
1026418,00F2C006,true,Rx,1,8,CC,00,B0,10,F0,1D,00,00,
1031177,00613DF8,true,Rx,0,8,03,00,0E,20,01,00,00,40,
1031412,00C24008,true,Rx,1,8,20,00,70,00,02,AE,01,BE,
1031971,0022C01E,true,Rx,1,8,40,0B,40,89,44,00,24,60,
1032539,0032C01E,true,Rx,1,8,42,00,84,00,04,00,60,00,
1032993,04200002,true,Rx,0,8,00,00,00,00,00,00,00,03,
1035338,0102C02C,true,Rx,1,8,CF,C8,30,0E,C0,11,2B,AE,
1035953,00B00002,true,Rx,1,8,80,00,A5,AD,F4,3B,C3,35,
1035975,01213FFC,true,Rx,0,8,0E,02,5D,80,F0,C0,B8,00,
1036534,01100014,true,Rx,1,8,80,00,00,00,00,11,20,00,
1037236,0280142A,true,Rx,0,8,00,50,00,20,17,00,00,00,
1038148,0012C024,true,Rx,1,8,AC,A1,00,00,C5,FF,B8,00,
1038737,00524000,true,Rx,1,8,40,00,00,00,C0,00,C0,00,
1039212,02001022,true,Rx,0,8,C0,00,00,01,35,90,10,40,
1039297,00D28026,true,Rx,1,8,CA,8F,67,00,C0,00,00,00,
1041041,02A03028,true,Rx,0,8,00,9F,C1,19,1A,2C,00,00,
1041420,00C24008,true,Rx,1,8,10,00,80,00,02,AE,01,BE,
1041979,00E00020,true,Rx,1,8,03,C0,00,13,06,97,00,00,
1042969,0261300A,true,Rx,0,8,80,00,00,27,80,40,00,C0,
1043942,0022C01E,true,Rx,1,8,84,0B,40,89,C4,00,A4,60,
1044519,0032C01E,true,Rx,1,8,80,00,14,00,04,00,60,00,
1045160,00F2C006,true,Rx,1,8,0C,00,B0,11,F0,1F,00,00,
1045750,01828002,true,Rx,1,8,00,80,00,7B,00,00,00,00,
1050657,01200028,true,Rx,1,8,C8,08,00,41,F0,00,33,27,
1051282,00613DF8,true,Rx,0,8,41,00,0E,20,00,00,00,40,
1051409,00C24008,true,Rx,1,8,00,00,90,00,02,AE,01,BE,
1052112,0012C024,true,Rx,1,8,A4,A1,00,00,C5,FF,B8,00,
1052473,01800028,true,Rx,0,8,C0,00,7A,00,00,00,00,00,
1052715,00524000,true,Rx,1,8,40,00,00,00,C0,00,C0,00,
1053274,00D28026,true,Rx,1,8,0A,8F,67,00,C0,00,00,00,
1053644,0240102A,true,Rx,0,8,41,00,00,00,00,00,00,00,
1054791,0140044A,true,Rx,0,8,40,00,00,1B,10,00,00,00,
1055885,02C13428,true,Rx,0,8,09,02,78,8A,89,CF,20,00,
1055950,0022C01E,true,Rx,1,8,C4,0B,40,89,C4,00,A4,60,
1056528,0032C01E,true,Rx,1,8,C0,00,14,00,04,00,60,00,
1057006,02E10DF4,true,Rx,0,8,0F,A9,2F,AC,99,3A,F8,18,
1057081,00B00002,true,Rx,1,8,C0,00,A5,AD,F4,3B,C3,35,
1057659,00E00020,true,Rx,1,8,03,C0,00,13,06,97,00,00,
1058144,0340024C,true,Rx,0,8,80,00,E0,00,0B,AC,08,00,
1058239,01100014,true,Rx,1,8,C0,00,00,00,00,11,20,00,
1058792,01500006,true,Rx,1,8,C5,0F,08,35,2C,89,00,00,
1059297,04000002,true,Rx,0,8,40,00,01,00,F4,00,00,52,
1059362,01700012,true,Rx,1,8,CB,C0,80,00,AA,AA,00,00,
1060941,0102C02C,true,Rx,1,8,0F,C0,30,0E,C0,10,2B,AE,
1061509,00C24008,true,Rx,1,8,48,00,A0,00,01,57,01,BE,
1061561,01213FFC,true,Rx,0,8,4E,02,5D,C0,E0,80,B8,00,
1062079,01600022,true,Rx,1,8,00,00,AA,AA,00,00,00,00,
1066151,0012C024,true,Rx,1,8,AC,A1,00,00,C5,FF,B8,00,
1066735,00524000,true,Rx,1,8,40,00,00,00,C0,00,C0,00,
1067189,0280142A,true,Rx,0,8,40,50,00,20,17,00,00,00,
1067295,00D28026,true,Rx,1,8,4E,8F,67,00,C0,00,00,00,
1067874,00F2C006,true,Rx,1,8,4C,00,B0,11,F0,1C,00,00,
1068424,0022C01E,true,Rx,1,8,04,0B,40,89,C4,00,A4,60,
1068837,01E01266,true,Rx,0,8,40,00,03,00,00,00,40,00,
1068994,0032C01E,true,Rx,1,8,02,00,94,00,04,00,60,00,
1069954,01C030A2,true,Rx,0,8,C0,5B,40,01,89,01,14,00,
1070928,0132C07C,true,Rx,1,8,16,01,43,04,01,02,01,01,
1071506,00C24008,true,Rx,1,8,BE,00,B0,00,02,AE,01,E0,
1071547,00613DF8,true,Rx,0,8,83,00,0E,20,01,00,00,40,
1072682,01613FFC,true,Rx,0,8,16,01,43,04,01,02,01,01,
1073551,00E00020,true,Rx,1,8,03,C0,00,13,06,97,00,00,
1073800,0261300A,true,Rx,0,8,C0,00,00,27,80,40,00,C0,
1075964,02A03028,true,Rx,0,8,00,9F,81,51,1A,2C,00,00,
1075978,00B00002,true,Rx,1,8,00,00,A5,AD,F4,3B,C3,35,
1076544,01100014,true,Rx,1,8,00,00,00,04,00,11,20,00,
1079975,0022C01E,true,Rx,1,8,40,0B,40,89,44,00,24,60,
1080538,0012C024,true,Rx,1,8,A4,A1,00,00,C5,FF,B8,00,
1081107,0032C01E,true,Rx,1,8,40,00,04,00,04,00,60,00,
1081695,00524000,true,Rx,1,8,40,00,00,00,C0,00,C0,00,
1082275,00C24008,true,Rx,1,8,AE,00,C0,00,02,AE,01,E0,
1082835,00D28026,true,Rx,1,8,8A,8F,67,00,C0,00,00,00,
1083403,01200028,true,Rx,1,8,08,08,00,41,F0,00,33,27,
1084207,02001022,true,Rx,0,8,00,00,00,01,35,90,10,40,
1085632,0102C02C,true,Rx,1,8,4F,C8,30,0E,C0,30,2B,AE,
1086241,01213FFC,true,Rx,0,8,8E,02,5D,80,F0,80,B8,00,
1087200,00F2C006,true,Rx,1,8,88,00,B0,12,F0,1D,00,00,
1087395,0240102A,true,Rx,0,8,81,00,00,00,00,00,00,00,
1088673,00400066,true,Rx,0,8,00,00,00,07,01,5E,40,7F,
1089542,00E00020,true,Rx,1,8,03,C0,00,13,06,95,00,00,
1090520,00608024,true,Rx,1,8,40,00,00,00,00,01,07,3E,
1091160,00613DF8,true,Rx,0,8,C1,00,0E,00,00,00,00,40,
1091390,00C24008,true,Rx,1,8,9E,00,D0,00,02,AE,01,E0,
1091958,0022C01E,true,Rx,1,8,84,0B,40,89,C4,00,A4,60,
1092350,01800028,true,Rx,0,8,00,00,7A,00,00,00,00,00,
1092543,0032C01E,true,Rx,1,8,82,00,94,00,04,00,60,00,
1093491,03C0002A,true,Rx,0,8,00,00,33,C0,27,00,1F,00,
1094174,0012C024,true,Rx,1,8,AC,A1,00,00,C5,FF,B8,00,
1094649,0140044A,true,Rx,0,8,80,00,00,0B,00,00,00,00,
1094766,00524000,true,Rx,1,8,40,00,00,00,C0,00,C0,00,
1095324,00D28026,true,Rx,1,8,CA,8F,67,00,C0,00,00,00,
1095954,00B00002,true,Rx,1,8,40,00,A5,AD,F4,3B,C3,35,
1096535,01100014,true,Rx,1,8,40,00,00,00,00,11,20,00,
1097185,0280142A,true,Rx,0,8,80,10,00,28,17,00,00,00,
1101396,00C24008,true,Rx,1,8,12,00,E0,00,04,05,02,02,
1103546,0261300A,true,Rx,0,8,00,00,00,27,80,40,00,C0,
1103959,0022C01E,true,Rx,1,8,C4,0B,40,89,C4,00,A4,60,
1104526,0032C01E,true,Rx,1,8,C0,00,14,00,04,00,60,00,
1105578,00E00020,true,Rx,1,8,4B,C0,00,13,06,99,00,00,
1105806,02C13428,true,Rx,0,8,41,02,78,8A,89,CF,20,00,
1106891,02E10DF4,true,Rx,0,8,4F,A9,0F,2C,99,3A,F8,18,
1108189,0012C024,true,Rx,1,8,A4,A1,00,00,C5,FF,B8,00,
1108780,00524000,true,Rx,1,8,40,00,00,00,C0,00,C0,00,
1109348,00D28026,true,Rx,1,8,0A,8F,67,00,C0,00,00,00,
1109917,00F2C006,true,Rx,1,8,CC,00,B0,13,F0,1C,00,00,
1110473,0102C02C,true,Rx,1,8,8F,C0,30,0E,C0,10,2B,AE,
1111043,01200028,true,Rx,1,8,48,08,00,C5,F0,00,33,27,
1111105,00613DF8,true,Rx,0,8,03,00,06,20,00,00,00,40,
1111612,00C24008,true,Rx,1,8,02,00,F0,00,04,05,02,02,
1112227,01213FFC,true,Rx,0,8,CE,02,5D,80,F0,80,B8,00,
1113351,02A03028,true,Rx,0,8,00,9F,81,11,1A,2C,00,00,
1114526,01E01266,true,Rx,0,8,80,00,07,00,00,00,40,00,
1115640,01C030A2,true,Rx,0,8,00,5B,40,01,89,01,14,00,
1115983,0022C01E,true,Rx,1,8,04,0B,40,89,C4,00,A4,60,
1116560,0032C01E,true,Rx,1,8,00,00,14,00,04,00,60,00,
1116830,03200008,true,Rx,0,8,00,00,00,00,00,80,00,00,
1117121,00B00002,true,Rx,1,8,80,00,A5,AD,F4,3B,C3,35,
1117712,01100014,true,Rx,1,8,80,00,00,00,00,11,20,00,
1118259,01500006,true,Rx,1,8,05,0F,0A,75,2C,89,00,00,
1118828,01700012,true,Rx,1,8,0B,C0,80,00,AA,AA,00,00,
1121396,00C24008,true,Rx,1,8,CF,00,00,00,04,05,02,25,
1121968,0240102A,true,Rx,0,8,C0,00,00,00,00,00,00,00,
1121982,00E00020,true,Rx,1,8,33,C0,00,13,06,99,00,00,
1122529,0012C024,true,Rx,1,8,AC,A1,00,00,C5,FF,B8,00,
1123120,00524000,true,Rx,1,8,40,00,00,00,C0,00,C0,00,
1123677,00D28026,true,Rx,1,8,4E,8F,67,00,C0,00,00,00,
1124250,01600022,true,Rx,1,8,41,00,AA,AA,00,00,00,00,
1124829,01828002,true,Rx,1,8,00,80,00,7F,00,00,00,00,
1127176,0280142A,true,Rx,0,8,C0,50,00,20,17,00,00,00,
1127979,0022C01E,true,Rx,1,8,40,0B,40,89,44,00,24,60,
1128547,0032C01E,true,Rx,1,8,42,00,84,00,04,00,60,00,
1129136,02001022,true,Rx,0,8,40,00,00,01,35,90,10,40,
1129200,00F2C006,true,Rx,1,8,0C,00,B0,14,F0,1E,00,00,
1131369,00613DF8,true,Rx,0,8,41,00,0E,20,01,00,00,40,
1131393,00C24008,true,Rx,1,8,BF,00,10,00,04,05,02,25,
1132555,01800028,true,Rx,0,8,40,00,7E,00,00,00,00,00,
1133680,0261300A,true,Rx,0,8,40,00,00,27,80,40,00,C0,
1134825,0140044A,true,Rx,0,8,C0,00,00,1B,00,00,00,00,
1135312,0102C02C,true,Rx,1,8,CF,C8,30,0E,C0,10,2B,AE,
1135970,01213FFC,true,Rx,0,8,0E,02,5D,C0,E0,C0,B8,00,
1135984,00B00002,true,Rx,1,8,C0,00,A5,AD,F4,3B,C3,35,
1136541,0012C024,true,Rx,1,8,A4,A1,00,00,C5,FF,B8,00,
1137120,00524000,true,Rx,1,8,40,00,00,00,C0,00,C0,00,
1137688,00D28026,true,Rx,1,8,8A,8F,67,00,C0,00,00,00,
1138262,00E00020,true,Rx,1,8,03,C0,00,13,06,97,00,00,
1138840,01100014,true,Rx,1,8,C0,00,00,00,00,11,20,00,
1139984,0022C01E,true,Rx,1,8,84,0B,40,89,C4,00,A4,60,
1140562,0032C01E,true,Rx,1,8,80,00,14,00,04,00,60,00,
1141140,01200028,true,Rx,1,8,88,08,00,41,F0,00,33,27,
1141708,00C24008,true,Rx,1,8,AF,00,20,00,04,05,02,25,
1146055,02A03028,true,Rx,0,8,00,9F,C1,59,1A,2C,00,00,
1150145,0012C024,true,Rx,1,8,AC,A1,00,00,C5,FF,B8,00,
1150731,00524000,true,Rx,1,8,40,00,00,00,C0,00,C0,00,
1150875,00613DF8,true,Rx,0,8,83,00,0E,20,00,00,00,40,
1151291,00D28026,true,Rx,1,8,CA,8F,67,00,C0,00,00,00,
1151859,00C24008,true,Rx,1,8,26,00,30,00,05,5B,02,47,
1152408,0022C01E,true,Rx,1,8,C4,0B,40,89,C4,00,A4,60,
1152978,0032C01E,true,Rx,1,8,C0,00,14,00,04,00,60,00,
1153555,00E00020,true,Rx,1,8,03,C0,00,13,06,97,00,00,
1154114,00F2C006,true,Rx,1,8,4C,00,B0,16,F0,1D,00,00,
1155994,00B00002,true,Rx,1,8,00,00,A5,AD,F4,3B,C3,35,
1156577,01100014,true,Rx,1,8,00,00,00,04,00,11,20,00,
1156991,0240102A,true,Rx,0,8,01,00,00,00,00,00,00,00,
1158136,0280142A,true,Rx,0,8,00,50,00,20,17,00,00,00,
1159304,01E01266,true,Rx,0,8,C0,00,03,00,00,00,40,00,
1160403,01C030A2,true,Rx,0,8,40,5B,40,01,89,01,14,00,
1161387,00C24008,true,Rx,1,8,16,00,40,00,05,5B,02,47,
1161955,0102C02C,true,Rx,1,8,0F,C8,30,0E,C0,10,2B,AE,
1162080,01213FFC,true,Rx,0,8,4E,02,5D,80,F0,80,B8,00,
1163175,02C13428,true,Rx,0,8,81,02,78,8A,89,CF,20,00,
1163983,0022C01E,true,Rx,1,8,04,0B,40,89,C4,00,A4,60,
1164320,00400066,true,Rx,0,8,40,00,00,00,01,5E,40,7F,
1164550,0012C024,true,Rx,1,8,A4,A1,00,00,C5,FF,B8,00,
1165120,0032C01E,true,Rx,1,8,02,00,94,00,04,00,60,00,
1165449,0261300A,true,Rx,0,8,80,00,00,27,80,40,00,C0,
1165709,00524000,true,Rx,1,8,40,00,00,00,C0,00,C0,00,
1166278,00D28026,true,Rx,1,8,0A,8F,67,00,C0,00,00,00,
1166552,02E10DF4,true,Rx,0,8,8F,A9,2F,AC,99,3A,F8,18,
1169581,00E00020,true,Rx,1,8,03,C0,00,13,06,95,00,00,
1170795,00608024,true,Rx,1,8,80,00,00,00,00,01,00,3E,
1171363,00F2C006,true,Rx,1,8,88,00,B0,18,F0,1D,00,00,
1171456,00613DF8,true,Rx,0,8,C1,00,0E,20,00,00,00,40,
1171923,00C24008,true,Rx,1,8,E4,00,50,00,05,5B,02,69,
1172504,01200028,true,Rx,1,8,C8,40,00,41,F0,00,33,27,
1172627,01800028,true,Rx,0,8,80,00,7A,00,00,00,00,00,
1173095,01A00002,true,Rx,1,8,00,00,00,00,00,00,00,06,
1174064,0140044A,true,Rx,0,8,00,00,00,0B,10,00,00,00,
1175202,02001022,true,Rx,0,8,80,00,00,01,35,90,10,40,
1175999,0022C01E,true,Rx,1,8,40,0B,40,89,44,00,24,60,
1176574,0032C01E,true,Rx,1,8,40,00,04,00,04,00,60,00,
1177123,00B00002,true,Rx,1,8,40,00,A5,AD,F4,3B,C3,35,
1177711,01100014,true,Rx,1,8,40,00,00,00,00,11,20,00,
1178270,0012C024,true,Rx,1,8,AC,A1,00,00,C5,FF,B8,00,
1178862,00524000,true,Rx,1,8,40,00,00,00,C0,00,C0,00,
1179419,00D28026,true,Rx,1,8,4E,8F,67,00,C0,00,00,00,
1179978,01500006,true,Rx,1,8,45,0F,08,35,2C,89,00,00,
1180547,01700012,true,Rx,1,8,4B,C0,80,00,AA,AA,00,00,
1181175,02A03028,true,Rx,0,8,00,9F,11,11,1A,2C,80,00,
1181385,00C24008,true,Rx,1,8,D4,00,60,00,05,5B,02,69,
1181963,01600022,true,Rx,1,8,80,00,AA,AA,00,00,00,00,
1185600,00E00020,true,Rx,1,8,03,C0,00,13,06,99,00,00,
1186155,0102C02C,true,Rx,1,8,4F,C0,30,0E,C0,10,2B,AE,
1186289,01213FFC,true,Rx,0,8,8E,02,5D,80,F0,80,B8,00,
1187425,0280142A,true,Rx,0,8,40,10,00,20,17,00,00,00,
1188006,0022C01E,true,Rx,1,8,84,0B,40,89,C4,00,A4,60,
1188584,0032C01E,true,Rx,1,8,82,00,94,00,04,00,60,00,
1191199,00613DF8,true,Rx,0,8,03,00,0E,20,01,00,00,40,
1191388,00C24008,true,Rx,1,8,4A,00,70,00,06,B2,02,8B,
1192223,0012C024,true,Rx,1,8,A4,A1,00,00,C5,FF,B8,00,
1192357,0240102A,true,Rx,0,8,43,00,00,00,00,00,00,00,
1192814,00524000,true,Rx,1,8,40,00,00,00,C0,00,C0,00,
1193371,00D28026,true,Rx,1,8,8A,8F,67,00,C0,00,00,00,
1193703,0261300A,true,Rx,0,8,C0,00,00,27,80,40,00,C0,
1193934,00F2C006,true,Rx,1,8,CC,00,B0,1A,F0,1C,00,00,
1196005,00B00002,true,Rx,1,8,80,00,A5,AD,F4,3B,C3,35,
1196592,01100014,true,Rx,1,8,80,00,00,00,00,11,20,00,
1199221,01828002,true,Rx,1,8,00,80,00,7F,00,00,00,00,
1199991,0022C01E,true,Rx,1,8,C4,0B,40,89,C4,00,A4,60,
1200559,0032C01E,true,Rx,1,8,C0,00,14,00,04,00,60,00,
1201138,01200028,true,Rx,1,8,08,08,00,41,F0,00,33,27,
1201705,00C24008,true,Rx,1,8,17,00,80,00,06,B2,02,AE,
1202277,00E00020,true,Rx,1,8,4B,C0,00,13,06,97,00,00,
1203819,01E01266,true,Rx,0,8,00,00,03,00,00,00,40,00,
1204923,01C030A2,true,Rx,0,8,80,5B,40,01,89,01,14,00,
1206223,0012C024,true,Rx,1,8,AC,A1,00,00,C5,FF,B8,00,
1206812,00524000,true,Rx,1,8,40,00,00,00,C0,00,C0,00,
1207370,00D28026,true,Rx,1,8,CA,8F,67,00,C0,00,00,00,
1210560,0102C02C,true,Rx,1,8,8F,C8,30,0E,C0,10,2B,AE,
1211196,00613DF8,true,Rx,0,8,41,00,0E,20,00,00,00,40,
1211384,00C24008,true,Rx,1,8,07,00,90,00,06,B2,02,AE,
1212004,0022C01E,true,Rx,1,8,04,0B,40,89,C4,00,A4,60,
1212313,01213FFC,true,Rx,0,8,CE,02,5D,80,E0,80,B8,00,
1212606,0032C01E,true,Rx,1,8,00,00,14,00,04,00,60,00,
1213227,00F2C006,true,Rx,1,8,0C,00,B0,1C,F0,1B,00,00,
1213516,01800028,true,Rx,0,8,C0,00,7E,00,00,00,00,00,
1214661,0140044A,true,Rx,0,8,40,00,00,0B,00,00,00,00,
1215829,0360000A,true,Rx,0,8,00,00,00,00,00,16,00,00,
1215996,00B00002,true,Rx,1,8,C0,00,A5,AD,F4,3B,C3,35,
1216575,01100014,true,Rx,1,8,C0,00,00,04,00,11,20,00,
1216949,02A03028,true,Rx,0,8,00,1F,81,51,1A,2C,00,00,
1217549,00E00020,true,Rx,1,8,33,C0,00,13,06,95,00,00,
1218085,0280142A,true,Rx,0,8,80,50,00,20,17,00,00,00,
1219221,02001022,true,Rx,0,8,C0,00,00,01,35,90,10,40,
1220182,0012C024,true,Rx,1,8,A4,A1,00,00,C1,FF,B8,00,
1220316,02C13428,true,Rx,0,8,C1,02,78,8A,89,CF,20,00,
1220775,00524000,true,Rx,1,8,40,00,00,00,C0,00,C0,00,
1221343,00D28026,true,Rx,1,8,0A,8F,67,00,C0,00,00,00,
1221415,02E10DF4,true,Rx,0,8,CF,A9,0F,2C,99,3A,F8,18,
1221913,00C24008,true,Rx,1,8,D5,00,A0,00,06,B2,02,D0,
1222603,03200008,true,Rx,0,8,00,00,00,00,00,80,00,00,
1224013,0022C01E,true,Rx,1,8,40,0B,40,89,44,00,24,60,
1224044,0261300A,true,Rx,0,8,00,00,00,27,80,40,00,C0,
1224583,0032C01E,true,Rx,1,8,42,00,84,00,04,00,60,00,
1226955,0240102A,true,Rx,0,8,80,00,00,00,00,00,00,00,
1230404,01200028,true,Rx,1,8,48,08,00,41,F0,00,33,27,
1231028,00613DF8,true,Rx,0,8,83,00,0E,20,00,00,00,40,
1231382,00C24008,true,Rx,1,8,C5,00,B0,00,06,B2,02,D0,
1232155,0340024C,true,Rx,0,8,C1,00,F0,01,0B,AC,00,00,
1233581,00E00020,true,Rx,1,8,03,C0,00,13,06,99,00,00,
1234201,0012C024,true,Rx,1,8,AC,A1,00,00,C1,FF,B8,00,
1234789,00524000,true,Rx,1,8,40,00,00,00,C0,00,C0,00,
1235357,00D28026,true,Rx,1,8,4E,8F,67,00,C0,00,00,00,
1235822,01213FFC,true,Rx,0,8,0E,02,5D,C0,F0,C0,B8,00,
1235918,00F2C006,true,Rx,1,8,4C,00,B0,1F,F0,1C,00,00,
1236487,0022C01E,true,Rx,1,8,84,0B,40,89,C4,00,A4,60,
1237046,0032C01E,true,Rx,1,8,80,00,14,00,04,00,60,00,
1237603,00B00002,true,Rx,1,8,00,00,A5,AD,F4,3B,C3,35,
1238162,0102C02C,true,Rx,1,8,CF,C0,30,0E,C0,11,2B,AE,
1238753,01100014,true,Rx,1,8,00,00,00,00,00,11,20,00,
1239258,00400066,true,Rx,0,8,80,00,00,01,01,5E,40,7F,
1239302,01500006,true,Rx,1,8,85,2F,08,B5,2C,89,00,00,
1239872,01700012,true,Rx,1,8,8B,C0,80,00,AA,AA,00,00,
1241379,00C24008,true,Rx,1,8,3A,00,C0,00,08,09,02,F2,
1241949,01600022,true,Rx,1,8,C1,00,AA,AA,00,00,00,00,
1245590,00608024,true,Rx,1,8,C0,00,00,00,00,01,01,3E,
1247163,0280142A,true,Rx,0,8,C0,50,00,20,17,00,00,00,
1248007,0022C01E,true,Rx,1,8,C4,0B,40,89,C4,00,A4,60,
1248575,0012C024,true,Rx,1,8,A4,A1,00,00,C1,FF,B8,00,
1248855,01E01266,true,Rx,0,8,40,00,03,00,00,00,40,00,
1249146,0032C01E,true,Rx,1,8,C0,00,14,00,04,00,60,00,
1249738,00524000,true,Rx,1,8,40,00,00,00,C0,00,C0,00,
1249975,01C030A2,true,Rx,0,8,C0,5B,40,01,89,01,14,00,
1250296,00D28026,true,Rx,1,8,8A,8F,67,00,C0,00,00,00,
1250865,00E00020,true,Rx,1,8,03,C0,00,13,06,99,00,00,
1251155,00613DF8,true,Rx,0,8,C1,00,0E,20,01,00,00,40,
1251445,00C24008,true,Rx,1,8,06,00,D0,00,08,09,03,15,
1252359,01800028,true,Rx,0,8,00,00,7A,00,00,00,00,00,
1253484,02A03028,true,Rx,0,8,00,9F,C1,59,1A,2C,00,00,
1254637,0140044A,true,Rx,0,8,80,00,00,1B,10,00,00,00,
1255249,00F2C006,true,Rx,1,8,88,00,B0,22,F0,1D,00,00,
1255754,0261300A,true,Rx,0,8,40,00,00,27,80,40,00,C0,
1256014,00B00002,true,Rx,1,8,40,00,A5,AD,F4,3B,C3,35,
1256592,01100014,true,Rx,1,8,40,00,00,00,00,11,20,00,
1256902,03801028,true,Rx,0,8,0E,00,20,89,9C,40,00,00,
1260010,0022C01E,true,Rx,1,8,04,0B,40,89,C4,00,A4,60,
1260585,0032C01E,true,Rx,1,8,02,00,94,00,04,00,60,00,
1261028,01213FFC,true,Rx,0,8,4E,02,5D,80,F0,80,B8,00,
1261145,0102C02C,true,Rx,1,8,0F,C8,30,0E,C0,10,2B,AE,
1261722,00C24008,true,Rx,1,8,7C,00,E0,00,09,60,03,37,
1262190,0240102A,true,Rx,0,8,C1,00,00,00,00,00,00,00,
1262285,0012C024,true,Rx,1,8,AC,A1,00,00,C1,FF,B8,00,
1262875,00524000,true,Rx,1,8,40,00,00,00,C0,00,C0,00,
1263433,00D28026,true,Rx,1,8,CA,8F,67,00,C0,00,00,00,
1264011,01200028,true,Rx,1,8,88,08,00,41,F0,00,33,27,
1264305,02001022,true,Rx,0,8,00,00,00,01,35,90,10,40,
1265554,00E00020,true,Rx,1,8,03,C0,00,13,06,97,00,00,
1270906,00613DF8,true,Rx,0,8,03,00,0E,20,00,00,00,40,
1271390,00C24008,true,Rx,1,8,C4,00,F0,00,08,09,03,37,
1271988,02C13428,true,Rx,0,8,09,02,78,8A,89,CF,20,00,
1272032,0022C01E,true,Rx,1,8,40,0B,40,89,44,00,24,60,
1272609,0032C01E,true,Rx,1,8,40,00,04,00,04,00,60,00,
1273108,02E10DF4,true,Rx,0,8,0F,A9,2F,AC,99,3A,F8,18,
1276023,00B00002,true,Rx,1,8,80,00,A5,AD,F4,3B,C3,35,
1276591,0012C024,true,Rx,1,8,A4,A1,00,00,C1,FF,B8,00,
1277176,0280142A,true,Rx,0,8,00,10,00,20,17,00,00,00,
1277190,00524000,true,Rx,1,8,40,00,00,00,C0,00,C0,00,
1277749,00D28026,true,Rx,1,8,0A,8F,67,00,C0,00,00,00,
1278317,00F2C006,true,Rx,1,8,CC,00,B0,25,F0,1D,00,00,
1278896,01100014,true,Rx,1,8,80,00,00,04,00,11,20,00,
1279488,01828002,true,Rx,1,8,00,80,00,7B,00,00,00,00,
1281383,00C24008,true,Rx,1,8,3A,00,00,00,09,60,03,59,
1281952,00E00020,true,Rx,1,8,03,C0,00,13,06,97,00,00,
1284021,0022C01E,true,Rx,1,8,84,0B,40,89,C4,00,A4,60,
1284516,0261300A,true,Rx,0,8,80,00,00,27,80,40,00,C0,
1284601,0032C01E,true,Rx,1,8,82,00,94,00,04,00,60,00,
1285326,0102C02C,true,Rx,1,8,4F,C0,30,0E,C0,10,2B,AE,
1285955,01213FFC,true,Rx,0,8,8E,02,5D,80,E0,80,B8,00,
1287077,02A03028,true,Rx,0,8,00,9F,81,11,1A,2C,00,00,
1290270,0012C024,true,Rx,1,8,AC,A1,00,00,C1,FF,B8,00,
1290860,00524000,true,Rx,1,8,40,00,00,00,C0,00,C0,00,
1291106,00613DF8,true,Rx,0,8,41,00,0E,20,00,00,00,40,
1291438,00C24008,true,Rx,1,8,08,00,10,00,09,60,03,7B,
1291997,00D28026,true,Rx,1,8,4E,8F,67,00,C0,00,00,00,
1292285,01800028,true,Rx,0,8,40,00,7A,00,00,00,00,00,
1292565,01200028,true,Rx,1,8,C8,00,00,41,F0,00,33,27,
1294013,0140044A,true,Rx,0,8,C0,00,00,0B,00,00,00,00,
1295135,01C030A2,true,Rx,0,8,00,5B,40,01,89,01,14,00,
1296055,0022C01E,true,Rx,1,8,C4,0B,40,89,C4,00,A4,60,
1296292,01E01266,true,Rx,0,8,80,00,03,00,00,00,40,00,
1296625,0032C01E,true,Rx,1,8,C0,00,14,00,04,00,60,00,
1297185,00B00002,true,Rx,1,8,C0,00,A5,AD,F4,3B,C3,35,
1297474,0240102A,true,Rx,0,8,01,00,00,00,00,00,00,00,
1297756,00E00020,true,Rx,1,8,03,C0,00,13,06,99,00,00,
1298334,00F2C006,true,Rx,1,8,0C,00,B0,28,F0,1D,00,00,
1298602,03A00002,true,Rx,0,8,00,00,00,04,07,04,98,63,
1298916,01100014,true,Rx,1,8,C0,00,00,00,00,11,20,00,
1299469,01500006,true,Rx,1,8,C5,0F,08,35,2C,89,00,00,
1300038,01700012,true,Rx,1,8,CB,C0,80,00,AA,AA,00,00,
1301377,00C24008,true,Rx,1,8,D5,00,20,00,09,60,03,9E,
1301946,01600022,true,Rx,1,8,01,00,AA,AA,00,00,00,00,
1304264,0012C024,true,Rx,1,8,A4,A1,00,00,C1,FF,B8,00,
1304852,00524000,true,Rx,1,8,40,00,00,00,C0,00,C0,00,
1305418,00D28026,true,Rx,1,8,8A,8F,67,00,C0,00,00,00,
1307150,0280142A,true,Rx,0,8,40,50,00,28,17,00,00,00,
1308038,0022C01E,true,Rx,1,8,04,0B,40,89,C4,00,A4,60,
1308615,0032C01E,true,Rx,1,8,00,00,14,00,04,00,60,00,
1309152,02001022,true,Rx,0,8,40,00,00,01,35,90,10,40,
1310856,0102C02C,true,Rx,1,8,8F,C8,30,0E,C0,10,2B,AE,
1311430,00C24008,true,Rx,1,8,C5,00,30,00,09,60,03,9E,
1311482,00613DF8,true,Rx,0,8,83,00,0E,20,01,00,00,40,
1312607,01213FFC,true,Rx,0,8,CE,02,5D,C0,F0,80,B8,00,
1313651,00E00020,true,Rx,1,8,7B,C0,00,13,06,97,00,00,
1314712,00400066,true,Rx,0,8,C0,00,00,02,01,5E,40,7F,
1315826,0261300A,true,Rx,0,8,C0,00,00,27,80,40,00,C0,
1316045,00B00002,true,Rx,1,8,00,00,A5,AD,F4,3B,C3,35,
1316644,01100014,true,Rx,1,8,00,00,00,00,00,11,20,00,
1318264,0012C024,true,Rx,1,8,AC,A1,00,00,C1,FF,B8,00,
1318853,00524000,true,Rx,1,8,40,00,00,00,C0,00,C0,00,
1319408,00D28026,true,Rx,1,8,CA,8F,67,00,C0,00,00,00,
1319977,00F2C006,true,Rx,1,8,4C,00,B0,2C,F0,1E,00,00,
1320535,0022C01E,true,Rx,1,8,40,0B,40,89,44,00,24,60,
1321041,02A03028,true,Rx,0,8,00,9F,C1,59,1A,2C,00,00,
1321106,0032C01E,true,Rx,1,8,42,00,84,00,04,00,60,00,
1321687,00608024,true,Rx,1,8,00,00,00,00,00,01,02,3E,
1322224,03200008,true,Rx,0,8,00,00,00,00,00,80,00,00,
1322258,00C24008,true,Rx,1,8,93,00,40,00,09,60,03,C0,
1322837,01200028,true,Rx,1,8,08,08,00,41,F0,00,33,27,
1326225,02C13428,true,Rx,0,8,41,02,78,8A,89,CF,20,00,
1327325,02E10DF4,true,Rx,0,8,4F,A9,2F,AC,99,3A,F8,18,
1329560,00E00020,true,Rx,1,8,03,C0,00,13,06,97,00,00,
1330897,00613DF8,true,Rx,0,8,C1,00,0E,00,00,00,00,40,
1331374,00C24008,true,Rx,1,8,09,00,50,00,0A,B7,03,E2,
1332035,0022C01E,true,Rx,1,8,84,0B,40,89,C4,00,A4,60,
1332077,01800028,true,Rx,0,8,80,00,7A,00,00,00,00,00,
1332607,0012C024,true,Rx,1,8,A4,A1,00,00,C1,FF,B8,00,
1333186,0032C01E,true,Rx,1,8,80,00,14,00,04,00,60,00,
1333247,0240102A,true,Rx,0,8,41,00,00,00,00,00,00,00,
1333767,00524000,true,Rx,1,8,40,00,00,00,C0,00,C0,00,
1334337,00D28026,true,Rx,1,8,0A,8F,67,00,C0,00,00,00,
1334410,0140044A,true,Rx,0,8,00,00,00,1B,00,00,00,00,
1335422,0102C02C,true,Rx,1,8,CF,C0,30,0E,C0,10,2B,AE,
1336071,01213FFC,true,Rx,0,8,0E,02,5D,80,E0,C0,B8,00,
1336086,00B00002,true,Rx,1,8,40,00,A5,AD,F4,3B,C3,35,
1336638,01100014,true,Rx,1,8,40,00,00,04,00,11,20,00,
1337196,0280142A,true,Rx,0,8,80,50,00,20,17,00,00,00,
1338969,01E01266,true,Rx,0,8,C0,00,03,00,00,00,40,00,
1339301,00F2C006,true,Rx,1,8,88,00,B0,30,F0,1E,00,00,
1340074,01C030A2,true,Rx,0,8,40,5B,40,01,89,01,14,00,
1341365,00C24008,true,Rx,1,8,D5,00,60,00,0A,B7,04,05,
1344032,0022C01E,true,Rx,1,8,C4,0B,40,89,C4,00,A4,60,
1344615,0032C01E,true,Rx,1,8,C0,00,14,00,04,00,60,00,
1344637,0261300A,true,Rx,0,8,00,00,00,27,80,40,00,C0,
1345280,0132C07C,true,Rx,1,8,01,0F,B0,60,DC,58,01,05,
1345849,00E00020,true,Rx,1,8,03,C0,00,13,06,9A,00,00,
1345900,01613FFC,true,Rx,0,8,01,0F,B0,60,DC,58,00,09,
1346423,0012C024,true,Rx,1,8,AC,A1,00,00,C1,FF,B8,00,
1347012,00524000,true,Rx,1,8,40,00,00,00,C0,00,C0,00,
1347569,00D28026,true,Rx,1,8,4E,8F,67,00,C0,00,00,00,
1350694,01200028,true,Rx,1,8,48,08,00,41,F0,00,33,27,
1351320,00613DF8,true,Rx,0,8,03,00,0E,20,01,00,00,40,
1351374,00C24008,true,Rx,1,8,1D,00,70,00,09,60,04,05,
1353302,01828002,true,Rx,1,8,00,80,00,7F,00,00,00,00,
1354260,02001022,true,Rx,0,8,80,00,00,01,35,90,10,40,
1356001,02A03028,true,Rx,0,8,00,9F,81,11,1A,2C,00,00,
1356046,0022C01E,true,Rx,1,8,04,0B,40,89,C4,00,A4,60,
1356624,0032C01E,true,Rx,1,8,02,00,94,00,04,00,60,00,
1357173,00B00002,true,Rx,1,8,80,00,A5,AD,F4,3B,C3,35,
1357761,01100014,true,Rx,1,8,80,00,00,00,00,11,20,00,
1358329,01500006,true,Rx,1,8,05,0F,08,35,2C,89,00,00,
1358898,01700012,true,Rx,1,8,0B,C0,80,00,AA,AA,00,00,
1360270,0012C024,true,Rx,1,8,A4,A1,00,00,C1,FF,B8,00,
1360857,00524000,true,Rx,1,8,40,00,00,00,C0,00,C0,00,
1361425,00C24008,true,Rx,1,8,EB,00,80,00,09,60,04,27,
1361456,01213FFC,true,Rx,0,8,4E,02,5D,80,F0,80,B8,00,
1361986,00D28026,true,Rx,1,8,8A,8F,67,00,C0,00,00,00,
1362564,00E00020,true,Rx,1,8,03,C0,00,13,06,95,00,00,
1363126,00F2C006,true,Rx,1,8,CC,00,B0,34,F0,1D,00,00,
1363694,0102C02C,true,Rx,1,8,0F,C8,30,0E,C0,10,2B,AE,
1364253,01600022,true,Rx,1,8,40,00,AA,AA,00,00,00,00,
1366964,0240102A,true,Rx,0,8,80,00,00,00,00,00,00,00,
1368067,0022C01E,true,Rx,1,8,40,0B,40,89,44,00,24,60,
1368098,0280142A,true,Rx,0,8,C0,10,00,20,17,00,00,00,
1368637,0032C01E,true,Rx,1,8,40,00,04,00,04,00,60,00,
1371080,00613DF8,true,Rx,0,8,41,00,0E,20,00,00,00,40,
1371366,00C24008,true,Rx,1,8,61,00,90,00,0A,B7,04,49,
1372273,01800028,true,Rx,0,8,C0,00,7E,00,00,00,00,00,
1374047,0140044A,true,Rx,0,8,40,00,00,0B,10,00,00,00,
1374286,0012C024,true,Rx,1,8,AC,A1,00,00,C1,FF,B8,00,
1374866,00524000,true,Rx,1,8,40,00,00,00,C0,00,C0,00,
1375164,0261300A,true,Rx,0,8,40,00,00,27,80,40,00,C0,
1375434,00D28026,true,Rx,1,8,CA,8F,67,00,C0,00,00,00,
1376055,00B00002,true,Rx,1,8,C0,00,A5,AD,F4,3B,C3,35,
1376643,01100014,true,Rx,1,8,C0,00,00,00,00,11,20,00,
1377605,00E00020,true,Rx,1,8,03,C0,00,13,06,99,00,00,
1380076,0022C01E,true,Rx,1,8,84,0B,40,89,C4,00,A4,60,
1380654,0032C01E,true,Rx,1,8,82,00,94,00,04,00,60,00,
1381150,02C13428,true,Rx,0,8,81,02,78,8A,89,CF,20,00,
1381215,01200028,true,Rx,1,8,88,08,00,43,F0,00,33,27,
1381784,00C24008,true,Rx,1,8,A9,00,A0,00,09,60,04,49,
1382247,02E10DF4,true,Rx,0,8,8F,A9,0F,2C,99,3A,F8,18,
1382363,00F2C006,true,Rx,1,8,0C,00,B0,38,F0,1F,00,00,
1383902,01E01266,true,Rx,0,8,00,00,03,00,00,00,40,00,
1385006,01C030A2,true,Rx,0,8,80,5B,40,01,89,01,14,00,
1385595,0102C02C,true,Rx,1,8,4F,C8,30,0E,C0,10,2B,AE,
1386213,01213FFC,true,Rx,0,8,8E,02,5D,C0,F0,80,B8,00,
1388337,0012C024,true,Rx,1,8,A4,A1,00,00,C1,FF,B8,00,
1388926,00524000,true,Rx,1,8,40,00,00,00,C0,00,C0,00,
1389492,00D28026,true,Rx,1,8,0A,8F,67,00,C0,00,00,00,
1389925,00400066,true,Rx,0,8,00,00,00,03,01,5E,40,7F,
1391072,00613DF8,true,Rx,0,8,83,00,0E,20,00,00,00,40,
1391363,00C24008,true,Rx,1,8,77,00,B0,00,09,60,04,6B,
1392076,0022C01E,true,Rx,1,8,C4,0B,40,89,C4,00,A4,60,
1392199,02A03028,true,Rx,0,8,00,9F,81,51,1A,2C,00,00,
1392646,0032C01E,true,Rx,1,8,C0,00,14,00,04,00,60,00,
1393556,00E00020,true,Rx,1,8,03,C0,00,13,06,95,00,00,
1395720,00608024,true,Rx,1,8,40,00,00,00,00,01,03,3E,
1396278,00B00002,true,Rx,1,8,00,00,A5,AD,F4,3B,C3,35,
1396867,01100014,true,Rx,1,8,00,00,00,04,00,11,20,00,
1397146,0280142A,true,Rx,0,8,01,50,00,20,17,00,00,00,
1399138,02001022,true,Rx,0,8,C0,00,00,01,35,90,10,40,
1401363,00C24008,true,Rx,1,8,44,00,C0,00,09,60,04,8E,
1401938,0240102A,true,Rx,0,8,C1,00,00,00,00,00,00,00,
1402270,0012C024,true,Rx,1,8,AC,A1,00,00,C1,FF,B8,00,
1402860,00524000,true,Rx,1,8,40,00,00,00,C0,00,C0,00,
1403428,00D28026,true,Rx,1,8,4E,8F,67,00,C0,00,00,00,
1403987,00F2C006,true,Rx,1,8,4C,00,B0,3C,F0,1E,00,00,
1404543,0022C01E,true,Rx,1,8,04,0B,40,89,C4,00,A4,60,
1404751,0261300A,true,Rx,0,8,80,00,00,27,80,40,00,C0,
1405124,0032C01E,true,Rx,1,8,00,00,14,00,04,00,60,00,
1409562,00E00020,true,Rx,1,8,4B,C0,00,13,06,95,00,00,
1410549,0102C02C,true,Rx,1,8,8F,C0,30,0E,C0,10,2B,AE,
1411128,01200028,true,Rx,1,8,C8,00,00,41,F0,00,33,27,
1411221,00613DF8,true,Rx,0,8,C1,00,0E,20,01,00,00,40,
1411698,00C24008,true,Rx,1,8,34,00,D0,00,09,60,04,8E,
1412347,01213FFC,true,Rx,0,8,CE,02,5D,80,E0,80,B8,00,
1413545,01800028,true,Rx,0,8,00,00,7A,00,00,00,00,00,
1414712,0140044A,true,Rx,0,8,80,00,00,0B,00,00,00,00,
1415844,0340024C,true,Rx,0,8,01,00,E0,01,03,AC,08,00,
1416124,0022C01E,true,Rx,1,8,40,0B,40,89,44,00,24,60,
1416692,0012C024,true,Rx,1,8,A4,A1,00,00,C1,FF,B8,00,
1417261,0032C01E,true,Rx,1,8,42,00,84,00,04,00,60,00,
1417843,00524000,true,Rx,1,8,40,00,00,00,C0,00,C0,00,
1418399,00B00002,true,Rx,1,8,40,00,A5,AD,F4,3B,C3,35,
1418958,00D28026,true,Rx,1,8,8A,8F,67,00,C0,00,00,00,
1419537,01100014,true,Rx,1,8,40,00,00,00,00,11,20,00,
1420098,01500006,true,Rx,1,8,45,0F,08,35,2C,89,00,00,
1420664,01700012,true,Rx,1,8,4B,C0,80,00,AA,AA,00,00,
1421305,00C24008,true,Rx,1,8,02,00,E0,00,09,60,04,B0,
1421885,01600022,true,Rx,1,8,81,00,AA,AA,00,00,00,00,
1423329,00F2C006,true,Rx,1,8,88,00,B0,3F,F0,1D,00,00,
1425605,00E00020,true,Rx,1,8,33,C0,00,13,06,97,00,00,
1426076,02A03028,true,Rx,0,8,00,9F,81,59,1A,2C,00,00,
1427212,0280142A,true,Rx,0,8,40,50,00,20,17,00,00,00,
1428089,0022C01E,true,Rx,1,8,84,0B,40,89,C4,00,A4,60,
1428397,03200008,true,Rx,0,8,00,00,00,00,00,00,00,00,
1428669,0032C01E,true,Rx,1,8,80,00,14,00,04,00,60,00,
1429566,01E01266,true,Rx,0,8,40,00,03,00,00,00,40,00,
1430293,0012C024,true,Rx,1,8,AC,A1,00,00,C1,FF,B8,00,
1430684,01C030A2,true,Rx,0,8,C0,5B,40,01,89,01,14,00,
1430885,00524000,true,Rx,1,8,40,00,00,00,C0,00,C0,00,
1431451,00C24008,true,Rx,1,8,D0,00,F0,00,09,60,04,D2,
1431848,00613DF8,true,Rx,0,8,03,00,0E,20,00,00,00,40,
1432005,00D28026,true,Rx,1,8,CA,8F,67,00,C0,00,00,00,
1432594,01828002,true,Rx,1,8,00,80,00,7F,00,00,00,00,
1434821,0261300A,true,Rx,0,8,C0,00,00,27,80,40,00,C0,
1435658,0102C02C,true,Rx,1,8,CF,C8,30,0E,C0,11,2B,AE,
1436215,00B00002,true,Rx,1,8,80,00,A5,AD,F4,3B,C3,35,
1436287,01213FFC,true,Rx,0,8,0E,02,5D,80,F0,C0,B8,00,
1436806,01100014,true,Rx,1,8,80,00,00,00,00,11,20,00,
1437465,0240102A,true,Rx,0,8,01,00,00,00,00,00,00,00,
1438562,02C13428,true,Rx,0,8,C1,02,78,8A,89,CF,20,00,
1439655,02E10DF4,true,Rx,0,8,CF,A9,2F,AC,99,3A,F8,18,
1440121,0022C01E,true,Rx,1,8,C4,0B,40,89,C4,00,A4,60,
1440688,0032C01E,true,Rx,1,8,C0,00,14,00,04,00,60,00,
1441257,01200028,true,Rx,1,8,08,48,00,41,F0,00,33,27,
1441837,00C24008,true,Rx,1,8,18,00,00,00,08,09,04,D2,
1442415,00E00020,true,Rx,1,8,03,C0,00,13,06,99,00,00,
1444278,02001022,true,Rx,0,8,00,00,00,01,35,90,10,40,
1444312,0012C024,true,Rx,1,8,A4,A1,00,00,C1,FF,B8,00,
1444902,00524000,true,Rx,1,8,40,00,00,00,C0,00,C0,00,
1445470,00D28026,true,Rx,1,8,0A,8F,67,00,C0,00,00,00,
1446050,00F2C006,true,Rx,1,8,CC,00,B0,42,F0,1E,00,00,
1451175,00613DF8,true,Rx,0,8,41,00,0E,20,00,00,00,40,
1451297,00C24008,true,Rx,1,8,8D,00,10,00,09,60,04,F5,
1452093,0022C01E,true,Rx,1,8,04,0B,40,89,C4,00,A4,60,
1452362,01800028,true,Rx,0,8,40,00,7E,00,00,00,00,00,
1452673,0032C01E,true,Rx,1,8,02,00,94,00,04,00,60,00,
1453997,0140044A,true,Rx,0,8,C0,00,00,1B,10,00,00,00,
1456117,00B00002,true,Rx,1,8,C0,00,A5,AD,F4,3B,C3,35,
1456696,01100014,true,Rx,1,8,C0,00,00,00,00,11,20,00,
1457150,0280142A,true,Rx,0,8,80,10,00,20,17,00,00,00,
1457555,00E00020,true,Rx,1,8,03,C0,00,13,06,95,00,00,
1458329,0012C024,true,Rx,1,8,AC,A1,00,00,C1,FF,B8,00,
1458919,00524000,true,Rx,1,8,40,00,00,00,C0,00,C0,00,
1459477,00D28026,true,Rx,1,8,4E,8F,67,00,C0,00,00,00,
1460426,0102C02C,true,Rx,1,8,0F,C0,30,0E,C0,10,2B,AE,
1461036,01213FFC,true,Rx,0,8,4E,02,5D,C0,F0,80,B8,00,
1461307,00C24008,true,Rx,1,8,5A,00,20,00,09,60,05,17,
1462142,02A03028,true,Rx,0,8,00,9F,51,11,1A,2C,80,00,
1464143,0022C01E,true,Rx,1,8,40,0B,40,89,44,00,24,60,
1464721,0032C01E,true,Rx,1,8,40,00,04,00,04,00,60,00,
1464938,00400066,true,Rx,0,8,40,00,00,04,01,5E,40,7F,
1465353,00F2C006,true,Rx,1,8,0C,00,B0,45,F0,1E,00,00,
1466065,0261300A,true,Rx,0,8,00,00,00,27,80,40,00,C0,
1470503,00608024,true,Rx,1,8,80,00,00,00,00,01,04,3E,
1471079,01200028,true,Rx,1,8,48,08,00,41,F0,00,33,27,
1471151,00613DF8,true,Rx,0,8,83,00,0E,20,01,00,00,40,
1471638,00C24008,true,Rx,1,8,A2,00,30,00,08,09,05,17,
1472318,0240102A,true,Rx,0,8,40,00,00,00,00,00,00,00,
1472332,0012C024,true,Rx,1,8,A4,A1,00,00,C1,FF,B8,00,
1472894,00524000,true,Rx,1,8,40,00,00,00,C0,00,C0,00,
1473452,00D28026,true,Rx,1,8,8A,8F,67,00,C0,00,00,00,
1474021,00E00020,true,Rx,1,8,03,C0,00,13,06,99,00,00,
1474165,01E01266,true,Rx,0,8,80,00,03,00,00,00,40,00,
1475282,01C030A2,true,Rx,0,8,00,5B,40,01,89,01,14,00,
1476140,0022C01E,true,Rx,1,8,84,0B,40,89,C4,00,A4,60,
1476717,0032C01E,true,Rx,1,8,82,00,94,00,04,00,60,00,
1477276,00B00002,true,Rx,1,8,00,00,A5,AD,F4,3B,C3,35,
1477865,01100014,true,Rx,1,8,00,00,00,04,00,11,20,00,
1478422,01500006,true,Rx,1,8,85,0F,08,35,2C,89,00,00,
1478983,01700012,true,Rx,1,8,8B,C0,80,00,AA,AA,00,00,
1481298,00C24008,true,Rx,1,8,18,00,40,00,09,60,05,39,
1481868,01600022,true,Rx,1,8,C0,00,AA,AA,00,00,00,00,
1485210,0102C02C,true,Rx,1,8,4F,C8,30,0E,C0,10,2B,AE,
1485825,01213FFC,true,Rx,0,8,8E,02,5D,80,E0,80,B8,00,
1486333,0012C024,true,Rx,1,8,AC,A1,00,00,C1,FF,B8,00,
1486923,00524000,true,Rx,1,8,40,00,00,00,C0,00,C0,00,
1487149,0280142A,true,Rx,0,8,C0,50,00,28,17,00,00,00,
1487484,00D28026,true,Rx,1,8,CA,8F,67,00,C0,00,00,00,
1488053,00F2C006,true,Rx,1,8,4C,00,B0,48,F0,1C,00,00,
1488610,0022C01E,true,Rx,1,8,C4,0B,40,89,C4,00,A4,60,
1489178,0032C01E,true,Rx,1,8,C0,00,14,00,04,00,60,00,
1489241,02001022,true,Rx,0,8,40,00,00,01,35,90,10,40,
1489754,00E00020,true,Rx,1,8,03,C0,00,13,06,97,00,00,
1491307,00C24008,true,Rx,1,8,E6,00,50,00,09,60,05,5B,
1491430,00613DF8,true,Rx,0,8,C1,00,0E,20,00,00,00,40,
1492607,01800028,true,Rx,0,8,80,00,7A,00,00,00,00,00,
1493721,02C13428,true,Rx,0,8,01,02,78,8A,89,CF,20,00,
1494879,0140044A,true,Rx,0,8,00,00,00,0B,00,00,00,00,
1496001,0261300A,true,Rx,0,8,40,00,00,27,80,40,00,C0,
1496139,00B00002,true,Rx,1,8,40,00,A5,AD,F4,3B,C3,35,
1496716,01100014,true,Rx,1,8,40,00,00,00,00,11,20,00,
1497119,02A03028,true,Rx,0,8,00,1F,81,51,1A,2C,00,00,
1498226,02E10DF4,true,Rx,0,8,0F,A9,0F,2C,99,3A,F8,18,
1500111,0022C01E,true,Rx,1,8,04,0B,40,89,C4,00,A4,60,
1500688,0012C024,true,Rx,1,8,A4,A1,00,00,C1,FF,B8,00,
1501268,0032C01E,true,Rx,1,8,00,00,14,00,04,00,60,00,
1501848,00524000,true,Rx,1,8,40,00,00,00,C0,00,C0,00,
1501920,03C0002A,true,Rx,0,8,00,00,33,C0,27,00,9F,00,
1502428,00C24008,true,Rx,1,8,B3,00,60,00,09,60,05,7E,
1502996,00D28026,true,Rx,1,8,0A,8F,67,00,C0,00,00,00,
1503566,01200028,true,Rx,1,8,88,08,00,41,F0,00,33,27,
1505604,00E00020,true,Rx,1,8,4B,C0,00,13,06,95,00,00,
1506894,0240102A,true,Rx,0,8,81,00,00,00,00,00,00,00,
1507380,00F2C006,true,Rx,1,8,88,00,B0,4C,F0,1D,00,00,
1507959,01828002,true,Rx,1,8,00,80,00,7B,00,00,00,00,
1510490,0102C02C,true,Rx,1,8,8F,C0,30,0E,C0,10,2B,AE,
1511140,00613DF8,true,Rx,0,8,03,00,0E,20,00,00,00,40,
1511298,00C24008,true,Rx,1,8,A3,00,70,00,09,60,05,7E,
1512145,0022C01E,true,Rx,1,8,40,0B,40,89,4C,00,24,60,
1512259,01213FFC,true,Rx,0,8,CE,02,5D,80,F0,80,B8,00,
1512714,0032C01E,true,Rx,1,8,42,00,84,00,04,00,60,00,
1514077,04000002,true,Rx,0,8,80,00,01,00,B4,00,00,52,
1514368,0012C024,true,Rx,1,8,AC,A1,00,00,C1,FF,B8,00,
1514958,00524000,true,Rx,1,8,40,00,00,00,C0,00,C0,00,
1515516,00D28026,true,Rx,1,8,4E,8F,67,00,C0,00,00,00,
1516126,00B00002,true,Rx,1,8,80,00,A5,AD,F4,3B,C3,35,
1516713,01100014,true,Rx,1,8,80,00,00,00,00,11,20,00,
1517137,0280142A,true,Rx,0,8,00,50,00,20,17,00,00,00,
1518934,01E01266,true,Rx,0,8,C0,00,03,00,00,00,40,00,
1520035,01C030A2,true,Rx,0,8,40,5B,40,01,89,01,14,00,
1521305,00C24008,true,Rx,1,8,71,00,80,00,09,60,05,A0,
1521872,00E00020,true,Rx,1,8,33,C0,00,13,06,95,00,00,
1524136,0022C01E,true,Rx,1,8,84,0B,40,89,CC,00,A4,60,
1524704,0032C01E,true,Rx,1,8,80,00,14,00,04,00,60,00,
1525025,0261300A,true,Rx,0,8,80,00,00,27,80,40,00,C0,
1528382,0012C024,true,Rx,1,8,A4,A1,00,00,C1,FF,B8,00,
1528966,00524000,true,Rx,1,8,40,00,00,00,C0,00,C0,00,
1529524,00D28026,true,Rx,1,8,8A,8F,67,00,C0,00,00,00,
1530103,00F2C006,true,Rx,1,8,CC,00,B0,4F,F0,1D,00,00,
1530670,01200028,true,Rx,1,8,C8,00,00,C5,F0,00,33,27,
1531084,00613DF8,true,Rx,0,8,41,00,06,20,01,00,00,40,
1531303,00C24008,true,Rx,1,8,3F,00,90,00,09,60,05,C2,
1532273,01800028,true,Rx,0,8,C0,00,7A,00,00,00,00,00,
1533400,02A03028,true,Rx,0,8,00,9F,C1,19,1A,2C,00,00,
1534563,0140044A,true,Rx,0,8,40,00,00,1B,00,00,00,00,
1535453,0102C02C,true,Rx,1,8,CF,C8,30,0E,C0,10,2B,AE,
1535710,02001022,true,Rx,0,8,80,00,00,01,35,90,10,40,
1536157,0022C01E,true,Rx,1,8,C4,0B,40,89,CC,00,A4,60,
1536728,0032C01E,true,Rx,1,8,C0,00,14,00,04,00,60,00,
1536843,01213FFC,true,Rx,0,8,0E,02,5D,C0,E0,C0,B8,00,
1537288,00B00002,true,Rx,1,8,C0,00,A5,AD,F4,3B,C3,35,
1537857,00E00020,true,Rx,1,8,03,C0,00,13,06,97,00,00,
1538021,03200008,true,Rx,0,8,00,00,00,00,00,80,00,00,
1538437,01100014,true,Rx,1,8,C0,00,00,04,00,11,20,00,
1538981,01500006,true,Rx,1,8,C5,2F,08,B5,2C,89,00,00,
1539188,0360000A,true,Rx,0,8,40,00,00,00,00,16,00,00,
1539551,01700012,true,Rx,1,8,CB,C0,80,00,AA,AA,00,00,
1540324,00400066,true,Rx,0,8,80,00,00,05,01,5E,40,7F,
1541288,00C24008,true,Rx,1,8,2F,00,A0,00,09,60,05,C2,
1541867,01600022,true,Rx,1,8,01,00,AA,AA,00,00,00,00,
1541949,0240102A,true,Rx,0,8,C3,00,00,00,00,00,00,00,
1542437,0012C024,true,Rx,1,8,AC,A1,00,00,C1,FF,B8,00,
1543019,00524000,true,Rx,1,8,40,00,00,00,C0,00,C0,00,
1543585,00D28026,true,Rx,1,8,CA,8F,67,00,C0,00,00,00,
1545832,00608024,true,Rx,1,8,C0,00,00,00,00,01,05,3E,
1546419,02C13428,true,Rx,0,8,49,02,78,8A,89,CF,20,00,
1547542,0280142A,true,Rx,0,8,40,10,00,20,17,00,00,00,
1548143,0022C01E,true,Rx,1,8,04,0B,40,89,CC,00,A4,60,
1548647,02E10DF4,true,Rx,0,8,4F,A9,2F,AC,99,3A,F8,18,
1548711,0032C01E,true,Rx,1,8,02,00,94,00,04,00,60,00,
1549373,00F2C006,true,Rx,1,8,0C,00,B0,52,F0,21,00,00,
1551187,00613DF8,true,Rx,0,8,83,00,0E,20,00,00,00,40,
1551293,00C24008,true,Rx,1,8,FC,00,B0,00,09,60,05,E5,
1553579,00E00020,true,Rx,1,8,03,C0,00,13,06,97,00,00,
1555381,0261300A,true,Rx,0,8,C0,00,00,27,80,40,00,C0,
1556137,00B00002,true,Rx,1,8,00,00,A5,AD,F4,3B,C3,35,
1556712,0012C024,true,Rx,1,8,A4,A1,00,00,C1,FF,B8,00,
1557302,00524000,true,Rx,1,8,40,00,00,00,C0,00,C0,00,
1557860,00D28026,true,Rx,1,8,0A,8F,67,00,C0,00,00,00,
1558459,01100014,true,Rx,1,8,00,00,00,00,00,11,20,00,
1560174,0022C01E,true,Rx,1,8,40,0B,40,89,4C,00,24,60,
1560739,0032C01E,true,Rx,1,8,40,00,04,00,04,00,60,00,
1561140,01213FFC,true,Rx,0,8,4E,02,5D,80,F0,80,B8,00,
1561318,00C24008,true,Rx,1,8,C9,00,C0,00,09,60,06,07,
1561887,0102C02C,true,Rx,1,8,0F,C0,30,0E,C0,10,2B,AE,
1562455,01200028,true,Rx,1,8,08,08,00,41,F0,00,33,27,
1563903,01E01266,true,Rx,0,8,00,00,03,00,00,00,40,00,
1565013,01C030A2,true,Rx,0,8,80,5B,40,01,89,01,14,00,
1566139,02A03028,true,Rx,0,8,00,9F,81,51,1A,2C,00,00,
1569607,00E00020,true,Rx,1,8,03,C0,00,13,06,99,00,00,
1570327,0012C024,true,Rx,1,8,AC,A1,00,00,C1,FF,B8,00,
1570924,00613DF8,true,Rx,0,8,C1,00,0E,00,00,00,00,40,
1570939,00524000,true,Rx,1,8,40,00,00,00,C0,00,C0,00,
1571486,00C24008,true,Rx,1,8,3F,00,D0,00,0A,B7,06,29,
1572047,00D28026,true,Rx,1,8,4E,8F,67,00,C0,00,00,00,
1572109,01800028,true,Rx,0,8,00,00,7A,00,00,00,00,00,
1572606,0022C01E,true,Rx,1,8,84,0B,40,89,CC,00,A4,60,
1573186,0032C01E,true,Rx,1,8,82,00,94,00,04,00,60,00,
1573258,03801028,true,Rx,0,8,4E,00,20,09,DC,40,00,00,
1573751,00F2C006,true,Rx,1,8,4C,00,B0,56,F0,1E,00,00,
1574409,0140044A,true,Rx,0,8,80,00,00,0B,10,00,00,00,
1576164,00B00002,true,Rx,1,8,40,00,A5,AD,F4,3B,C3,35,
1576742,01100014,true,Rx,1,8,40,00,00,00,00,11,20,00,
1576959,0240102A,true,Rx,0,8,00,00,00,00,00,00,00,00,
1578094,0280142A,true,Rx,0,8,80,50,00,20,17,00,00,00,
1579230,02001022,true,Rx,0,8,C0,00,00,01,35,90,10,40,
1581280,00C24008,true,Rx,1,8,87,00,E0,00,09,60,06,29,
1584156,0022C01E,true,Rx,1,8,C4,0B,40,89,CC,00,A4,60,
1584720,0012C024,true,Rx,1,8,A4,A1,00,00,C1,FF,B8,00,
1585289,0032C01E,true,Rx,1,8,C0,00,14,00,04,00,60,00,
1585464,0261300A,true,Rx,0,8,00,00,00,27,80,40,00,C0,
1585879,00524000,true,Rx,1,8,40,00,00,00,C0,00,C0,00,
1586439,00D28026,true,Rx,1,8,8A,8F,67,00,C0,00,00,00,
1586583,01213FFC,true,Rx,0,8,8E,02,5D,80,F0,80,B8,00,
1587010,00E00020,true,Rx,1,8,03,C0,00,13,06,97,00,00,
1587578,0102C02C,true,Rx,1,8,4F,C8,30,0E,C0,10,2B,AE,
1588167,01828002,true,Rx,1,8,00,80,00,7F,00,00,00,00,
1590846,01200028,true,Rx,1,8,48,08,00,41,F0,00,33,27,
1591410,00C24008,true,Rx,1,8,55,00,F0,00,09,60,06,4B,
1591461,00613DF8,true,Rx,0,8,03,00,0E,20,01,00,00,40,
1591980,00F2C006,true,Rx,1,8,88,00,B0,59,F0,1E,00,00,
1592588,0340024C,true,Rx,0,8,41,00,E0,01,0B,AC,08,00,
1596157,0022C01E,true,Rx,1,8,04,0B,40,89,CC,00,A4,60,
1596732,0032C01E,true,Rx,1,8,00,00,14,00,04,00,60,00,
1597289,00B00002,true,Rx,1,8,80,00,A5,AD,F4,3B,C3,35,
1597868,01100014,true,Rx,1,8,80,00,00,04,00,11,20,00,
1598436,0012C024,true,Rx,1,8,AC,A1,00,00,C1,FF,B8,00,
1599025,00524000,true,Rx,1,8,40,00,00,00,C0,00,C0,00,
1599593,00D28026,true,Rx,1,8,CA,8F,67,00,C0,00,00,00,
1600152,01500006,true,Rx,1,8,05,0F,08,35,2C,89,00,00,
1600722,01700012,true,Rx,1,8,0B,C0,80,00,AA,AA,00,00,
1601165,02A03028,true,Rx,0,8,00,9F,81,11,1A,2C,00,00,
1601302,00C24008,true,Rx,1,8,22,00,00,00,09,60,06,6E,
1601872,00E00020,true,Rx,1,8,4B,C0,00,13,06,97,00,00,
1602256,02C13428,true,Rx,0,8,81,00,58,88,89,CF,20,00,
1602434,01600022,true,Rx,1,8,41,00,AA,AA,00,00,00,00,
1603351,02E10DF4,true,Rx,0,8,8F,A9,0F,2C,99,3A,F8,18,
1607109,0280142A,true,Rx,0,8,C0,50,00,20,17,00,00,00,
1608160,0022C01E,true,Rx,1,8,40,0B,40,89,4C,00,24,60,
1608729,0032C01E,true,Rx,1,8,42,00,84,00,04,00,60,00,
1608945,01E01266,true,Rx,0,8,40,00,07,00,00,00,40,00,
1610061,01C030A2,true,Rx,0,8,C0,5B,40,01,89,01,14,00,
1610526,0102C02C,true,Rx,1,8,8F,C8,30,0E,C0,10,2B,AE,
1611277,00C24008,true,Rx,1,8,12,00,10,00,09,60,06,6E,
1611299,00613DF8,true,Rx,0,8,41,00,0E,20,00,00,00,40,
1612413,01213FFC,true,Rx,0,8,CE,02,5D,80,E0,80,B8,00,
1612428,0012C024,true,Rx,1,8,A4,A1,00,00,C1,FF,B8,00,
1612997,00524000,true,Rx,1,8,40,00,00,00,C0,00,C0,00,
1613577,00D28026,true,Rx,1,8,0A,8F,67,00,C0,00,00,00,
1613599,01800028,true,Rx,0,8,40,00,7E,00,00,00,00,00,
1614149,00F2C006,true,Rx,1,8,CC,00,B0,5D,F0,1E,00,00,
1614738,0140044A,true,Rx,0,8,C0,00,00,0B,00,00,00,00,
1615875,00400066,true,Rx,0,8,C0,00,00,06,01,5E,40,7F,
1616177,00B00002,true,Rx,1,8,C0,00,A5,AD,F4,3B,C3,35,
1616756,01100014,true,Rx,1,8,C0,00,00,00,00,11,20,00,
1617044,0240102A,true,Rx,0,8,41,00,00,00,00,00,00,00,
1617596,00E00020,true,Rx,1,8,33,C0,00,13,06,95,00,00,
1618162,0261300A,true,Rx,0,8,40,00,00,27,80,40,00,C0,
1620143,0022C01E,true,Rx,1,8,84,0B,40,89,CC,00,A4,60,
1620721,0032C01E,true,Rx,1,8,80,00,14,00,04,00,60,00,
1621309,00608024,true,Rx,1,8,00,00,00,00,00,01,06,3E,
1621877,00C24008,true,Rx,1,8,E0,00,20,00,09,60,06,90,
1622455,01200028,true,Rx,1,8,88,00,00,41,F0,00,33,27,
1624228,02001022,true,Rx,0,8,00,00,00,01,35,90,10,40,
1625443,0132C07C,true,Rx,1,8,05,00,3E,9E,00,7A,07,A8,
1626104,01613FFC,true,Rx,0,8,05,00,3E,9E,00,7A,07,A8,
1626425,0012C024,true,Rx,1,8,AC,A1,00,00,C1,FF,B8,00,
1627016,00524000,true,Rx,1,8,40,00,00,00,C0,00,C0,00,
1627576,00D28026,true,Rx,1,8,4E,8F,67,00,C0,00,00,00,
1631108,00613DF8,true,Rx,0,8,83,00,0E,20,01,00,00,40,
1631265,00C24008,true,Rx,1,8,AE,00,30,00,09,60,06,B2,
