Time Stamp,ID,Extended,Dir,Bus,LEN,D1,D2,D3,D4,D5,D6,D7,D8
3208631,0280142A,true,Rx,0,8,C0,70,00,20,07,00,00,00,
3238588,0280142A,true,Rx,0,8,00,30,00,20,07,00,00,00,
3268584,0280142A,true,Rx,0,8,40,70,00,20,07,00,00,00,
3298562,0280142A,true,Rx,0,8,80,70,00,20,07,00,00,00,
3324355,01C030A2,true,Rx,0,8,00,7B,40,01,89,01,14,00,
3328570,0280142A,true,Rx,0,8,C0,30,00,20,07,00,00,00,
3358568,0280142A,true,Rx,0,8,00,70,00,20,07,00,00,00,
3369280,01C030A2,true,Rx,0,8,40,79,40,01,89,01,04,00,
3370987,01213FFC,true,Rx,0,8,C8,02,4C,00,70,40,08,00,
3374454,02001022,true,Rx,0,8,80,00,00,01,35,90,10,43,
3375618,0240102A,true,Rx,0,8,60,00,00,00,00,00,00,00,
3376738,0261300A,true,Rx,0,8,C0,00,00,27,80,40,00,C0,
3381006,02C13428,true,Rx,0,8,40,00,08,80,00,00,00,00,
3382137,02E10DF4,true,Rx,0,8,40,A1,20,A0,90,00,08,00,
3386045,00613DF8,true,Rx,0,8,01,00,00,40,00,00,00,00,
3387239,01800028,true,Rx,0,8,40,00,00,00,00,00,00,00,
3388547,0280142A,true,Rx,0,8,40,70,00,A0,37,00,00,00,
3395974,01213FFC,true,Rx,0,8,08,02,CC,00,70,00,08,00,
3400998,02A03028,true,Rx,0,8,00,80,84,01,00,00,00,00,
3405967,00613DF8,true,Rx,0,8,43,00,00,40,00,00,00,00,
3407089,0261300A,true,Rx,0,8,00,00,00,27,80,40,00,C0,
3409447,01C030A2,true,Rx,0,8,80,7B,40,01,89,01,14,00,
3410598,0240102A,true,Rx,0,8,81,00,00,00,00,00,00,00,
3418557,0280142A,true,Rx,0,8,80,10,00,20,17,00,00,00,
3419688,02001022,true,Rx,0,8,C0,00,00,01,35,90,10,43,
3421015,01213FFC,true,Rx,0,8,48,02,4C,00,60,00,08,00,
3426017,00613DF8,true,Rx,0,8,81,00,00,40,00,00,00,00,
3427200,01800028,true,Rx,0,8,80,00,00,00,00,00,00,00,
3435960,02A03028,true,Rx,0,8,00,80,84,01,00,00,00,00,
3437082,0261300A,true,Rx,0,8,40,00,00,27,80,40,00,C0,
3438223,02C13428,true,Rx,0,8,80,00,08,E0,00,00,00,00,
3439360,02E10DF4,true,Rx,0,8,80,A1,00,20,90,00,08,00,
3440544,03200008,true,Rx,0,8,00,00,00,00,00,80,00,00,
3445373,0240102A,true,Rx,0,8,C1,00,00,00,00,00,00,00,
3446534,00613DF8,true,Rx,0,8,C3,00,00,40,00,00,00,00,
3447687,01213FFC,true,Rx,0,8,88,02,4C,00,70,00,08,00,
3448811,0280142A,true,Rx,0,8,C0,50,00,20,17,00,00,00,
3454745,01C030A2,true,Rx,0,8,C0,5B,40,01,89,01,14,00,
3464328,02001022,true,Rx,0,8,00,00,00,01,35,90,10,43,
3466026,00613DF8,true,Rx,0,8,01,00,00,40,00,00,00,00,
3467209,01800028,true,Rx,0,8,C0,00,00,00,00,00,00,00,
3468336,0261300A,true,Rx,0,8,80,00,00,27,80,40,00,C0,
3470966,01213FFC,true,Rx,0,8,C8,02,4C,00,60,40,08,00,
3472117,02A03028,true,Rx,0,8,00,00,44,09,00,00,00,00,
3478588,0280142A,true,Rx,0,8,00,50,00,20,17,00,00,00,
3480389,0240102A,true,Rx,0,8,00,00,00,00,00,00,00,00,
3485982,00613DF8,true,Rx,0,8,43,00,00,40,00,00,00,00,
3490952,02C13428,true,Rx,0,8,C0,00,08,E0,00,00,00,00,
3492082,02E10DF4,true,Rx,0,8,C0,A1,20,A0,90,00,08,00,
3495972,01213FFC,true,Rx,0,8,08,02,4C,00,70,00,08,00,
3497092,0261300A,true,Rx,0,8,C0,00,00,27,80,40,00,C0,
3499492,01C030A2,true,Rx,0,8,00,5B,40,01,89,01,14,00,
3506055,00613DF8,true,Rx,0,8,81,00,00,40,00,00,00,00,
3507258,01800028,true,Rx,0,8,00,00,00,00,00,00,00,00,
3508402,02A03028,true,Rx,0,8,00,80,84,01,00,00,00,00,
3509526,02001022,true,Rx,0,8,40,00,00,01,35,90,10,43,
3510660,0280142A,true,Rx,0,8,40,10,00,20,17,00,00,00,
3515366,0240102A,true,Rx,0,8,41,00,00,00,00,00,00,00,
3521029,01213FFC,true,Rx,0,8,48,02,4C,00,70,00,08,00,
3525961,00613DF8,true,Rx,0,8,C3,00,00,40,00,00,00,00,
3527092,0261300A,true,Rx,0,8,00,00,00,27,80,40,00,C0,
3528224,0340024C,true,Rx,0,8,40,00,00,00,0B,8C,00,00,
3538533,0280142A,true,Rx,0,8,80,50,00,28,17,00,00,00,
3540995,02A03028,true,Rx,0,8,00,80,84,01,00,00,00,00,
3542178,03200008,true,Rx,0,8,00,00,00,00,00,80,00,00,
3544649,01C030A2,true,Rx,0,8,40,5B,40,01,89,01,14,00,
3546048,00613DF8,true,Rx,0,8,01,00,00,40,00,00,00,00,
3547209,01213FFC,true,Rx,0,8,88,02,4C,00,60,00,08,00,
3548397,01800028,true,Rx,0,8,40,00,00,00,00,00,00,00,
3549550,02C13428,true,Rx,0,8,00,00,08,E0,00,00,00,00,
3550707,0240102A,true,Rx,0,8,81,00,00,00,00,00,00,00,
3551851,02E10DF4,true,Rx,0,8,00,A1,00,20,90,00,08,00,
3554395,02001022,true,Rx,0,8,80,00,00,01,35,90,10,43,
3557414,0261300A,true,Rx,0,8,40,00,00,27,80,40,00,C0,
3565982,00613DF8,true,Rx,0,8,43,00,00,40,00,00,00,00,
3568549,0280142A,true,Rx,0,8,C0,50,00,20,17,00,00,00,
3570970,01213FFC,true,Rx,0,8,C8,02,4C,00,70,40,08,00,
3575962,02A03028,true,Rx,0,8,00,80,C4,09,00,00,00,00,
3585326,0240102A,true,Rx,0,8,C0,00,00,00,00,00,00,00,
3586508,00613DF8,true,Rx,0,8,81,00,00,40,00,00,00,00,
3587691,01800028,true,Rx,0,8,80,00,00,00,00,00,00,00,
3588816,0261300A,true,Rx,0,8,80,00,00,27,80,40,00,C0,
3589919,01C030A2,true,Rx,0,8,80,5B,40,01,89,01,14,00,
3591074,03801028,true,Rx,0,8,C0,00,20,08,44,43,00,00,
3596004,01213FFC,true,Rx,0,8,08,02,4C,00,70,00,08,00,
3597165,01613FFC,true,Rx,0,8,10,10,01,03,02,03,00,01,
3598596,0280142A,true,Rx,0,8,00,10,00,20,17,00,00,00,
3599732,02001022,true,Rx,0,8,C0,00,00,01,35,90,10,43,
3601040,02C13428,true,Rx,0,8,40,00,08,E0,00,00,00,00,
3602181,02E10DF4,true,Rx,0,8,40,A1,20,A0,90,00,08,00,
3605972,00613DF8,true,Rx,0,8,C3,00,00,40,00,00,00,00,
3610952,02A03028,true,Rx,0,8,00,80,94,01,00,00,80,00,
3617831,0261300A,true,Rx,0,8,C0,00,00,27,80,40,00,C0,
3620325,0240102A,true,Rx,0,8,01,00,00,00,00,00,00,00,
3621477,01213FFC,true,Rx,0,8,48,02,4C,00,60,00,08,00,
3626049,00613DF8,true,Rx,0,8,01,00,00,40,00,00,00,00,
3627231,01800028,true,Rx,0,8,C0,00,00,00,00,00,00,00,
3628519,0280142A,true,Rx,0,8,40,50,00,20,17,00,00,00,
3634672,01C030A2,true,Rx,0,8,C0,5B,40,01,89,01,14,00,
3644340,02001022,true,Rx,0,8,00,00,00,01,35,90,10,43,
3645501,03C0002A,true,Rx,0,8,00,00,00,00,00,00,99,00,
3646664,00613DF8,true,Rx,0,8,43,00,00,40,00,00,00,00,
3647809,01213FFC,true,Rx,0,8,88,02,4C,00,70,00,08,00,
3648934,0261300A,true,Rx,0,8,00,00,00,27,80,40,00,C0,
3650079,02A03028,true,Rx,0,8,00,80,84,01,00,00,00,00,
3651265,03200008,true,Rx,0,8,00,00,00,00,00,80,00,00,
3655308,0240102A,true,Rx,0,8,43,00,00,00,00,00,00,00,
3656459,02C13428,true,Rx,0,8,80,00,08,E0,00,00,00,00,
3657581,02E10DF4,true,Rx,0,8,80,A1,20,A0,90,00,08,00,
3658716,0280142A,true,Rx,0,8,80,50,00,20,17,00,00,00,
3665987,00613DF8,true,Rx,0,8,81,00,00,40,00,00,00,00,
3667179,01800028,true,Rx,0,8,00,00,00,00,00,00,00,00,
3670946,01213FFC,true,Rx,0,8,C8,02,4C,00,60,40,08,00,
3678103,0261300A,true,Rx,0,8,40,00,00,27,80,40,00,C0,
3679410,01C030A2,true,Rx,0,8,00,5B,40,01,89,01,14,00,
3680963,02A03028,true,Rx,0,8,00,80,C4,09,00,00,00,00,
3686013,00613DF8,true,Rx,0,8,C3,00,00,40,00,00,00,00,
3688507,0280142A,true,Rx,0,8,C0,10,00,20,17,00,00,00,
3689628,02001022,true,Rx,0,8,40,00,00,01,35,90,10,43,
3690789,0240102A,true,Rx,0,8,80,00,00,00,00,00,00,00,
3696019,01213FFC,true,Rx,0,8,08,02,4C,00,70,00,08,00,
3705987,00613DF8,true,Rx,0,8,01,00,00,40,00,00,00,00,
3707180,01800028,true,Rx,0,8,40,00,00,00,00,00,00,00,
3708312,0261300A,true,Rx,0,8,80,00,00,27,80,40,00,C0,
3709457,0340024C,true,Rx,0,8,80,00,00,00,0B,8C,00,00,
3710930,02C13428,true,Rx,0,8,C0,00,08,E0,00,00,00,00,
3712072,02E10DF4,true,Rx,0,8,C0,A1,00,20,90,00,08,00,
3715944,02A03028,true,Rx,0,8,00,80,84,01,00,00,00,00,
3718521,0280142A,true,Rx,0,8,00,50,00,20,17,00,00,00,
3720984,01213FFC,true,Rx,0,8,48,02,4C,00,70,00,08,00,
3724744,01C030A2,true,Rx,0,8,40,5B,40,01,89,01,14,00,
3725906,0240102A,true,Rx,0,8,C1,00,00,00,00,00,00,00,
3727058,00613DF8,true,Rx,0,8,43,00,00,40,00,00,00,00,
3728390,00400066,true,Rx,0,8,00,00,00,07,01,5E,40,7F,
3734346,02001022,true,Rx,0,8,80,00,00,01,35,90,10,43,
3738477,0261300A,true,Rx,0,8,C0,00,00,27,80,40,00,C0,
3746058,00613DF8,true,Rx,0,8,81,00,00,40,00,00,00,00,
3747210,01213FFC,true,Rx,0,8,88,02,4C,00,60,00,08,00,
3748394,01800028,true,Rx,0,8,80,00,00,00,00,00,00,00,
3749530,0280142A,true,Rx,0,8,40,50,00,28,17,00,00,00,
3750952,02A03028,true,Rx,0,8,00,00,04,01,00,00,00,00,
3752134,03200008,true,Rx,0,8,00,00,00,00,00,80,00,00,
3760309,0240102A,true,Rx,0,8,01,00,00,00,00,00,00,00,
3765983,00613DF8,true,Rx,0,8,C3,00,00,40,00,00,00,00,
3767125,02C13428,true,Rx,0,8,00,00,08,E0,00,00,00,00,
3768266,02E10DF4,true,Rx,0,8,00,A1,20,A0,90,00,08,00,
3769403,0261300A,true,Rx,0,8,00,00,00,27,80,40,00,C0,
3770505,01C030A2,true,Rx,0,8,80,5B,40,01,89,01,14,00,
3771650,01213FFC,true,Rx,0,8,C8,02,4C,00,70,40,08,00,
3778517,0280142A,true,Rx,0,8,80,10,00,20,17,00,00,00,
3779649,02001022,true,Rx,0,8,C0,00,00,01,35,90,10,43,
3786002,00613DF8,true,Rx,0,8,01,00,00,40,00,00,00,00,
3787186,01800028,true,Rx,0,8,C0,00,00,00,00,00,00,00,
3788328,02A03028,true,Rx,0,8,00,80,C4,09,00,00,00,00,
3795310,0240102A,true,Rx,0,8,41,00,00,00,00,00,00,00,
3796472,01213FFC,true,Rx,0,8,08,02,4C,00,70,00,08,00,
3798809,0261300A,true,Rx,0,8,40,00,00,27,80,40,00,C0,
3803611,00400066,true,Rx,0,8,40,00,00,00,01,5E,40,7F,
3806074,00613DF8,true,Rx,0,8,43,00,00,40,00,00,00,00,
3808548,0280142A,true,Rx,0,8,C0,50,00,20,17,00,00,00,
3814678,01C030A2,true,Rx,0,8,C0,5B,40,01,89,01,14,00,
3821008,01213FFC,true,Rx,0,8,48,02,4C,00,60,00,08,00,
3822148,02A03028,true,Rx,0,8,00,80,84,01,00,00,00,00,
3823292,02C13428,true,Rx,0,8,40,00,08,80,00,00,00,00,
3824426,02E10DF4,true,Rx,0,8,40,A1,00,20,90,00,08,00,
3825561,02001022,true,Rx,0,8,00,00,00,01,35,90,10,43,
3826736,00613DF8,true,Rx,0,8,81,00,00,40,00,00,00,00,
3827932,01800028,true,Rx,0,8,00,00,00,00,00,00,00,00,
3829067,0261300A,true,Rx,0,8,80,00,00,27,80,40,00,C0,
3830346,0240102A,true,Rx,0,8,80,00,00,00,00,00,00,00,
3838505,0280142A,true,Rx,0,8,00,50,00,20,17,00,00,00,
3846003,00613DF8,true,Rx,0,8,C3,00,00,40,00,00,00,00,
3847145,01213FFC,true,Rx,0,8,88,02,4C,00,70,00,08,00,
3855945,02A03028,true,Rx,0,8,00,80,C4,09,00,00,00,00,
3857129,03200008,true,Rx,0,8,00,00,00,00,00,80,00,00,
3859042,0261300A,true,Rx,0,8,C0,00,00,27,80,40,00,C0,
3860154,01C030A2,true,Rx,0,8,00,5B,40,01,89,01,14,00,
3865300,0240102A,true,Rx,0,8,C1,00,00,00,00,00,00,00,
3866473,00613DF8,true,Rx,0,8,01,00,00,40,00,00,00,00,
3867665,01800028,true,Rx,0,8,40,00,00,00,00,00,00,00,
3868802,0280142A,true,Rx,0,8,40,10,00,20,17,00,00,00,
3869925,02001022,true,Rx,0,8,40,00,00,01,35,90,10,43,
3871071,01213FFC,true,Rx,0,8,C8,02,4C,00,60,40,08,00,
3875960,01613FFC,true,Rx,0,8,15,13,03,01,01,02,01,01,
3877113,02C13428,true,Rx,0,8,80,00,08,80,00,00,00,00,
3878243,02E10DF4,true,Rx,0,8,80,A1,20,A0,90,00,08,00,
3879390,00400066,true,Rx,0,8,80,00,00,01,01,5E,40,7F,
3886049,00613DF8,true,Rx,0,8,43,00,00,40,00,00,00,00,
3887181,0340024C,true,Rx,0,8,C0,00,00,00,0B,8C,00,00,
3889354,0261300A,true,Rx,0,8,00,00,00,27,80,40,00,C0,
3890897,02A03028,true,Rx,0,8,00,80,94,01,00,00,80,00,
3895964,01213FFC,true,Rx,0,8,08,02,4C,00,70,00,08,00,
3898491,0280142A,true,Rx,0,8,80,50,00,20,17,00,00,00,
3900375,0240102A,true,Rx,0,8,01,00,00,00,00,00,00,00,
3904671,01C030A2,true,Rx,0,8,40,5B,40,01,89,01,14,00,
3906028,00613DF8,true,Rx,0,8,81,00,00,40,00,00,00,00,
3907211,01800028,true,Rx,0,8,80,00,00,00,00,00,00,00,
3908369,03801028,true,Rx,0,8,00,00,20,08,1C,43,00,00,
3914356,02001022,true,Rx,0,8,80,00,00,01,35,90,10,43,
3919360,0261300A,true,Rx,0,8,40,00,00,27,80,40,00,C0,
3920923,01213FFC,true,Rx,0,8,48,02,4C,00,70,00,08,00,
3926004,00613DF8,true,Rx,0,8,C3,00,00,40,00,00,00,00,
3927146,02A03028,true,Rx,0,8,00,80,84,01,00,00,00,00,
3928515,0280142A,true,Rx,0,8,C0,50,00,28,17,00,00,00,
3930954,02C13428,true,Rx,0,8,C0,00,08,80,00,00,00,00,
3932096,02E10DF4,true,Rx,0,8,C0,A1,00,20,90,00,08,00,
3935342,0240102A,true,Rx,0,8,40,00,00,00,00,00,00,00,
3946019,00613DF8,true,Rx,0,8,01,00,00,40,00,00,00,00,
3947170,01213FFC,true,Rx,0,8,88,02,4C,00,60,00,08,00,
3948354,01800028,true,Rx,0,8,C0,00,00,00,00,00,00,00,
3949499,0261300A,true,Rx,0,8,80,00,00,27,80,40,00,C0,
3950611,01C030A2,true,Rx,0,8,80,5B,40,01,89,01,14,00,
3954362,00400066,true,Rx,0,8,C0,00,00,02,01,5E,40,7F,
3958483,0280142A,true,Rx,0,8,00,10,00,20,17,00,00,00,
3959614,02001022,true,Rx,0,8,C0,00,00,01,35,90,10,43,
3961115,02A03028,true,Rx,0,8,00,80,C4,09,00,00,00,00,
3962293,03200008,true,Rx,0,8,00,00,00,00,00,80,00,00,
3965959,00613DF8,true,Rx,0,8,43,00,00,40,00,00,00,00,
3970309,0240102A,true,Rx,0,8,81,00,00,00,00,00,00,00,
3971451,01213FFC,true,Rx,0,8,C8,02,4C,00,70,40,08,00,
3979732,0261300A,true,Rx,0,8,C0,00,00,27,80,40,00,C0,
3986041,00613DF8,true,Rx,0,8,81,00,00,40,00,00,00,00,
3987233,01800028,true,Rx,0,8,00,00,00,00,00,00,00,00,
3988387,02C13428,true,Rx,0,8,00,00,08,80,00,00,00,00,
3989521,0280142A,true,Rx,0,8,40,50,00,20,17,00,00,00,
3990666,02E10DF4,true,Rx,0,8,00,A1,20,A0,90,00,08,00,
3994737,01C030A2,true,Rx,0,8,C0,5B,40,01,89,01,14,00,
3996023,01213FFC,true,Rx,0,8,08,02,4C,00,70,00,08,00,
3997164,02A03028,true,Rx,0,8,00,80,84,01,00,00,00,00,
4004355,02001022,true,Rx,0,8,00,00,00,01,35,90,10,43,
4005517,0240102A,true,Rx,0,8,C3,00,00,00,00,00,00,00,
4006690,00613DF8,true,Rx,0,8,C3,00,00,40,00,00,00,00,
4009872,0261300A,true,Rx,0,8,00,00,00,27,80,40,00,C0,
4018467,0280142A,true,Rx,0,8,80,50,00,20,17,00,00,00,
4020960,01213FFC,true,Rx,0,8,48,02,4C,00,60,00,08,00,
4025973,00613DF8,true,Rx,0,8,01,00,00,40,00,00,00,00,
4027165,01800028,true,Rx,0,8,40,00,00,00,00,00,00,00,
4030100,00400066,true,Rx,0,8,00,00,00,03,01,5E,40,7F,
4031263,02A03028,true,Rx,0,8,00,00,04,01,00,00,00,00,
4039432,01C030A2,true,Rx,0,8,00,5B,40,01,89,01,14,00,
4040616,0240102A,true,Rx,0,8,00,00,00,00,00,00,00,00,
4041736,0261300A,true,Rx,0,8,40,00,00,27,80,40,00,C0,
4042872,02C13428,true,Rx,0,8,40,00,08,80,00,00,00,00,
4044004,02E10DF4,true,Rx,0,8,40,A1,00,20,90,00,08,00,
4046073,00613DF8,true,Rx,0,8,43,00,00,40,00,00,00,00,
4047218,01213FFC,true,Rx,0,8,88,02,4C,00,70,00,08,00,
4048498,0280142A,true,Rx,0,8,C0,10,00,20,17,00,00,00,
4049649,02001022,true,Rx,0,8,40,00,00,01,35,90,10,43,
4055296,03C0002A,true,Rx,0,8,00,00,00,00,00,00,19,00,
4065976,00613DF8,true,Rx,0,8,81,00,00,40,00,00,00,00,
4067158,01800028,true,Rx,0,8,80,00,00,00,00,00,00,00,
4068301,02A03028,true,Rx,0,8,00,80,C4,09,00,00,00,00,
4069487,03200008,true,Rx,0,8,00,00,00,00,00,80,00,00,
4070610,0261300A,true,Rx,0,8,80,00,00,27,80,40,00,C0,
4071755,01213FFC,true,Rx,0,8,C8,02,4C,00,60,40,08,00,
4072921,0340024C,true,Rx,0,8,00,00,00,00,03,8C,00,00,
4075330,0240102A,true,Rx,0,8,41,00,00,00,00,00,00,00,
4078473,0280142A,true,Rx,0,8,00,50,00,20,17,00,00,00,
4084676,01C030A2,true,Rx,0,8,40,5B,40,01,89,01,14,00,
4085962,00613DF8,true,Rx,0,8,C3,00,00,40,00,00,00,00,
4094361,02001022,true,Rx,0,8,80,00,00,01,35,90,10,43,
4095996,01213FFC,true,Rx,0,8,08,02,4C,00,70,00,08,00,
4097147,02C13428,true,Rx,0,8,80,00,08,80,00,00,00,00,
4098273,02E10DF4,true,Rx,0,8,80,A1,20,A0,90,00,08,00,
4100541,0261300A,true,Rx,0,8,C0,00,00,27,80,40,00,C0,
4101682,02A03028,true,Rx,0,8,00,80,84,01,00,00,00,00,
4105290,00400066,true,Rx,0,8,40,00,00,04,01,5E,40,7F,
4106472,00613DF8,true,Rx,0,8,01,00,00,40,00,00,00,00,
4107656,01800028,true,Rx,0,8,C0,00,00,00,00,00,00,00,
4108790,0280142A,true,Rx,0,8,40,50,00,20,17,00,00,00,
4110326,0240102A,true,Rx,0,8,81,00,00,00,00,00,00,00,
4120970,01213FFC,true,Rx,0,8,48,02,4C,00,70,00,08,00,
4125932,00613DF8,true,Rx,0,8,43,00,00,40,00,00,00,00,
4129472,01C030A2,true,Rx,0,8,80,5B,40,01,89,01,14,00,
4130593,0261300A,true,Rx,0,8,00,00,00,27,80,40,00,C0,
4135976,02A03028,true,Rx,0,8,00,80,94,01,00,00,80,00,
4138450,0280142A,true,Rx,0,8,81,10,00,28,17,00,00,00,
4139581,02001022,true,Rx,0,8,C0,00,00,01,35,90,10,43,
4145261,0240102A,true,Rx,0,8,C1,00,00,00,00,00,00,00,
4146434,00613DF8,true,Rx,0,8,81,00,00,40,00,00,00,00,
4147597,01213FFC,true,Rx,0,8,88,02,4C,00,60,00,08,00,
4148794,01800028,true,Rx,0,8,00,00,00,00,00,00,00,00,
4150947,02C13428,true,Rx,0,8,C0,00,08,80,00,00,00,00,
4152089,02E10DF4,true,Rx,0,8,C0,A1,00,20,90,00,08,00,
4155924,01613FFC,true,Rx,0,8,01,0F,B0,60,91,2A,FF,F6,
4160905,0261300A,true,Rx,0,8,40,00,00,27,80,40,00,C0,
4166000,00613DF8,true,Rx,0,8,C3,00,00,40,00,00,00,00,
4168453,0280142A,true,Rx,0,8,C0,50,00,20,17,00,00,00,
4170946,01213FFC,true,Rx,0,8,C8,02,4C,00,70,40,08,00,
4172088,02A03028,true,Rx,0,8,00,80,C4,09,00,00,00,00,
4173271,03200008,true,Rx,0,8,00,00,00,00,00,80,00,00,
4174788,01C030A2,true,Rx,0,8,C0,5B,40,01,89,01,14,00,
4180258,0240102A,true,Rx,0,8,00,00,00,00,00,00,00,00,
4181400,00400066,true,Rx,0,8,80,00,00,05,01,5E,40,7F,
4184365,02001022,true,Rx,0,8,00,00,00,01,35,90,10,43,
4186124,00613DF8,true,Rx,0,8,01,00,00,40,00,00,00,00,
4187319,01800028,true,Rx,0,8,40,00,00,00,00,00,00,00,
4191091,0261300A,true,Rx,0,8,80,00,00,27,80,40,00,C0,
4195957,01213FFC,true,Rx,0,8,08,02,4C,00,70,00,08,00,
4198494,0280142A,true,Rx,0,8,00,50,00,20,17,00,00,00,
4205920,00613DF8,true,Rx,0,8,43,00,00,40,00,00,00,00,
4207071,02A03028,true,Rx,0,8,00,80,84,01,00,00,00,00,
4208214,02C13428,true,Rx,0,8,00,00,08,80,00,00,00,00,
4209360,02E10DF4,true,Rx,0,8,00,A1,20,A0,90,00,08,00,
4215303,0240102A,true,Rx,0,8,41,00,00,00,00,00,00,00,
4219445,01C030A2,true,Rx,0,8,00,5B,40,01,89,01,14,00,
4220936,01213FFC,true,Rx,0,8,48,02,4C,00,60,00,08,00,
4222047,0261300A,true,Rx,0,8,C0,00,00,27,80,40,00,C0,
4226046,00613DF8,true,Rx,0,8,81,00,00,40,00,00,00,00,
4227239,01800028,true,Rx,0,8,80,00,00,00,00,00,00,00,
4228381,03801028,true,Rx,0,8,40,00,20,08,1C,43,00,00,
4229507,02001022,true,Rx,0,8,40,00,00,01,35,90,10,43,
4230639,0280142A,true,Rx,0,8,40,10,00,20,17,00,00,00,
4240971,02A03028,true,Rx,0,8,00,80,84,01,00,00,00,00,
4245962,00613DF8,true,Rx,0,8,C3,00,00,40,00,00,00,00,
4247104,01213FFC,true,Rx,0,8,88,02,4C,00,70,00,08,00,
4248245,0340024C,true,Rx,0,8,40,00,00,00,0B,8C,00,00,
4250315,0240102A,true,Rx,0,8,81,00,00,00,00,00,00,00,
4251440,0261300A,true,Rx,0,8,00,00,00,27,80,40,00,C0,
4256211,00400066,true,Rx,0,8,C0,00,00,06,01,5E,40,7F,
4258437,0280142A,true,Rx,0,8,80,50,00,20,17,00,00,00,
4261065,02C13428,true,Rx,0,8,40,00,08,80,00,00,00,00,
4262206,02E10DF4,true,Rx,0,8,40,A1,20,A0,90,00,08,00,
4264740,01C030A2,true,Rx,0,8,40,5B,40,01,89,01,14,00,
4265984,00613DF8,true,Rx,0,8,01,00,00,40,00,00,00,00,
4267167,01800028,true,Rx,0,8,C0,00,00,00,00,00,00,00,
4270937,01213FFC,true,Rx,0,8,C8,02,4C,00,60,40,08,00,
4274455,02001022,true,Rx,0,8,80,00,00,01,35,90,10,43,
4275957,02A03028,true,Rx,0,8,00,80,C4,09,00,00,00,00,
4277150,03200008,true,Rx,0,8,00,00,00,00,00,80,00,00,
4281471,0261300A,true,Rx,0,8,40,00,00,27,80,40,00,C0,
4285239,0240102A,true,Rx,0,8,C0,00,00,00,00,00,00,00,
4286402,00613DF8,true,Rx,0,8,43,00,00,40,00,00,00,00,
4288430,0280142A,true,Rx,0,8,C0,50,00,20,17,00,00,00,
4295945,01213FFC,true,Rx,0,8,08,02,4C,00,70,00,08,00,
4305973,00613DF8,true,Rx,0,8,81,00,00,40,00,00,00,00,
4307167,01800028,true,Rx,0,8,00,00,00,00,00,00,00,00,
4309474,01C030A2,true,Rx,0,8,80,5B,40,01,89,01,14,00,
4310934,02A03028,true,Rx,0,8,00,00,04,01,00,00,00,00,
4312055,0261300A,true,Rx,0,8,80,00,00,27,80,40,00,C0,
4315989,02C13428,true,Rx,0,8,80,00,08,80,00,00,00,00,
4317120,02E10DF4,true,Rx,0,8,80,A1,00,20,90,00,08,00,
4318437,0280142A,true,Rx,0,8,00,10,00,20,17,00,00,00,
4319573,02001022,true,Rx,0,8,C0,00,00,01,35,90,10,43,
4320747,0240102A,true,Rx,0,8,01,00,00,00,00,00,00,00,
4321893,01213FFC,true,Rx,0,8,48,02,4C,00,70,00,08,00,
4325973,00613DF8,true,Rx,0,8,C3,00,00,40,00,00,00,00,
4331723,00400066,true,Rx,0,8,00,00,00,07,01,5E,40,7F,
4341792,0261300A,true,Rx,0,8,C0,00,00,27,80,40,00,C0,
4346077,00613DF8,true,Rx,0,8,01,00,00,40,00,00,00,00,
4347240,01213FFC,true,Rx,0,8,88,02,4C,00,60,00,08,00,
4348433,01800028,true,Rx,0,8,40,00,00,00,00,00,00,00,
4349559,0280142A,true,Rx,0,8,40,50,00,28,17,00,00,00,
4350702,02A03028,true,Rx,0,8,00,80,84,01,00,00,00,00,
4354702,01C030A2,true,Rx,0,8,C0,5B,40,01,89,01,14,00,
4355854,0240102A,true,Rx,0,8,43,00,00,00,00,00,00,00,
4364365,02001022,true,Rx,0,8,00,00,00,01,35,90,10,43,
4365949,00613DF8,true,Rx,0,8,43,00,00,40,00,00,00,00,
4370898,01213FFC,true,Rx,0,8,C8,02,4C,00,70,40,08,00,
4372029,02C13428,true,Rx,0,8,C0,00,08,E0,00,00,00,00,
4373160,0261300A,true,Rx,0,8,00,00,00,27,80,40,00,C0,
4374286,02E10DF4,true,Rx,0,8,C0,A1,20,A0,90,00,08,00,
4378426,0280142A,true,Rx,0,8,80,50,00,20,17,00,00,00,
4380961,02A03028,true,Rx,0,8,00,80,D4,09,00,00,80,00,
4382142,03200008,true,Rx,0,8,00,00,00,00,00,80,00,00,
4385948,00613DF8,true,Rx,0,8,81,00,00,40,00,00,00,00,
4387141,01800028,true,Rx,0,8,80,00,00,00,00,00,00,00,
4390252,0240102A,true,Rx,0,8,80,00,00,00,00,00,00,00,
4395958,01213FFC,true,Rx,0,8,08,02,4C,00,70,00,08,00,
4399532,01C030A2,true,Rx,0,8,00,5B,40,01,89,01,14,00,
4402078,0261300A,true,Rx,0,8,40,00,00,27,80,40,00,C0,
4406012,00613DF8,true,Rx,0,8,C3,00,00,40,00,00,00,00,
4407164,00400066,true,Rx,0,8,40,00,00,00,01,5E,40,7F,
4408441,0280142A,true,Rx,0,8,C0,10,00,20,17,00,00,00,
4409565,02001022,true,Rx,0,8,40,00,00,01,35,90,10,43,
4415955,02A03028,true,Rx,0,8,00,80,84,01,00,00,00,00,
4420958,01213FFC,true,Rx,0,8,48,02,4C,00,60,00,08,00,
4425278,0240102A,true,Rx,0,8,C1,00,00,00,00,00,00,00,
4426460,00613DF8,true,Rx,0,8,01,00,00,40,00,00,00,00,
4427643,01800028,true,Rx,0,8,C0,00,00,00,00,00,00,00,
4428788,02C13428,true,Rx,0,8,00,00,08,E0,00,00,00,00,
4429932,02E10DF4,true,Rx,0,8,00,A1,00,20,90,00,08,00,
4431077,0340024C,true,Rx,0,8,80,00,00,00,0B,8C,00,00,
4432582,0261300A,true,Rx,0,8,80,00,00,27,80,40,00,C0,
4435910,01613FFC,true,Rx,0,8,02,FE,BC,43,5F,04,98,5E,
4438426,0280142A,true,Rx,0,8,00,50,00,20,17,00,00,00,
4444785,01C030A2,true,Rx,0,8,40,5B,40,01,89,01,14,00,
4445967,00613DF8,true,Rx,0,8,43,00,00,40,00,00,00,00,
4447109,01213FFC,true,Rx,0,8,88,02,4C,00,70,00,08,00,
4450942,02A03028,true,Rx,0,8,00,80,84,01,00,00,00,00,
4454380,02001022,true,Rx,0,8,80,00,00,01,35,90,10,43,
4460221,0240102A,true,Rx,0,8,01,00,00,00,00,00,00,00,
4462551,0261300A,true,Rx,0,8,C0,00,00,27,80,40,00,C0,
4465200,03C0002A,true,Rx,0,8,00,00,30,C0,2D,00,9F,00,
4466375,00613DF8,true,Rx,0,8,81,00,00,40,00,00,00,00,
4467579,01800028,true,Rx,0,8,00,00,00,00,00,00,00,00,
4468714,0280142A,true,Rx,0,8,40,50,00,20,17,00,00,00,
4471114,01213FFC,true,Rx,0,8,C8,02,4C,00,60,40,08,00,
4480956,02C13428,true,Rx,0,8,40,00,08,E0,00,00,00,00,
4482087,02E10DF4,true,Rx,0,8,40,A1,20,A0,90,00,08,00,
4483238,00400066,true,Rx,0,8,80,00,00,01,01,5E,40,7F,
4486030,00613DF8,true,Rx,0,8,C3,00,00,40,00,00,00,00,
4487171,02A03028,true,Rx,0,8,00,80,C4,09,00,00,00,00,
4488359,03200008,true,Rx,0,8,00,00,00,00,00,80,00,00,
4489481,01C030A2,true,Rx,0,8,80,5B,40,01,89,01,14,00,
4492869,0261300A,true,Rx,0,8,00,00,00,27,80,40,00,C0,
4495227,0240102A,true,Rx,0,8,41,00,00,00,00,00,00,00,
4496390,01213FFC,true,Rx,0,8,08,02,4C,00,70,00,08,00,
4498428,0280142A,true,Rx,0,8,80,10,00,20,17,00,00,00,
4499559,02001022,true,Rx,0,8,C0,00,00,01,35,90,10,43,
4505971,00613DF8,true,Rx,0,8,01,00,00,40,00,00,00,00,
4507163,01800028,true,Rx,0,8,40,00,00,00,00,00,00,00,
4520877,01213FFC,true,Rx,0,8,48,02,4C,00,70,00,08,00,
4522019,02A03028,true,Rx,0,8,00,80,84,01,00,00,00,00,
4523139,0261300A,true,Rx,0,8,40,00,00,27,80,40,00,C0,
4525983,00613DF8,true,Rx,0,8,43,00,00,40,00,00,00,00,
4528403,0280142A,true,Rx,0,8,C0,50,00,28,17,00,00,00,
4530254,0240102A,true,Rx,0,8,80,00,00,00,00,00,00,00,
4534714,01C030A2,true,Rx,0,8,C0,5B,40,01,89,01,14,00,
4535990,02C13428,true,Rx,0,8,80,00,08,E0,00,00,00,00,
4537120,02E10DF4,true,Rx,0,8,80,A1,00,20,90,00,08,00,
4544373,02001022,true,Rx,0,8,00,00,00,01,35,90,10,43,
4546018,00613DF8,true,Rx,0,8,81,00,00,40,00,00,00,00,
4547180,01213FFC,true,Rx,0,8,88,02,4C,00,60,00,08,00,
4548358,01800028,true,Rx,0,8,80,00,00,00,00,00,00,00,
4549511,03801028,true,Rx,0,8,80,00,20,08,5C,43,00,00,
4553120,0261300A,true,Rx,0,8,80,00,00,27,80,40,00,C0,
4555936,02A03028,true,Rx,0,8,00,80,84,09,00,00,00,00,
4557962,00400066,true,Rx,0,8,C0,00,00,02,01,5E,40,7F,
4559105,0280142A,true,Rx,0,8,00,50,00,20,17,00,00,00,
4565231,0240102A,true,Rx,0,8,C1,00,00,00,00,00,00,00,
4566404,00613DF8,true,Rx,0,8,C3,00,00,40,00,00,00,00,
4570934,01213FFC,true,Rx,0,8,C8,02,4C,00,70,40,08,00,
4579469,01C030A2,true,Rx,0,8,00,5B,40,01,89,01,14,00,
4583373,0261300A,true,Rx,0,8,C0,00,00,27,80,40,00,C0,
4586033,00613DF8,true,Rx,0,8,01,00,00,40,00,00,00,00,
4587215,01800028,true,Rx,0,8,C0,00,00,00,00,00,00,00,
4588399,0280142A,true,Rx,0,8,40,10,00,20,17,00,00,00,
4589523,02001022,true,Rx,0,8,40,00,00,01,35,90,10,43,
4590977,02A03028,true,Rx,0,8,00,00,44,01,00,00,00,00,
4592119,02C13428,true,Rx,0,8,C0,00,08,E0,00,00,00,00,
4593244,02E10DF4,true,Rx,0,8,C0,A1,20,A0,90,00,08,00,
4594431,03200008,true,Rx,0,8,00,00,00,00,00,80,00,00,
4595978,01213FFC,true,Rx,0,8,08,02,4C,00,70,00,08,00,
4600255,0240102A,true,Rx,0,8,01,00,00,00,00,00,00,00,
4605942,00613DF8,true,Rx,0,8,43,00,00,40,00,00,00,00,
4607072,0340024C,true,Rx,0,8,C0,00,00,00,0B,8C,00,00,
4613365,0261300A,true,Rx,0,8,00,00,00,27,80,40,00,C0,
4618388,0280142A,true,Rx,0,8,80,50,00,20,17,00,00,00,
4620934,01213FFC,true,Rx,0,8,48,02,4C,00,60,00,08,00,
4624796,01C030A2,true,Rx,0,8,40,5B,40,01,89,01,14,00,
4625979,00613DF8,true,Rx,0,8,81,00,00,40,00,00,00,00,
4627181,01800028,true,Rx,0,8,00,00,00,00,00,00,00,00,
4628318,02A03028,true,Rx,0,8,00,80,94,01,00,00,80,00,
4633414,00400066,true,Rx,0,8,00,00,00,03,01,5E,40,7F,
4634565,02001022,true,Rx,0,8,80,00,00,01,35,90,10,43,
4635717,0240102A,true,Rx,0,8,40,00,00,00,00,00,00,00,
4643517,0261300A,true,Rx,0,8,40,00,00,27,80,40,00,C0,
4646010,00613DF8,true,Rx,0,8,C3,00,00,40,00,00,00,00,
4647151,01213FFC,true,Rx,0,8,88,02,4C,00,70,00,08,00,
4648294,02C13428,true,Rx,0,8,00,00,08,E0,00,00,00,00,
4649429,0280142A,true,Rx,0,8,C0,50,00,20,17,00,00,00,
4650573,02E10DF4,true,Rx,0,8,00,A1,00,20,90,00,08,00,
4660956,02A03028,true,Rx,0,8,00,80,C4,09,00,00,00,00,
4665949,00613DF8,true,Rx,0,8,01,00,00,40,00,00,00,00,
4667141,01800028,true,Rx,0,8,40,00,00,00,00,00,00,00,
4669501,01C030A2,true,Rx,0,8,80,5B,40,01,89,01,14,00,
4670652,0240102A,true,Rx,0,8,81,00,00,00,00,00,00,00,
4671798,01213FFC,true,Rx,0,8,C8,02,4C,00,60,40,08,00,
4673838,0261300A,true,Rx,0,8,80,00,00,27,80,40,00,C0,
4678394,0280142A,true,Rx,0,8,00,10,00,20,17,00,00,00,
4679516,02001022,true,Rx,0,8,C0,00,00,01,35,90,10,43,
4685931,00613DF8,true,Rx,0,8,43,00,00,40,00,00,00,00,
4695919,01213FFC,true,Rx,0,8,08,02,4C,00,70,00,08,00,
4697059,02A03028,true,Rx,0,8,00,80,84,01,00,00,00,00,
4698253,03200008,true,Rx,0,8,00,00,00,00,00,80,00,00,
4700868,02C13428,true,Rx,0,8,40,00,08,E0,00,00,00,00,
4702000,02E10DF4,true,Rx,0,8,40,A1,20,A0,90,00,08,00,
4704006,0261300A,true,Rx,0,8,C0,00,00,27,80,40,00,C0,
4705245,0240102A,true,Rx,0,8,C3,00,00,00,00,00,00,00,
4706421,00613DF8,true,Rx,0,8,81,00,00,40,00,00,00,00,
4707607,01800028,true,Rx,0,8,80,00,00,00,00,00,00,00,
4708741,0280142A,true,Rx,0,8,40,50,00,20,17,00,00,00,
4709885,00400066,true,Rx,0,8,40,00,00,04,01,5E,40,7F,
4714733,01C030A2,true,Rx,0,8,C0,5B,40,01,89,01,14,00,
4716040,01613FFC,true,Rx,0,8,11,05,05,05,01,01,01,05,
4720976,01213FFC,true,Rx,0,8,48,02,4C,00,70,00,08,00,
4724465,02001022,true,Rx,0,8,00,00,00,01,35,90,10,43,
4725946,00613DF8,true,Rx,0,8,C3,00,00,40,00,00,00,00,
4730892,02A03028,true,Rx,0,8,00,80,84,01,00,00,00,00,
4734009,0261300A,true,Rx,0,8,00,00,00,27,80,40,00,C0,
4738389,0280142A,true,Rx,0,8,80,50,00,28,17,00,00,00,
4740221,0240102A,true,Rx,0,8,00,00,00,00,00,00,00,00,
4745988,00613DF8,true,Rx,0,8,01,00,00,40,00,00,00,00,
4747152,01213FFC,true,Rx,0,8,88,02,4C,00,60,00,08,00,
4748335,01800028,true,Rx,0,8,C0,00,00,00,00,00,00,00,
4755908,02C13428,true,Rx,0,8,80,00,08,E0,00,00,00,00,
4757050,02E10DF4,true,Rx,0,8,80,A1,00,20,90,00,08,00,
4759521,01C030A2,true,Rx,0,8,00,5B,40,01,89,01,14,00,
4764168,0261300A,true,Rx,0,8,40,00,00,27,80,40,00,C0,
4765958,00613DF8,true,Rx,0,8,43,00,00,40,00,00,00,00,
4767100,02A03028,true,Rx,0,8,00,80,C4,09,00,00,00,00,
4768407,0280142A,true,Rx,0,8,C0,10,00,20,17,00,00,00,
4769542,02001022,true,Rx,0,8,40,00,00,01,35,90,10,43,
4770974,01213FFC,true,Rx,0,8,C8,02,4C,00,70,40,08,00,
4775242,0240102A,true,Rx,0,8,41,00,00,00,00,00,00,00,
4784215,00400066,true,Rx,0,8,80,00,00,05,01,5E,40,7F,
4785974,00613DF8,true,Rx,0,8,81,00,00,40,00,00,00,00,
4787178,01800028,true,Rx,0,8,00,00,00,00,00,00,00,00,
4788351,0340024C,true,Rx,0,8,00,00,00,00,03,8C,00,00,
4794204,0261300A,true,Rx,0,8,80,00,00,27,80,40,00,C0,
4795902,01213FFC,true,Rx,0,8,08,02,4C,00,70,00,08,00,
4798375,0280142A,true,Rx,0,8,00,50,00,20,17,00,00,00,
4800964,02A03028,true,Rx,0,8,00,80,84,01,00,00,00,00,
4802156,03200008,true,Rx,0,8,00,00,00,00,00,80,00,00,
4804710,01C030A2,true,Rx,0,8,40,5B,40,01,89,01,14,00,
4805933,00613DF8,true,Rx,0,8,C3,00,00,40,00,00,00,00,
4810205,0240102A,true,Rx,0,8,81,00,00,00,00,00,00,00,
4811337,02C13428,true,Rx,0,8,C0,00,08,80,00,00,00,00,
4812469,02E10DF4,true,Rx,0,8,C0,A1,20,A0,90,00,08,00,
4814496,02001022,true,Rx,0,8,80,00,00,01,35,90,10,43,
4820878,01213FFC,true,Rx,0,8,48,02,4C,00,60,00,08,00,
4824315,0261300A,true,Rx,0,8,C0,00,00,27,80,40,00,C0,
4825981,00613DF8,true,Rx,0,8,01,00,00,40,00,00,00,00,
4827164,01800028,true,Rx,0,8,40,00,00,00,00,00,00,00,
4828378,0280142A,true,Rx,0,8,40,50,00,20,17,00,00,00,
4835909,02A03028,true,Rx,0,8,00,80,84,01,00,00,00,00,
4845179,0240102A,true,Rx,0,8,C1,00,00,00,00,00,00,00,
4846334,00613DF8,true,Rx,0,8,43,00,00,40,00,00,00,00,
4847485,01213FFC,true,Rx,0,8,88,02,4C,00,70,00,08,00,
4849647,01C030A2,true,Rx,0,8,80,5B,40,01,89,01,14,00,
4854266,0261300A,true,Rx,0,8,00,00,00,27,80,40,00,C0,
4858377,0280142A,true,Rx,0,8,80,10,00,20,17,00,00,00,
4859509,00400066,true,Rx,0,8,C0,00,00,06,01,5E,40,7F,
4860639,02001022,true,Rx,0,8,C0,00,00,01,35,90,10,43,
4866056,00613DF8,true,Rx,0,8,81,00,00,40,00,00,00,00,
4867239,01800028,true,Rx,0,8,80,00,00,00,00,00,00,00,
4868393,02C13428,true,Rx,0,8,00,00,08,80,00,00,00,00,
4869537,02E10DF4,true,Rx,0,8,00,A1,20,A0,90,00,08,00,
4870680,03801028,true,Rx,0,8,C0,00,20,08,1C,43,00,00,
4871826,01213FFC,true,Rx,0,8,C8,02,4C,00,60,40,08,00,
4872979,02A03028,true,Rx,0,8,00,00,54,09,00,00,80,00,
4875244,03C0002A,true,Rx,0,8,00,00,30,C0,2D,00,1F,00,
4880180,0240102A,true,Rx,0,8,00,00,00,00,00,00,00,00,
4884324,0261300A,true,Rx,0,8,40,00,00,27,80,40,00,C0,
4885969,00613DF8,true,Rx,0,8,C3,00,00,40,00,00,00,00,
4888360,0280142A,true,Rx,0,8,C0,50,00,20,17,00,00,00,
4894739,01C030A2,true,Rx,0,8,C0,5B,40,01,89,01,14,00,
4895942,01213FFC,true,Rx,0,8,08,02,4C,00,70,00,08,00,
4904391,02001022,true,Rx,0,8,00,00,00,01,35,90,10,43,
4905965,00613DF8,true,Rx,0,8,01,00,00,40,00,00,00,00,
4907148,01800028,true,Rx,0,8,C0,00,00,00,00,00,00,00,
4908294,02A03028,true,Rx,0,8,00,80,84,01,00,00,00,00,
4909480,03200008,true,Rx,0,8,00,00,00,00,00,80,00,00,
4914362,0261300A,true,Rx,0,8,80,00,00,27,80,40,00,C0,
4915525,0240102A,true,Rx,0,8,41,00,00,00,00,00,00,00,
4918356,0280142A,true,Rx,0,8,00,50,00,20,17,00,00,00,
4921410,01213FFC,true,Rx,0,8,48,02,4C,00,70,00,08,00,
4922540,02C13428,true,Rx,0,8,40,00,08,80,00,00,00,00,
4923682,02E10DF4,true,Rx,0,8,40,A1,00,20,90,00,08,00,
4925895,00613DF8,true,Rx,0,8,43,00,00,40,00,00,00,00,
4934411,00400066,true,Rx,0,8,00,00,00,07,01,5E,40,7F,
4939478,01C030A2,true,Rx,0,8,00,5B,40,01,89,01,14,00,
4940989,02A03028,true,Rx,0,8,00,80,84,01,00,00,00,00,
4944580,0261300A,true,Rx,0,8,C0,00,00,27,80,40,00,C0,
4946020,00613DF8,true,Rx,0,8,81,00,00,40,00,00,00,00,
4947181,01213FFC,true,Rx,0,8,88,02,4C,00,60,00,08,00,
4948380,01800028,true,Rx,0,8,00,00,00,00,00,00,00,00,
4949524,0280142A,true,Rx,0,8,40,10,00,28,17,00,00,00,
4950655,02001022,true,Rx,0,8,40,00,00,01,35,90,10,43,
4951810,0240102A,true,Rx,0,8,81,00,00,00,00,00,00,00,
4965908,00613DF8,true,Rx,0,8,C3,00,00,40,00,00,00,00,
4967040,0340024C,true,Rx,0,8,40,00,00,00,0B,8C,00,00,
4970847,01213FFC,true,Rx,0,8,C8,02,4C,00,70,40,08,00,
4974771,0261300A,true,Rx,0,8,00,00,00,27,80,40,00,C0,
4975913,02A03028,true,Rx,0,8,00,80,C4,09,00,00,00,00,
4977064,02C13428,true,Rx,0,8,80,00,08,80,00,00,00,00,
4978188,02E10DF4,true,Rx,0,8,80,A1,20,A0,90,00,08,00,
4979323,0280142A,true,Rx,0,8,80,50,00,20,17,00,00,00,
4984762,01C030A2,true,Rx,0,8,40,5B,40,01,89,01,14,00,
4985924,0240102A,true,Rx,0,8,C0,00,00,00,00,00,00,00,
4987106,00613DF8,true,Rx,0,8,01,00,00,40,00,00,00,00,
4988294,01800028,true,Rx,0,8,40,00,00,00,00,00,00,00,
4994394,02001022,true,Rx,0,8,80,00,00,01,35,90,10,43,
4995947,01213FFC,true,Rx,0,8,08,02,4C,00,70,00,08,00,
4997078,01613FFC,true,Rx,0,8,16,01,43,04,01,02,01,01,
5004780,0261300A,true,Rx,0,8,40,00,00,27,80,40,00,C0,
5005932,00613DF8,true,Rx,0,8,43,00,00,40,00,00,00,00,
5008362,0280142A,true,Rx,0,8,C0,50,00,20,17,00,00,00,
5009771,00400066,true,Rx,0,8,40,00,00,00,01,5E,40,7F,
5010974,02A03028,true,Rx,0,8,00,80,84,01,00,00,00,00,
5012162,03200008,true,Rx,0,8,00,00,00,00,00,80,00,00,
5020157,0240102A,true,Rx,0,8,01,00,00,00,00,00,00,00,
5021300,01213FFC,true,Rx,0,8,48,02,4C,00,60,00,08,00,
5025956,00613DF8,true,Rx,0,8,81,00,00,40,00,00,00,00,
5027148,01800028,true,Rx,0,8,80,00,00,00,00,00,00,00,
5029506,01C030A2,true,Rx,0,8,80,5B,40,01,89,01,14,00,
5030874,02C13428,true,Rx,0,8,C0,00,08,80,00,00,00,00,
5032026,02E10DF4,true,Rx,0,8,C0,A1,00,20,90,00,08,00,
5035021,0261300A,true,Rx,0,8,80,00,00,27,80,40,00,C0,
5038351,0280142A,true,Rx,0,8,00,10,00,20,17,00,00,00,
5039481,02001022,true,Rx,0,8,C0,00,00,01,35,90,10,43,
5045950,00613DF8,true,Rx,0,8,C3,00,00,40,00,00,00,00,
5047091,01213FFC,true,Rx,0,8,88,02,4C,00,70,00,08,00,
5048233,02A03028,true,Rx,0,8,00,80,84,01,00,00,00,00,
5055144,0240102A,true,Rx,0,8,43,00,00,00,00,00,00,00,
5065132,0261300A,true,Rx,0,8,C0,00,00,27,80,40,00,C0,
5066304,00613DF8,true,Rx,0,8,01,00,00,40,00,00,00,00,
5067498,01800028,true,Rx,0,8,C0,00,00,00,00,00,00,00,
5068632,0280142A,true,Rx,0,8,40,50,00,20,17,00,00,00,
5070930,01213FFC,true,Rx,0,8,C8,02,4C,00,60,40,08,00,
5074832,01C030A2,true,Rx,0,8,C0,5B,40,01,89,01,14,00,
5080953,02A03028,true,Rx,0,8,00,80,C4,09,00,00,00,00,
5084402,02001022,true,Rx,0,8,00,00,00,01,35,90,10,43,
5085553,00400066,true,Rx,0,8,80,00,00,01,01,5E,40,7F,
5086705,00613DF8,true,Rx,0,8,43,00,00,40,00,00,00,00,
5087861,02C13428,true,Rx,0,8,00,00,08,80,00,00,00,00,
5089005,02E10DF4,true,Rx,0,8,00,A1,20,A0,90,00,08,00,
5090221,0240102A,true,Rx,0,8,80,00,00,00,00,00,00,00,
5095193,0261300A,true,Rx,0,8,00,00,00,27,80,40,00,C0,
5096356,01213FFC,true,Rx,0,8,08,02,4C,00,70,00,08,00,
5098333,0280142A,true,Rx,0,8,80,50,00,20,17,00,00,00,
5105930,00613DF8,true,Rx,0,8,81,00,00,40,00,00,00,00,
5107122,01800028,true,Rx,0,8,00,00,00,00,00,00,00,00,
5115894,02A03028,true,Rx,0,8,00,80,94,01,00,00,80,00,
5117075,03200008,true,Rx,0,8,00,00,00,00,00,80,00,00,
5119495,01C030A2,true,Rx,0,8,00,5B,40,01,89,01,14,00,
5120874,01213FFC,true,Rx,0,8,48,02,4C,00,70,00,08,00,
5125186,0240102A,true,Rx,0,8,C1,00,00,00,00,00,00,00,
5126359,00613DF8,true,Rx,0,8,C3,00,00,40,00,00,00,00,
5127481,0261300A,true,Rx,0,8,40,00,00,27,80,40,00,C0,
5128616,0280142A,true,Rx,0,8,C1,10,00,28,17,00,00,00,
5129741,02001022,true,Rx,0,8,40,00,00,01,35,90,10,43,
5140930,02C13428,true,Rx,0,8,40,00,08,80,00,00,00,00,
5142072,02E10DF4,true,Rx,0,8,40,A1,00,20,90,00,08,00,
5145970,00613DF8,true,Rx,0,8,01,00,00,40,00,00,00,00,
5147121,01213FFC,true,Rx,0,8,88,02,4C,00,60,00,08,00,
5148316,01800028,true,Rx,0,8,40,00,00,00,00,00,00,00,
5149461,0340024C,true,Rx,0,8,80,00,00,00,0B,8C,00,00,
5150863,02A03028,true,Rx,0,8,00,00,04,01,00,00,00,00,
5155434,0261300A,true,Rx,0,8,80,00,00,27,80,40,00,C0,
5158333,0280142A,true,Rx,0,8,00,50,00,20,17,00,00,00,
5160153,0240102A,true,Rx,0,8,01,00,00,00,00,00,00,00,
5161307,00400066,true,Rx,0,8,C0,00,00,02,01,5E,40,7F,
5164737,01C030A2,true,Rx,0,8,40,5B,40,01,89,01,14,00,
5166043,00613DF8,true,Rx,0,8,43,00,00,40,00,00,00,00,
5170905,01213FFC,true,Rx,0,8,C8,02,4C,00,70,40,08,00,
5174499,02001022,true,Rx,0,8,80,00,00,01,35,90,10,43,
5185698,0261300A,true,Rx,0,8,C0,00,00,27,80,40,00,C0,
5186881,00613DF8,true,Rx,0,8,81,00,00,40,00,00,00,00,
5188064,01800028,true,Rx,0,8,80,00,00,00,00,00,00,00,
5189198,0280142A,true,Rx,0,8,40,50,00,20,17,00,00,00,
5190344,02A03028,true,Rx,0,8,00,80,C4,09,00,00,00,00,
5191489,03801028,true,Rx,0,8,00,00,20,08,1C,43,00,00,
5195154,0240102A,true,Rx,0,8,41,00,00,00,00,00,00,00,
5196318,01213FFC,true,Rx,0,8,08,02,4C,00,70,00,08,00,
5197469,02C13428,true,Rx,0,8,80,00,08,80,00,00,00,00,
5198593,02E10DF4,true,Rx,0,8,80,A1,20,A0,90,00,08,00,
5205895,00613DF8,true,Rx,0,8,C3,00,00,40,00,00,00,00,
5209529,01C030A2,true,Rx,0,8,80,5B,40,01,89,01,14,00,
5215682,0261300A,true,Rx,0,8,00,00,00,27,80,40,00,C0,
5218331,0280142A,true,Rx,0,8,80,10,00,20,17,00,00,00,
5219473,02001022,true,Rx,0,8,C0,00,00,01,35,90,10,43,
5220975,01213FFC,true,Rx,0,8,48,02,4C,00,60,00,08,00,
5222121,02A03028,true,Rx,0,8,00,80,84,01,00,00,00,00,
5223308,03200008,true,Rx,0,8,00,00,00,00,00,80,00,00,
5225942,00613DF8,true,Rx,0,8,01,00,00,40,00,00,00,00,
5227125,01800028,true,Rx,0,8,C0,00,00,00,00,00,00,00,
5230142,0240102A,true,Rx,0,8,80,00,00,00,00,00,00,00,
5235744,00400066,true,Rx,0,8,00,00,00,03,01,5E,40,7F,
5245854,0261300A,true,Rx,0,8,40,00,00,27,80,40,00,C0,
5247017,00613DF8,true,Rx,0,8,43,00,00,40,00,00,00,00,
5248158,01213FFC,true,Rx,0,8,88,02,4C,00,70,00,08,00,
5249283,0280142A,true,Rx,0,8,C0,50,00,20,17,00,00,00,
5250901,02C13428,true,Rx,0,8,C0,00,08,80,00,00,00,00,
5252042,02E10DF4,true,Rx,0,8,C0,A1,00,20,90,00,08,00,
5254875,01C030A2,true,Rx,0,8,C0,5B,40,01,89,01,14,00,
5256026,02A03028,true,Rx,0,8,00,80,C4,09,00,00,00,00,
5264408,02001022,true,Rx,0,8,00,00,00,01,35,90,10,43,
5265561,0240102A,true,Rx,0,8,C1,00,00,00,00,00,00,00,
5266743,00613DF8,true,Rx,0,8,81,00,00,40,00,00,00,00,
5267940,01800028,true,Rx,0,8,00,00,00,00,00,00,00,00,
5270889,01213FFC,true,Rx,0,8,C8,02,4C,00,60,40,08,00,
5275860,01613FFC,true,Rx,0,8,01,0F,B0,60,91,34,00,09,
5276991,0261300A,true,Rx,0,8,80,00,00,27,80,40,00,C0,
5278359,0280142A,true,Rx,0,8,00,50,00,20,17,00,00,00,
5285093,03C0002A,true,Rx,0,8,00,00,30,C0,2D,00,9F,00,
5286265,00613DF8,true,Rx,0,8,C3,00,00,40,00,00,00,00,
5291065,02A03028,true,Rx,0,8,00,80,84,01,00,00,00,00,
5295891,01213FFC,true,Rx,0,8,08,02,4C,00,70,00,08,00,
5299578,01C030A2,true,Rx,0,8,00,5B,40,01,89,01,14,00,
5300760,0240102A,true,Rx,0,8,01,00,00,00,00,00,00,00,
5306007,00613DF8,true,Rx,0,8,01,00,00,40,00,00,00,00,
5307200,01800028,true,Rx,0,8,40,00,00,00,00,00,00,00,
5308322,0261300A,true,Rx,0,8,C0,00,00,27,80,40,00,C0,
5309447,0280142A,true,Rx,0,8,40,10,00,20,17,00,00,00,
5310570,02001022,true,Rx,0,8,40,00,00,01,35,90,10,43,
5311706,00400066,true,Rx,0,8,40,00,00,04,01,5E,40,7F,
5312859,02C13428,true,Rx,0,8,00,00,08,80,00,00,00,00,
5314005,02E10DF4,true,Rx,0,8,00,A1,20,A0,90,00,08,00,
5320926,01213FFC,true,Rx,0,8,48,02,4C,00,70,00,08,00,
5325886,00613DF8,true,Rx,0,8,43,00,00,40,00,00,00,00,
5327028,02A03028,true,Rx,0,8,00,80,84,01,00,00,00,00,
5328210,03200008,true,Rx,0,8,00,00,00,00,00,80,00,00,
5329367,0340024C,true,Rx,0,8,C0,00,00,00,03,8C,00,00,
5335112,0240102A,true,Rx,0,8,40,00,00,00,00,00,00,00,
5336328,0261300A,true,Rx,0,8,00,00,00,27,80,40,00,C0,
5338314,0280142A,true,Rx,0,8,80,50,00,28,17,00,00,00,
5344752,01C030A2,true,Rx,0,8,40,5B,40,01,89,01,14,00,
5346005,00613DF8,true,Rx,0,8,81,00,00,40,00,00,00,00,
5347168,01213FFC,true,Rx,0,8,88,02,4C,00,60,00,08,00,
5348345,01800028,true,Rx,0,8,80,00,00,00,00,00,00,00,
5354424,02001022,true,Rx,0,8,80,00,00,01,35,90,10,43,
5360920,02A03028,true,Rx,0,8,00,80,C4,09,00,00,00,00,
5362060,02C13428,true,Rx,0,8,40,00,08,80,00,00,00,00,
5363192,02E10DF4,true,Rx,0,8,40,A1,20,A0,90,00,08,00,
5365920,00613DF8,true,Rx,0,8,C3,00,00,40,00,00,00,00,
5367042,0261300A,true,Rx,0,8,40,00,00,27,80,40,00,C0,
5368321,0280142A,true,Rx,0,8,C0,50,00,20,17,00,00,00,
5370145,0240102A,true,Rx,0,8,81,00,00,00,00,00,00,00,
5371297,01213FFC,true,Rx,0,8,C8,02,4C,00,70,40,08,00,
5385915,00613DF8,true,Rx,0,8,01,00,00,40,00,00,00,00,
5387057,00400066,true,Rx,0,8,80,00,00,05,01,5E,40,7F,
5388240,01800028,true,Rx,0,8,C0,00,00,00,00,00,00,00,
5389531,01C030A2,true,Rx,0,8,80,5B,40,01,89,01,14,00,
5395910,01213FFC,true,Rx,0,8,08,02,4C,00,70,00,08,00,
5397032,0261300A,true,Rx,0,8,80,00,00,27,80,40,00,C0,
5398183,02A03028,true,Rx,0,8,00,80,94,01,00,00,80,00,
5399320,0280142A,true,Rx,0,8,00,10,00,20,17,00,00,00,
5400452,02001022,true,Rx,0,8,C0,00,00,01,35,90,10,43,
5405123,0240102A,true,Rx,0,8,C3,00,00,00,00,00,00,00,
5406287,00613DF8,true,Rx,0,8,43,00,00,40,00,00,00,00,
5415904,02C13428,true,Rx,0,8,80,00,08,80,00,00,00,00,
5417036,02E10DF4,true,Rx,0,8,80,A1,00,20,90,00,08,00,
5420831,01213FFC,true,Rx,0,8,48,02,4C,00,60,00,08,00,
5425947,00613DF8,true,Rx,0,8,81,00,00,40,00,00,00,00,
5427150,01800028,true,Rx,0,8,00,00,00,00,00,00,00,00,
5428272,0261300A,true,Rx,0,8,C0,00,00,27,80,40,00,C0,
5429407,0280142A,true,Rx,0,8,40,50,00,20,17,00,00,00,
5430911,02A03028,true,Rx,0,8,00,00,04,01,00,00,00,00,
5432094,03200008,true,Rx,0,8,00,00,00,00,00,80,00,00,
5434761,01C030A2,true,Rx,0,8,C0,5B,40,01,89,01,14,00,
5440097,0240102A,true,Rx,0,8,00,00,00,00,00,00,00,00,
5444417,02001022,true,Rx,0,8,00,00,00,01,35,90,10,43,
5445970,00613DF8,true,Rx,0,8,C3,00,00,40,00,00,00,00,
5447121,01213FFC,true,Rx,0,8,88,02,4C,00,70,00,08,00,
5457599,0261300A,true,Rx,0,8,00,00,00,27,80,40,00,C0,
5458729,0280142A,true,Rx,0,8,80,50,00,20,17,00,00,00,
5462504,00400066,true,Rx,0,8,C0,00,00,06,01,5E,40,7F,
5466013,00613DF8,true,Rx,0,8,01,00,00,40,00,00,00,00,
5467206,01800028,true,Rx,0,8,40,00,00,00,00,00,00,00,
5468349,02A03028,true,Rx,0,8,00,80,C4,09,00,00,00,00,
5470870,01213FFC,true,Rx,0,8,C8,02,4C,00,60,40,08,00,
5472005,02C13428,true,Rx,0,8,C0,00,08,80,00,00,00,00,
5473128,02E10DF4,true,Rx,0,8,C0,A1,20,A0,90,00,08,00,
5475207,0240102A,true,Rx,0,8,41,00,00,00,00,00,00,00,
5479552,01C030A2,true,Rx,0,8,00,5B,40,01,89,01,14,00,
5485932,00613DF8,true,Rx,0,8,43,00,00,40,00,00,00,00,
5487887,0261300A,true,Rx,0,8,40,00,00,27,80,40,00,C0,
5489009,0280142A,true,Rx,0,8,C0,10,00,20,17,00,00,00,
5490139,02001022,true,Rx,0,8,40,00,00,01,35,90,10,43,
5495921,01213FFC,true,Rx,0,8,08,02,4C,00,70,00,08,00,
5500911,02A03028,true,Rx,0,8,00,80,84,01,00,00,00,00,
5505915,00613DF8,true,Rx,0,8,81,00,00,40,00,00,00,00,
5507097,01800028,true,Rx,0,8,80,00,00,00,00,00,00,00,
5508239,0340024C,true,Rx,0,8,00,00,00,00,0B,8C,00,00,
5509375,03801028,true,Rx,0,8,40,00,20,08,5C,43,00,00,
5510539,0240102A,true,Rx,0,8,81,00,00,00,00,00,00,00,
5517864,0261300A,true,Rx,0,8,80,00,00,27,80,40,00,C0,
5519016,0280142A,true,Rx,0,8,00,50,00,20,17,00,00,00,
5520941,01213FFC,true,Rx,0,8,48,02,4C,00,70,00,08,00,
5524839,01C030A2,true,Rx,0,8,40,5B,40,01,89,01,14,00,
5526001,00613DF8,true,Rx,0,8,C3,00,00,40,00,00,00,00,
5527153,02C13428,true,Rx,0,8,00,00,08,80,00,00,00,00,
5528300,02E10DF4,true,Rx,0,8,00,A1,00,20,90,00,08,00,
5534463,02001022,true,Rx,0,8,80,00,00,01,35,90,10,43,
5535903,02A03028,true,Rx,0,8,00,80,84,01,00,00,00,00,
5537095,03200008,true,Rx,0,8,00,00,00,00,00,80,00,00,
5538231,00400066,true,Rx,0,8,00,00,00,07,01,5E,40,7F,
5545088,0240102A,true,Rx,0,8,C1,00,00,00,00,00,00,00,
5546259,00613DF8,true,Rx,0,8,01,00,00,40,00,00,00,00,
5547423,01213FFC,true,Rx,0,8,88,02,4C,00,60,00,08,00,
5548599,01800028,true,Rx,0,8,C0,00,00,00,00,00,00,00,
5549722,0261300A,true,Rx,0,8,C0,00,00,27,80,40,00,C0,
5550849,0280142A,true,Rx,0,8,40,50,00,28,17,00,00,00,
5555935,01613FFC,true,Rx,0,8,05,00,2C,92,00,00,07,A8,
5565880,00613DF8,true,Rx,0,8,43,00,00,40,00,00,00,00,
5569544,01C030A2,true,Rx,0,8,80,5B,40,01,89,01,14,00,
5570851,01213FFC,true,Rx,0,8,C8,02,4C,00,70,40,08,00,
5571993,02A03028,true,Rx,0,8,00,80,C4,09,00,00,00,00,
5578283,0280142A,true,Rx,0,8,80,10,00,20,17,00,00,00,
5579413,0261300A,true,Rx,0,8,00,00,00,27,80,40,00,C0,
5580535,02001022,true,Rx,0,8,C0,00,00,01,35,90,10,43,
5581720,0240102A,true,Rx,0,8,00,00,00,00,00,00,00,00,
5582854,02C13428,true,Rx,0,8,40,00,08,80,00,00,00,00,
5583989,02E10DF4,true,Rx,0,8,40,A1,20,A0,90,00,08,00,
5585978,00613DF8,true,Rx,0,8,81,00,00,40,00,00,00,00,
5587180,01800028,true,Rx,0,8,00,00,00,00,00,00,00,00,
5595909,01213FFC,true,Rx,0,8,08,02,4C,00,70,00,08,00,
5605916,00613DF8,true,Rx,0,8,C3,00,00,40,00,00,00,00,
5607057,02A03028,true,Rx,0,8,00,80,94,01,00,00,80,00,
5608323,0280142A,true,Rx,0,8,C0,50,00,20,17,00,00,00,
5609447,0261300A,true,Rx,0,8,40,00,00,27,80,40,00,C0,
5613424,00400066,true,Rx,0,8,40,00,00,00,01,5E,40,7F,
5614770,01C030A2,true,Rx,0,8,C0,5B,40,01,89,01,14,00,
5615943,0240102A,true,Rx,0,8,41,00,00,00,00,00,00,00,
5620956,01213FFC,true,Rx,0,8,48,02,4C,00,60,00,08,00,
5624508,02001022,true,Rx,0,8,00,00,00,01,35,90,10,43,
5625938,00613DF8,true,Rx,0,8,01,00,00,40,00,00,00,00,
5627130,01800028,true,Rx,0,8,40,00,00,00,00,00,00,00,
5635878,02C13428,true,Rx,0,8,80,00,08,80,00,00,00,00,
5637008,02E10DF4,true,Rx,0,8,80,A1,00,20,90,00,08,00,
5638273,0280142A,true,Rx,0,8,00,50,00,20,17,00,00,00,
5639399,0261300A,true,Rx,0,8,80,00,00,27,80,40,00,C0,
5640913,02A03028,true,Rx,0,8,00,80,84,01,00,00,00,00,
5642096,03200008,true,Rx,0,8,00,00,00,00,00,80,00,00,
5645927,00613DF8,true,Rx,0,8,43,00,00,40,00,00,00,00,
5647068,01213FFC,true,Rx,0,8,88,02,4C,00,70,00,08,00,
5650137,0240102A,true,Rx,0,8,81,00,00,00,00,00,00,00,
5659516,01C030A2,true,Rx,0,8,00,5B,40,01,89,01,14,00,
5665967,00613DF8,true,Rx,0,8,81,00,00,40,00,00,00,00,
5667150,01800028,true,Rx,0,8,80,00,00,00,00,00,00,00,
5668282,0280142A,true,Rx,0,8,40,10,00,20,17,00,00,00,
5669396,0261300A,true,Rx,0,8,C0,00,00,27,80,40,00,C0,
5670520,02001022,true,Rx,0,8,40,00,00,01,35,90,10,43,
5671664,01213FFC,true,Rx,0,8,C8,02,4C,00,60,40,08,00,
5675931,02A03028,true,Rx,0,8,00,80,C4,09,00,00,00,00,
5685069,0240102A,true,Rx,0,8,C0,00,00,00,00,00,00,00,
5686231,00613DF8,true,Rx,0,8,C3,00,00,40,00,00,00,00,
5687374,0340024C,true,Rx,0,8,40,00,00,00,0B,8C,00,00,
5688767,00400066,true,Rx,0,8,80,00,00,01,01,5E,40,7F,
5690983,02C13428,true,Rx,0,8,C0,00,08,80,00,00,00,00,
5692113,02E10DF4,true,Rx,0,8,C0,A1,20,A0,90,00,08,00,
5695100,03C0002A,true,Rx,0,8,00,00,30,C0,2D,00,1F,00,
5696261,01213FFC,true,Rx,0,8,08,02,4C,00,70,00,08,00,
5698248,0280142A,true,Rx,0,8,80,50,00,20,17,00,00,00,
5699381,0261300A,true,Rx,0,8,00,00,00,27,80,40,00,C0,
5704766,01C030A2,true,Rx,0,8,40,5B,40,01,89,01,14,00,
5705958,00613DF8,true,Rx,0,8,01,00,00,40,00,00,00,00,
5707141,01800028,true,Rx,0,8,C0,00,00,00,00,00,00,00,
5710901,02A03028,true,Rx,0,8,00,00,04,01,00,00,00,00,
5714432,02001022,true,Rx,0,8,80,00,00,01,35,90,10,43,
5720065,0240102A,true,Rx,0,8,01,00,00,00,00,00,00,00,
5721217,01213FFC,true,Rx,0,8,48,02,4C,00,70,00,08,00,
5725924,00613DF8,true,Rx,0,8,43,00,00,40,00,00,00,00,
5728242,0280142A,true,Rx,0,8,C0,50,00,28,17,00,00,00,
5729356,0261300A,true,Rx,0,8,40,00,00,27,80,40,00,C0,
5745936,00613DF8,true,Rx,0,8,81,00,00,40,00,00,00,00,
5747099,01213FFC,true,Rx,0,8,88,02,4C,00,60,00,08,00,
5748303,01800028,true,Rx,0,8,00,00,00,00,00,00,00,00,
5749449,02A03028,true,Rx,0,8,00,80,84,01,00,00,00,00,
5750551,01C030A2,true,Rx,0,8,80,5B,40,01,89,01,14,00,
5751697,02C13428,true,Rx,0,8,00,00,08,80,00,00,00,00,
5752840,02E10DF4,true,Rx,0,8,00,A1,00,20,90,00,08,00,
5754033,03200008,true,Rx,0,8,00,00,00,00,00,80,00,00,
5755178,0240102A,true,Rx,0,8,43,00,00,00,00,00,00,00,
5758250,0280142A,true,Rx,0,8,00,10,00,20,17,00,00,00,
5759382,0261300A,true,Rx,0,8,80,00,00,27,80,40,00,C0,
5760513,02001022,true,Rx,0,8,C0,00,00,01,35,90,10,43,
5764250,00400066,true,Rx,0,8,C0,00,00,02,01,5E,40,7F,
5765948,00613DF8,true,Rx,0,8,C3,00,00,40,00,00,00,00,
5770960,01213FFC,true,Rx,0,8,C8,02,4C,00,70,40,08,00,
5780823,02A03028,true,Rx,0,8,00,80,C4,09,00,00,00,00,
5785927,00613DF8,true,Rx,0,8,01,00,00,40,00,00,00,00,
5787121,01800028,true,Rx,0,8,40,00,00,00,00,00,00,00,
5788262,0280142A,true,Rx,0,8,40,50,00,20,17,00,00,00,
5789409,0261300A,true,Rx,0,8,C0,00,00,27,80,40,00,C0,
5790572,0240102A,true,Rx,0,8,80,00,00,00,00,00,00,00,
5794790,01C030A2,true,Rx,0,8,C0,5B,40,01,89,01,14,00,
5795962,01213FFC,true,Rx,0,8,08,02,4C,00,70,00,08,00,
5800930,02C13428,true,Rx,0,8,40,00,08,80,00,00,00,00,
5802071,02E10DF4,true,Rx,0,8,40,A1,20,A0,90,00,08,00,
5804472,02001022,true,Rx,0,8,00,00,00,01,35,90,10,43,
5805891,00613DF8,true,Rx,0,8,43,00,00,40,00,00,00,00,
5815853,02A03028,true,Rx,0,8,00,80,84,01,00,00,00,00,
5818232,0280142A,true,Rx,0,8,80,50,00,20,17,00,00,00,
5819539,0261300A,true,Rx,0,8,00,00,00,27,80,40,00,C0,
5820887,01213FFC,true,Rx,0,8,48,02,4C,00,60,00,08,00,
5825095,0240102A,true,Rx,0,8,C1,00,00,00,00,00,00,00,
5826279,00613DF8,true,Rx,0,8,81,00,00,40,00,00,00,00,
5827461,01800028,true,Rx,0,8,80,00,00,00,00,00,00,00,
5828607,03801028,true,Rx,0,8,80,00,20,08,1C,43,00,00,
5835857,01613FFC,true,Rx,0,8,12,01,01,02,05,02,05,01,
5839564,00400066,true,Rx,0,8,00,00,00,03,01,5E,40,7F,
5840685,01C030A2,true,Rx,0,8,00,5B,40,01,89,01,14,00,
5846086,00613DF8,true,Rx,0,8,C3,00,00,40,00,00,00,00,
5847226,01213FFC,true,Rx,0,8,88,02,4C,00,70,00,08,00,
5848359,0280142A,true,Rx,0,8,C0,10,00,20,17,00,00,00,
5849627,02001022,true,Rx,0,8,40,00,00,01,35,90,10,43,
5850751,0261300A,true,Rx,0,8,40,00,00,27,80,40,00,C0,
5851896,02A03028,true,Rx,0,8,00,80,84,01,00,00,00,00,
5853071,03200008,true,Rx,0,8,00,00,00,00,00,80,00,00,
5855932,02C13428,true,Rx,0,8,80,00,08,80,00,00,00,00,
5857064,02E10DF4,true,Rx,0,8,80,A1,20,A0,90,00,08,00,
5860102,0240102A,true,Rx,0,8,01,00,00,00,00,00,00,00,
5865921,00613DF8,true,Rx,0,8,01,00,00,40,00,00,00,00,
5867104,01800028,true,Rx,0,8,C0,00,00,00,00,00,00,00,
5868256,0340024C,true,Rx,0,8,80,00,00,00,0B,8C,00,00,
5870810,01213FFC,true,Rx,0,8,C8,02,4C,00,60,40,08,00,
5878239,0280142A,true,Rx,0,8,00,50,00,20,17,00,00,00,
5879680,0261300A,true,Rx,0,8,80,00,00,27,80,40,00,C0,
5884774,01C030A2,true,Rx,0,8,40,5B,40,01,89,01,14,00,
5885935,00613DF8,true,Rx,0,8,43,00,00,40,00,00,00,00,
5887077,02A03028,true,Rx,0,8,00,80,D4,09,00,00,80,00,
5894445,02001022,true,Rx,0,8,80,00,00,01,35,90,10,43,
5895607,0240102A,true,Rx,0,8,41,00,00,00,00,00,00,00,
5896769,01213FFC,true,Rx,0,8,08,02,4C,00,70,00,08,00,
5905928,00613DF8,true,Rx,0,8,81,00,00,40,00,00,00,00,
5907131,01800028,true,Rx,0,8,00,00,00,00,00,00,00,00,
5908263,0280142A,true,Rx,0,8,40,50,00,20,17,00,00,00,
5909811,0261300A,true,Rx,0,8,C0,00,00,27,80,40,00,C0,
5910944,02C13428,true,Rx,0,8,C0,00,08,80,00,00,00,00,
5912085,02E10DF4,true,Rx,0,8,C0,A1,00,20,90,00,08,00,
5914824,00400066,true,Rx,0,8,40,00,00,04,01,5E,40,7F,
5921002,01213FFC,true,Rx,0,8,48,02,4C,00,70,00,08,00,
5922144,02A03028,true,Rx,0,8,00,80,84,01,00,00,00,00,
5925865,00613DF8,true,Rx,0,8,C3,00,00,40,00,00,00,00,
5929562,01C030A2,true,Rx,0,8,80,5B,40,01,89,01,14,00,
5930726,0240102A,true,Rx,0,8,80,00,00,00,00,00,00,00,
5938230,0280142A,true,Rx,0,8,80,10,00,28,17,00,00,00,
5939495,02001022,true,Rx,0,8,C0,00,00,01,35,90,10,43,
5940627,0261300A,true,Rx,0,8,00,00,00,27,80,40,00,C0,
5945972,00613DF8,true,Rx,0,8,01,00,00,40,00,00,00,00,
5947133,01213FFC,true,Rx,0,8,88,02,4C,00,60,00,08,00,
5948318,01800028,true,Rx,0,8,40,00,00,00,00,00,00,00,
5955880,02A03028,true,Rx,0,8,00,80,84,09,00,00,00,00,
5957062,03200008,true,Rx,0,8,00,00,00,00,00,80,00,00,
5965032,0240102A,true,Rx,0,8,C1,00,00,00,00,00,00,00,
5966195,00613DF8,true,Rx,0,8,43,00,00,40,00,00,00,00,
5967347,02C13428,true,Rx,0,8,00,00,08,80,00,00,00,00,
5968473,0280142A,true,Rx,0,8,C0,50,00,20,17,00,00,00,
5969616,02E10DF4,true,Rx,0,8,00,A1,20,A0,90,00,08,00,
5970741,0261300A,true,Rx,0,8,40,00,00,27,80,40,00,C0,
5971884,01213FFC,true,Rx,0,8,C8,02,4C,00,70,40,08,00,
5974921,01C030A2,true,Rx,0,8,C0,5B,40,01,89,01,14,00,
5984433,02001022,true,Rx,0,8,00,00,00,01,35,90,10,43,
5985935,00613DF8,true,Rx,0,8,81,00,00,40,00,00,00,00,
5987116,01800028,true,Rx,0,8,80,00,00,00,00,00,00,00,
5990000,00400066,true,Rx,0,8,80,00,00,05,01,5E,40,7F,
5991150,02A03028,true,Rx,0,8,00,00,44,01,00,00,00,00,
5995950,01213FFC,true,Rx,0,8,08,02,4C,00,70,00,08,00,
5998215,0280142A,true,Rx,0,8,00,50,00,20,17,00,00,00,
6000100,0240102A,true,Rx,0,8,01,00,00,00,00,00,00,00,
6001222,0261300A,true,Rx,0,8,80,00,00,27,80,40,00,C0,
6005908,00613DF8,true,Rx,0,8,C3,00,00,40,00,00,00,00,
6019542,01C030A2,true,Rx,0,8,00,5B,40,01,89,01,14,00,
6020838,01213FFC,true,Rx,0,8,48,02,4C,00,60,00,08,00,
6021970,02C13428,true,Rx,0,8,40,00,08,80,00,00,00,00,
6023105,02E10DF4,true,Rx,0,8,40,A1,00,20,90,00,08,00,
6025954,00613DF8,true,Rx,0,8,01,00,00,40,00,00,00,00,
6027135,01800028,true,Rx,0,8,C0,00,00,00,00,00,00,00,
6028267,0280142A,true,Rx,0,8,40,10,00,20,17,00,00,00,
6029413,02A03028,true,Rx,0,8,00,80,84,01,00,00,00,00,
6030537,02001022,true,Rx,0,8,40,00,00,01,35,90,10,43,
6031661,0261300A,true,Rx,0,8,C0,00,00,27,80,40,00,C0,
6035026,0240102A,true,Rx,0,8,40,00,00,00,00,00,00,00,
6045883,00613DF8,true,Rx,0,8,43,00,00,40,00,00,00,00,
6047024,01213FFC,true,Rx,0,8,88,02,4C,00,70,00,08,00,
6048176,0340024C,true,Rx,0,8,C0,00,00,00,03,8C,00,00,
6058196,0280142A,true,Rx,0,8,80,50,00,20,17,00,00,00,
6060629,0261300A,true,Rx,0,8,00,00,00,27,80,40,00,C0,
6061770,02A03028,true,Rx,0,8,00,80,C4,09,00,00,00,00,
6062953,03200008,true,Rx,0,8,00,00,00,00,00,80,00,00,
6064784,01C030A2,true,Rx,0,8,40,5B,40,01,89,01,14,00,
6065920,00400066,true,Rx,0,8,C0,00,00,06,01,5E,40,7F,
6067094,00613DF8,true,Rx,0,8,81,00,00,40,00,00,00,00,
6068293,01800028,true,Rx,0,8,00,00,00,00,00,00,00,00,
6070044,0240102A,true,Rx,0,8,81,00,00,00,00,00,00,00,
6071186,01213FFC,true,Rx,0,8,C8,02,4C,00,60,40,08,00,
6074535,02001022,true,Rx,0,8,80,00,00,01,35,90,10,43,
6075933,02C13428,true,Rx,0,8,80,00,08,80,00,00,00,00,
6077054,02E10DF4,true,Rx,0,8,80,A1,20,A0,90,00,08,00,
6085893,00613DF8,true,Rx,0,8,C3,00,00,40,00,00,00,00,
6088190,0280142A,true,Rx,0,8,C0,50,00,20,17,00,00,00,
6090686,0261300A,true,Rx,0,8,40,00,00,27,80,40,00,C0,
6095916,01213FFC,true,Rx,0,8,08,02,4C,00,70,00,08,00,
6097067,02A03028,true,Rx,0,8,00,80,84,01,00,00,00,00,
6105018,0240102A,true,Rx,0,8,C3,00,00,00,00,00,00,00,
6106190,00613DF8,true,Rx,0,8,01,00,00,40,00,00,00,00,
6107385,01800028,true,Rx,0,8,40,00,00,00,00,00,00,00,
6108509,03C0002A,true,Rx,0,8,00,00,30,C0,2D,00,9F,00,
6109612,01C030A2,true,Rx,0,8,80,5B,40,01,89,01,14,00,
6115859,01613FFC,true,Rx,0,8,17,01,01,03,02,02,02,02,
6118197,0280142A,true,Rx,0,8,01,10,00,20,17,00,00,00,
6119577,02001022,true,Rx,0,8,C0,00,00,01,35,90,10,43,
6120924,01213FFC,true,Rx,0,8,48,02,4C,00,70,00,08,00,
6122049,0261300A,true,Rx,0,8,80,00,00,27,80,40,00,C0,
6125893,00613DF8,true,Rx,0,8,43,00,00,40,00,00,00,00,
6130843,02A03028,true,Rx,0,8,00,80,94,01,00,00,80,00,
6131985,02C13428,true,Rx,0,8,C0,00,08,80,00,00,00,00,
6133115,02E10DF4,true,Rx,0,8,C0,A1,00,20,90,00,08,00,
6140004,0240102A,true,Rx,0,8,00,00,00,00,00,00,00,00,
6141147,00400066,true,Rx,0,8,00,00,00,07,01,5E,40,7F,
6146081,00613DF8,true,Rx,0,8,81,00,00,40,00,00,00,00,
6147244,01213FFC,true,Rx,0,8,88,02,4C,00,60,00,08,00,
6148427,01800028,true,Rx,0,8,80,00,00,00,00,00,00,00,
6149553,0280142A,true,Rx,0,8,40,50,00,28,17,00,00,00,
6150696,03801028,true,Rx,0,8,C0,00,20,08,1C,43,00,00,
6151811,0261300A,true,Rx,0,8,C0,00,00,27,80,40,00,C0,
6154802,01C030A2,true,Rx,0,8,C0,5B,40,01,89,01,14,00,
6164438,02001022,true,Rx,0,8,00,00,00,01,35,90,10,43,
6165888,00613DF8,true,Rx,0,8,C3,00,00,40,00,00,00,00,
6167030,02A03028,true,Rx,0,8,00,80,C4,09,00,00,00,00,
6168216,03200008,true,Rx,0,8,00,00,00,00,00,80,00,00,
6170825,01213FFC,true,Rx,0,8,C8,02,4C,00,70,40,08,00,
6175060,0240102A,true,Rx,0,8,41,00,00,00,00,00,00,00,
6178186,0280142A,true,Rx,0,8,80,50,00,20,17,00,00,00,
6181334,0261300A,true,Rx,0,8,00,00,00,27,80,40,00,C0,
6185910,00613DF8,true,Rx,0,8,01,00,00,40,00,00,00,00,
6187093,01800028,true,Rx,0,8,C0,00,00,00,00,00,00,00,
6188244,02C13428,true,Rx,0,8,00,00,08,80,00,00,00,00,
6189391,02E10DF4,true,Rx,0,8,00,A1,20,A0,90,00,08,00,
6195863,01213FFC,true,Rx,0,8,08,02,4C,00,70,00,08,00,
6199632,01C030A2,true,Rx,0,8,00,5B,40,01,89,01,14,00,
6200834,02A03028,true,Rx,0,8,00,80,84,01,00,00,00,00,
6205904,00613DF8,true,Rx,0,8,43,00,00,40,00,00,00,00,
6208201,0280142A,true,Rx,0,8,C0,10,00,20,17,00,00,00,
6209549,02001022,true,Rx,0,8,40,00,00,01,35,90,10,43,
6210711,0240102A,true,Rx,0,8,81,00,00,00,00,00,00,00,
6211836,0261300A,true,Rx,0,8,40,00,00,27,80,40,00,C0,
6216414,00400066,true,Rx,0,8,40,00,00,00,01,5E,40,7F,
6220980,01213FFC,true,Rx,0,8,48,02,4C,00,60,00,08,00,
6225889,00613DF8,true,Rx,0,8,81,00,00,40,00,00,00,00,
6227083,01800028,true,Rx,0,8,00,00,00,00,00,00,00,00,
6228234,0340024C,true,Rx,0,8,00,00,00,00,0B,8C,00,00,
6235838,02A03028,true,Rx,0,8,00,80,84,01,00,00,00,00,
6238187,0280142A,true,Rx,0,8,00,50,00,20,17,00,00,00,
6240878,02C13428,true,Rx,0,8,40,00,08,80,00,00,00,00,
6242009,0261300A,true,Rx,0,8,80,00,00,27,80,40,00,C0,
6243141,02E10DF4,true,Rx,0,8,40,A1,00,20,90,00,08,00,
6244843,01C030A2,true,Rx,0,8,40,5B,40,01,89,01,14,00,
6246018,00613DF8,true,Rx,0,8,C3,00,00,40,00,00,00,00,
6247160,01213FFC,true,Rx,0,8,88,02,4C,00,70,00,08,00,
6248318,0240102A,true,Rx,0,8,C1,00,00,00,00,00,00,00,
6254458,02001022,true,Rx,0,8,80,00,00,01,35,90,10,43,
6265916,00613DF8,true,Rx,0,8,01,00,00,40,00,00,00,00,
6267099,01800028,true,Rx,0,8,40,00,00,00,00,00,00,00,
6268240,0280142A,true,Rx,0,8,40,50,00,20,17,00,00,00,
6270866,01213FFC,true,Rx,0,8,C8,02,4C,00,60,40,08,00,
6271986,0261300A,true,Rx,0,8,C0,00,00,27,80,40,00,C0,
6273132,02A03028,true,Rx,0,8,00,00,44,09,00,00,00,00,
6274318,03200008,true,Rx,0,8,00,00,00,00,00,80,00,00,
6280004,0240102A,true,Rx,0,8,00,00,00,00,00,00,00,00,
6285867,00613DF8,true,Rx,0,8,43,00,00,40,00,00,00,00,
6289574,01C030A2,true,Rx,0,8,80,5B,40,01,89,01,14,00,
6292057,00400066,true,Rx,0,8,80,00,00,01,01,5E,40,7F,
6295971,01213FFC,true,Rx,0,8,08,02,4C,00,70,00,08,00,
6297123,02C13428,true,Rx,0,8,80,00,08,80,00,00,00,00,
6298274,0280142A,true,Rx,0,8,80,10,00,20,17,00,00,00,
6299401,02E10DF4,true,Rx,0,8,80,A1,20,A0,90,00,08,00,
6300523,02001022,true,Rx,0,8,C0,00,00,01,35,90,10,43,
6302285,0261300A,true,Rx,0,8,00,00,00,27,80,40,00,C0,
6305930,00613DF8,true,Rx,0,8,81,00,00,40,00,00,00,00,
6307113,01800028,true,Rx,0,8,80,00,00,00,00,00,00,00,
6308254,02A03028,true,Rx,0,8,00,80,84,01,00,00,00,00,
6314987,0240102A,true,Rx,0,8,41,00,00,00,00,00,00,00,
6320818,01213FFC,true,Rx,0,8,48,02,4C,00,70,00,08,00,
6325882,00613DF8,true,Rx,0,8,C3,00,00,40,00,00,00,00,
6328159,0280142A,true,Rx,0,8,C0,50,00,28,17,00,00,00,
6332249,0261300A,true,Rx,0,8,40,00,00,27,80,40,00,C0,
6334815,01C030A2,true,Rx,0,8,C0,5B,40,01,89,01,14,00,
6340915,02A03028,true,Rx,0,8,00,80,84,01,00,00,00,00,
6344445,02001022,true,Rx,0,8,00,00,00,01,35,90,10,43,
6345967,00613DF8,true,Rx,0,8,01,00,00,40,00,00,00,00,
6347130,01213FFC,true,Rx,0,8,88,02,4C,00,60,00,08,00,
6348308,01800028,true,Rx,0,8,C0,00,00,00,00,00,00,00,
6350059,0240102A,true,Rx,0,8,81,00,00,00,00,00,00,00,
6351190,02C13428,true,Rx,0,8,C0,00,08,80,00,00,00,00,
6352327,02E10DF4,true,Rx,0,8,C0,A1,00,20,90,00,08,00,
6358167,0280142A,true,Rx,0,8,00,50,00,20,17,00,00,00,
6362517,0261300A,true,Rx,0,8,80,00,00,27,80,40,00,C0,
6365861,00613DF8,true,Rx,0,8,43,00,00,40,00,00,00,00,
6367643,00400066,true,Rx,0,8,C0,00,00,02,01,5E,40,7F,
6370933,01213FFC,true,Rx,0,8,C8,02,4C,00,70,40,08,00,
6375842,02A03028,true,Rx,0,8,00,80,D4,09,00,00,80,00,
6377035,03200008,true,Rx,0,8,00,00,00,00,00,80,00,00,
6379560,01C030A2,true,Rx,0,8,00,5B,40,01,89,01,14,00,
6384986,0240102A,true,Rx,0,8,C0,00,00,00,00,00,00,00,
6386159,00613DF8,true,Rx,0,8,81,00,00,40,00,00,00,00,
6387362,01800028,true,Rx,0,8,00,00,00,00,00,00,00,00,
6388488,0280142A,true,Rx,0,8,40,10,00,20,17,00,00,00,
6389611,02001022,true,Rx,0,8,40,00,00,01,35,90,10,43,
6392813,0261300A,true,Rx,0,8,C0,00,00,27,80,40,00,C0,
6395908,01213FFC,true,Rx,0,8,08,02,4C,00,70,00,08,00,
6397050,01613FFC,true,Rx,0,8,01,0F,B0,60,91,40,FF,F6,
6405852,00613DF8,true,Rx,0,8,C3,00,00,40,00,00,00,00,
6406994,02C13428,true,Rx,0,8,00,00,08,80,00,00,00,00,
6408145,02E10DF4,true,Rx,0,8,00,A1,20,A0,90,00,08,00,
6409282,0340024C,true,Rx,0,8,40,00,00,00,0B,8C,00,00,
6410796,02A03028,true,Rx,0,8,00,80,84,01,00,00,00,00,
6418153,0280142A,true,Rx,0,8,80,50,00,20,17,00,00,00,
6419996,0240102A,true,Rx,0,8,01,00,00,00,00,00,00,00,
6421147,01213FFC,true,Rx,0,8,48,02,4C,00,60,00,08,00,
6422939,0261300A,true,Rx,0,8,00,00,00,27,80,40,00,C0,
6424884,01C030A2,true,Rx,0,8,40,5B,40,01,89,01,14,00,
6426061,00613DF8,true,Rx,0,8,01,00,00,40,00,00,00,00,
6427255,01800028,true,Rx,0,8,40,00,00,00,00,00,00,00,
6434461,02001022,true,Rx,0,8,80,00,00,01,35,90,10,43,
6442997,00400066,true,Rx,0,8,00,00,00,03,01,5E,40,7F,
6445999,00613DF8,true,Rx,0,8,43,00,00,40,00,00,00,00,
6447140,01213FFC,true,Rx,0,8,88,02,4C,00,70,00,08,00,
6448272,0280142A,true,Rx,0,8,C0,50,00,20,17,00,00,00,
6449418,02A03028,true,Rx,0,8,00,80,84,01,00,00,00,00,
6453195,0261300A,true,Rx,0,8,40,00,00,27,80,40,00,C0,
6454956,0240102A,true,Rx,0,8,43,00,00,00,00,00,00,00,
6460900,02C13428,true,Rx,0,8,40,00,08,80,00,00,00,00,
6462042,02E10DF4,true,Rx,0,8,40,A1,20,A0,90,00,08,00,
6465880,00613DF8,true,Rx,0,8,81,00,00,40,00,00,00,00,
6467062,01800028,true,Rx,0,8,80,00,00,00,00,00,00,00,
6468204,03801028,true,Rx,0,8,00,00,20,08,5C,43,00,00,
6469586,01C030A2,true,Rx,0,8,80,5B,40,01,89,01,14,00,
6470812,01213FFC,true,Rx,0,8,C8,02,4C,00,60,40,08,00,
6478150,0280142A,true,Rx,0,8,00,10,00,20,17,00,00,00,
6479519,02001022,true,Rx,0,8,C0,00,00,01,35,90,10,43,
6480907,02A03028,true,Rx,0,8,00,80,C4,09,00,00,00,00,
6482084,03200008,true,Rx,0,8,00,00,00,00,00,80,00,00,
6483341,0261300A,true,Rx,0,8,80,00,00,27,80,40,00,C0,
6485884,00613DF8,true,Rx,0,8,C3,00,00,40,00,00,00,00,
6489982,0240102A,true,Rx,0,8,80,00,00,00,00,00,00,00,
6495876,01213FFC,true,Rx,0,8,08,02,4C,00,70,00,08,00,
6505904,00613DF8,true,Rx,0,8,01,00,00,40,00,00,00,00,
6507086,01800028,true,Rx,0,8,C0,00,00,00,00,00,00,00,
6508218,0280142A,true,Rx,0,8,40,50,00,20,17,00,00,00,
6513314,0261300A,true,Rx,0,8,C0,00,00,27,80,40,00,C0,
6514817,01C030A2,true,Rx,0,8,C0,5B,40,01,89,01,14,00,
6515969,02A03028,true,Rx,0,8,00,80,84,01,00,00,00,00,
6517114,02C13428,true,Rx,0,8,80,00,08,80,00,00,00,00,
6518258,00400066,true,Rx,0,8,40,00,00,04,01,5E,40,7F,
6519391,02E10DF4,true,Rx,0,8,80,A1,00,20,90,00,08,00,
6520527,03C0002A,true,Rx,0,8,00,00,30,C0,2D,00,1F,00,
6521681,01213FFC,true,Rx,0,8,48,02,4C,00,70,00,08,00,
6524586,02001022,true,Rx,0,8,00,00,00,01,35,90,10,43,
6525738,0240102A,true,Rx,0,8,C1,00,00,00,00,00,00,00,
6526903,00613DF8,true,Rx,0,8,43,00,00,40,00,00,00,00,
6538153,0280142A,true,Rx,0,8,80,50,00,28,17,00,00,00,
6543395,0261300A,true,Rx,0,8,00,00,00,27,80,40,00,C0,
6545929,00613DF8,true,Rx,0,8,81,00,00,40,00,00,00,00,
6547080,01213FFC,true,Rx,0,8,88,02,4C,00,60,00,08,00,
6548285,01800028,true,Rx,0,8,00,00,00,00,00,00,00,00,
6550848,02A03028,true,Rx,0,8,00,00,04,01,00,00,00,00,
6559565,01C030A2,true,Rx,0,8,00,5B,40,01,89,01,14,00,
6560736,0240102A,true,Rx,0,8,01,00,00,00,00,00,00,00,
6565920,00613DF8,true,Rx,0,8,C3,00,00,40,00,00,00,00,
6568124,0280142A,true,Rx,0,8,C0,10,00,20,17,00,00,00,
6569576,02001022,true,Rx,0,8,40,00,00,01,35,90,10,43,
6570881,01213FFC,true,Rx,0,8,C8,02,4C,00,70,40,08,00,
6572008,02C13428,true,Rx,0,8,C0,00,08,80,00,00,00,00,
6573141,02E10DF4,true,Rx,0,8,C0,A1,20,A0,90,00,08,00,
6574262,0261300A,true,Rx,0,8,40,00,00,27,80,40,00,C0,
6585866,00613DF8,true,Rx,0,8,01,00,00,40,00,00,00,00,
6587058,01800028,true,Rx,0,8,40,00,00,00,00,00,00,00,
6588200,02A03028,true,Rx,0,8,00,80,C4,09,00,00,00,00,
6589387,03200008,true,Rx,0,8,00,00,00,00,00,80,00,00,
6590541,0340024C,true,Rx,0,8,80,00,00,00,03,8C,00,00,
6593610,00400066,true,Rx,0,8,80,00,00,05,01,5E,40,7F,
6594957,0240102A,true,Rx,0,8,41,00,00,00,00,00,00,00,
6596118,01213FFC,true,Rx,0,8,08,02,4C,00,70,00,08,00,
6598137,0280142A,true,Rx,0,8,00,50,00,20,17,00,00,00,
6603616,0261300A,true,Rx,0,8,80,00,00,27,80,40,00,C0,
6604809,01C030A2,true,Rx,0,8,40,5B,40,01,89,01,14,00,
6605971,00613DF8,true,Rx,0,8,43,00,00,40,00,00,00,00,
6614467,02001022,true,Rx,0,8,80,00,00,01,35,90,10,43,
6620805,01213FFC,true,Rx,0,8,48,02,4C,00,60,00,08,00,
6621947,02A03028,true,Rx,0,8,00,80,94,01,00,00,80,00,
6625897,00613DF8,true,Rx,0,8,81,00,00,40,00,00,00,00,
6627079,01800028,true,Rx,0,8,80,00,00,00,00,00,00,00,
6628221,0280142A,true,Rx,0,8,40,50,00,20,17,00,00,00,
6629378,02C13428,true,Rx,0,8,00,00,08,80,00,00,00,00,
6630532,0240102A,true,Rx,0,8,80,00,00,00,00,00,00,00,
6631677,02E10DF4,true,Rx,0,8,00,A1,00,20,90,00,08,00,
6633688,0261300A,true,Rx,0,8,C0,00,00,27,80,40,00,C0,
6645870,00613DF8,true,Rx,0,8,C3,00,00,40,00,00,00,00,
6647011,01213FFC,true,Rx,0,8,88,02,4C,00,70,00,08,00,
6649679,01C030A2,true,Rx,0,8,80,5B,40,01,89,01,14,00,
6655839,02A03028,true,Rx,0,8,00,80,C4,09,00,00,00,00,
6658136,0280142A,true,Rx,0,8,80,10,00,20,17,00,00,00,
6659526,02001022,true,Rx,0,8,C0,00,00,01,35,90,10,43,
6663768,0261300A,true,Rx,0,8,00,00,00,27,80,40,00,C0,
6664941,0240102A,true,Rx,0,8,C1,00,00,00,00,00,00,00,
6666113,00613DF8,true,Rx,0,8,01,00,00,40,00,00,00,00,
6667301,01800028,true,Rx,0,8,C0,00,00,00,00,00,00,00,
6668805,00400066,true,Rx,0,8,C0,00,00,06,01,5E,40,7F,
6670977,01213FFC,true,Rx,0,8,C8,02,4C,00,60,40,08,00,
6675798,01613FFC,true,Rx,0,8,02,FE,BC,43,5F,04,98,5E,
6680779,02C13428,true,Rx,0,8,40,00,08,80,00,00,00,00,
6681911,02E10DF4,true,Rx,0,8,40,A1,20,A0,90,00,08,00,
6685861,00613DF8,true,Rx,0,8,43,00,00,40,00,00,00,00,
6688106,0280142A,true,Rx,0,8,C0,50,00,20,17,00,00,00,
6691678,02A03028,true,Rx,0,8,00,80,84,01,00,00,00,00,
6692860,03200008,true,Rx,0,8,00,00,00,00,00,80,00,00,
6693982,0261300A,true,Rx,0,8,40,00,00,27,80,40,00,C0,
6695096,01C030A2,true,Rx,0,8,C0,5B,40,01,89,01,14,00,
6696260,01213FFC,true,Rx,0,8,08,02,4C,00,70,00,08,00,
6699999,0240102A,true,Rx,0,8,01,00,00,00,00,00,00,00,
6704464,02001022,true,Rx,0,8,00,00,00,01,35,90,10,43,
6705925,00613DF8,true,Rx,0,8,81,00,00,40,00,00,00,00,
6707119,01800028,true,Rx,0,8,00,00,00,00,00,00,00,00,
6718127,0280142A,true,Rx,0,8,00,50,00,20,17,00,00,00,
6720870,01213FFC,true,Rx,0,8,48,02,4C,00,70,00,08,00,
6723893,0261300A,true,Rx,0,8,80,00,00,27,80,40,00,C0,
6725848,00613DF8,true,Rx,0,8,C3,00,00,40,00,00,00,00,
6726990,02A03028,true,Rx,0,8,00,80,84,01,00,00,00,00,
6734941,0240102A,true,Rx,0,8,40,00,00,00,00,00,00,00,
6736092,02C13428,true,Rx,0,8,80,00,08,80,00,00,00,00,
6737223,02E10DF4,true,Rx,0,8,80,A1,00,20,90,00,08,00,
6739622,01C030A2,true,Rx,0,8,00,5B,40,01,89,01,14,00,
6743787,00400066,true,Rx,0,8,00,00,00,07,01,5E,40,7F,
6746084,00613DF8,true,Rx,0,8,01,00,00,40,00,00,00,00,
6747246,01213FFC,true,Rx,0,8,88,02,4C,00,60,00,08,00,
6748440,01800028,true,Rx,0,8,40,00,00,00,00,00,00,00,
6749575,0280142A,true,Rx,0,8,40,10,00,28,17,00,00,00,
6750698,02001022,true,Rx,0,8,40,00,00,01,35,90,10,43,
6753870,0261300A,true,Rx,0,8,C0,00,00,27,80,40,00,C0,
6760870,02A03028,true,Rx,0,8,00,80,C4,09,00,00,00,00,
6765829,00613DF8,true,Rx,0,8,43,00,00,40,00,00,00,00,
6766962,0340024C,true,Rx,0,8,C0,00,00,00,0B,8C,00,00,
6769948,0240102A,true,Rx,0,8,81,00,00,00,00,00,00,00,
6771090,01213FFC,true,Rx,0,8,C8,02,4C,00,70,40,08,00,
6778107,0280142A,true,Rx,0,8,80,50,00,20,17,00,00,00,
6783928,0261300A,true,Rx,0,8,00,00,00,27,80,40,00,C0,
6785038,01C030A2,true,Rx,0,8,40,5B,40,01,89,01,14,00,
6786211,00613DF8,true,Rx,0,8,81,00,00,40,00,00,00,00,
6787398,01800028,true,Rx,0,8,80,00,00,00,00,00,00,00,
6788542,03801028,true,Rx,0,8,40,00,20,08,1C,43,00,00,
6790848,02C13428,true,Rx,0,8,C0,00,08,80,00,00,00,00,
6791973,02E10DF4,true,Rx,0,8,C0,A1,20,A0,90,00,08,00,
6794520,02001022,true,Rx,0,8,80,00,00,01,35,90,10,43,
6795868,01213FFC,true,Rx,0,8,08,02,4C,00,70,00,08,00,
6797010,02A03028,true,Rx,0,8,00,80,84,01,00,00,00,00,
6798195,03200008,true,Rx,0,8,00,00,00,00,00,80,00,00,
6804919,0240102A,true,Rx,0,8,C3,00,00,00,00,00,00,00,
6806092,00613DF8,true,Rx,0,8,C3,00,00,40,00,00,00,00,
6808119,0280142A,true,Rx,0,8,C0,50,00,20,17,00,00,00,
6813884,0261300A,true,Rx,0,8,40,00,00,27,80,40,00,C0,
6818906,00400066,true,Rx,0,8,40,00,00,00,01,5E,40,7F,
6820986,01213FFC,true,Rx,0,8,48,02,4C,00,60,00,08,00,
6825864,00613DF8,true,Rx,0,8,01,00,00,40,00,00,00,00,
6827047,01800028,true,Rx,0,8,C0,00,00,00,00,00,00,00,
6829601,01C030A2,true,Rx,0,8,80,5B,40,01,89,01,14,00,
6830825,02A03028,true,Rx,0,8,00,00,04,01,00,00,00,00,
6838110,0280142A,true,Rx,0,8,00,10,00,20,17,00,00,00,
6839531,02001022,true,Rx,0,8,C0,00,00,01,35,90,10,43,
6840704,0240102A,true,Rx,0,8,00,00,00,00,00,00,00,00,
6844039,0261300A,true,Rx,0,8,80,00,00,27,80,40,00,C0,
6845943,00613DF8,true,Rx,0,8,43,00,00,40,00,00,00,00,
6847085,01213FFC,true,Rx,0,8,88,02,4C,00,70,00,08,00,
6848236,02C13428,true,Rx,0,8,00,00,08,80,00,00,00,00,
6849383,02E10DF4,true,Rx,0,8,00,A1,00,20,90,00,08,00,
6865894,00613DF8,true,Rx,0,8,81,00,00,40,00,00,00,00,
6867087,01800028,true,Rx,0,8,00,00,00,00,00,00,00,00,
6868228,0280142A,true,Rx,0,8,40,50,00,20,17,00,00,00,
6869375,02A03028,true,Rx,0,8,00,80,D4,09,00,00,80,00,
6870839,01213FFC,true,Rx,0,8,C8,02,4C,00,60,40,08,00,
6874144,0261300A,true,Rx,0,8,C0,00,00,27,80,40,00,C0,
6875266,01C030A2,true,Rx,0,8,C0,5B,40,01,89,01,14,00,
6876438,0240102A,true,Rx,0,8,41,00,00,00,00,00,00,00,
6884480,02001022,true,Rx,0,8,00,00,00,01,35,90,10,43,
6885858,00613DF8,true,Rx,0,8,C3,00,00,40,00,00,00,00,
6894213,00400066,true,Rx,0,8,80,00,00,01,01,5E,40,7F,
6895850,01213FFC,true,Rx,0,8,08,02,4C,00,70,00,08,00,
6898095,0280142A,true,Rx,0,8,80,50,00,20,17,00,00,00,
6900952,02A03028,true,Rx,0,8,00,80,84,01,00,00,00,00,
6902094,02C13428,true,Rx,0,8,40,00,08,80,00,00,00,00,
6903225,02E10DF4,true,Rx,0,8,40,A1,20,A0,90,00,08,00,
6904352,0261300A,true,Rx,0,8,00,00,00,27,80,40,00,C0,
6905536,03200008,true,Rx,0,8,00,00,00,00,00,80,00,00,
6906713,00613DF8,true,Rx,0,8,01,00,00,40,00,00,00,00,
6907907,01800028,true,Rx,0,8,40,00,00,00,00,00,00,00,
6909935,0240102A,true,Rx,0,8,81,00,00,00,00,00,00,00,
6919584,01C030A2,true,Rx,0,8,00,5B,40,01,89,01,14,00,
6920808,01213FFC,true,Rx,0,8,48,02,4C,00,70,00,08,00,
6924934,03C0002A,true,Rx,0,8,00,00,30,C0,2D,00,9F,00,
6926097,00613DF8,true,Rx,0,8,43,00,00,40,00,00,00,00,
6928083,0280142A,true,Rx,0,8,C0,10,00,28,17,00,00,00,
6929575,02001022,true,Rx,0,8,40,00,00,01,35,90,10,43,
6934164,0261300A,true,Rx,0,8,40,00,00,27,80,40,00,C0,
6935854,02A03028,true,Rx,0,8,00,80,84,01,00,00,00,00,
6944905,0240102A,true,Rx,0,8,C1,00,00,00,00,00,00,00,
6946078,00613DF8,true,Rx,0,8,81,00,00,40,00,00,00,00,
6947240,01213FFC,true,Rx,0,8,88,02,4C,00,60,00,08,00,
6948428,01800028,true,Rx,0,8,80,00,00,00,00,00,00,00,
6949571,0340024C,true,Rx,0,8,00,00,00,00,0B,8C,00,00,
6955799,01613FFC,true,Rx,0,8,13,01,01,01,01,01,01,02,
6956952,02C13428,true,Rx,0,8,80,00,08,80,00,00,00,00,
6958092,02E10DF4,true,Rx,0,8,80,A1,00,20,90,00,08,00,
6959239,0280142A,true,Rx,0,8,00,50,00,20,17,00,00,00,
6964479,0261300A,true,Rx,0,8,80,00,00,27,80,40,00,C0,
6965579,01C030A2,true,Rx,0,8,40,5B,40,01,89,01,14,00,
6966742,00613DF8,true,Rx,0,8,C3,00,00,40,00,00,00,00,
6969387,00400066,true,Rx,0,8,C0,00,00,02,01,5E,40,7F,
6970889,01213FFC,true,Rx,0,8,C8,02,4C,00,70,40,08,00,
6972035,02A03028,true,Rx,0,8,00,80,C4,09,00,00,00,00,
6974570,02001022,true,Rx,0,8,80,00,00,01,35,90,10,43,
6979904,0240102A,true,Rx,0,8,00,00,00,00,00,00,00,00,
6985911,00613DF8,true,Rx,0,8,01,00,00,40,00,00,00,00,
6987093,01800028,true,Rx,0,8,C0,00,00,00,00,00,00,00,
6988225,0280142A,true,Rx,0,8,40,50,00,20,17,00,00,00,
6994358,0261300A,true,Rx,0,8,C0,00,00,27,80,40,00,C0,
6995839,01213FFC,true,Rx,0,8,08,02,4C,00,70,00,08,00,
7005812,00613DF8,true,Rx,0,8,43,00,00,40,00,00,00,00,
7006952,02A03028,true,Rx,0,8,00,80,84,01,00,00,00,00,
7008135,03200008,true,Rx,0,8,00,00,00,00,00,80,00,00,
7009622,01C030A2,true,Rx,0,8,80,5B,40,01,89,01,14,00,
7010806,02C13428,true,Rx,0,8,C0,00,08,80,00,00,00,00,
7011927,02E10DF4,true,Rx,0,8,C0,A1,20,A0,90,00,08,00,
7014965,0240102A,true,Rx,0,8,41,00,00,00,00,00,00,00,
7018096,0280142A,true,Rx,0,8,80,10,00,20,17,00,00,00,
7019536,02001022,true,Rx,0,8,C0,00,00,01,35,90,10,43,
7020895,01213FFC,true,Rx,0,8,48,02,4C,00,60,00,08,00,
7024481,0261300A,true,Rx,0,8,00,00,00,27,80,40,00,C0,
7025870,00613DF8,true,Rx,0,8,81,00,00,40,00,00,00,00,
7027062,01800028,true,Rx,0,8,00,00,00,00,00,00,00,00,
7040775,02A03028,true,Rx,0,8,00,80,84,01,00,00,00,00,
7044378,00400066,true,Rx,0,8,00,00,00,03,01,5E,40,7F,
7045911,00613DF8,true,Rx,0,8,C3,00,00,40,00,00,00,00,
7047062,01213FFC,true,Rx,0,8,88,02,4C,00,70,00,08,00,
7048188,0280142A,true,Rx,0,8,C0,50,00,20,17,00,00,00,
7050032,0240102A,true,Rx,0,8,81,00,00,00,00,00,00,00,
7054361,0261300A,true,Rx,0,8,40,00,00,27,80,40,00,C0,
7055481,01C030A2,true,Rx,0,8,C0,5B,40,01,89,01,14,00,
7064479,02001022,true,Rx,0,8,00,00,00,01,35,90,10,43,
7065878,00613DF8,true,Rx,0,8,01,00,00,40,00,00,00,00,
7067071,01800028,true,Rx,0,8,40,00,00,00,00,00,00,00,
7068227,02C13428,true,Rx,0,8,00,00,08,80,00,00,00,00,
7069372,02E10DF4,true,Rx,0,8,00,A1,20,A0,90,00,08,00,
7070782,01213FFC,true,Rx,0,8,C8,02,4C,00,60,40,08,00,
7075805,02A03028,true,Rx,0,8,00,80,C4,09,00,00,00,00,
7078071,0280142A,true,Rx,0,8,00,50,00,20,17,00,00,00,
7084599,0261300A,true,Rx,0,8,80,00,00,27,80,40,00,C0,
7085761,0240102A,true,Rx,0,8,C0,00,00,00,00,00,00,00,
7086922,00613DF8,true,Rx,0,8,43,00,00,40,00,00,00,00,
7095855,01213FFC,true,Rx,0,8,08,02,4C,00,70,00,08,00,
7099685,01C030A2,true,Rx,0,8,00,5B,40,01,89,01,14,00,
7105902,00613DF8,true,Rx,0,8,81,00,00,40,00,00,00,00,
7107094,01800028,true,Rx,0,8,80,00,00,00,00,00,00,00,
7108215,0280142A,true,Rx,0,8,40,10,00,20,17,00,00,00,
7109361,03801028,true,Rx,0,8,80,00,20,08,1C,43,00,00,
7110485,02001022,true,Rx,0,8,40,00,00,01,35,90,10,43,
7111640,02A03028,true,Rx,0,8,00,00,14,01,00,00,80,00,
7112825,03200008,true,Rx,0,8,00,00,00,00,00,80,00,00,
7114513,0261300A,true,Rx,0,8,C0,00,00,27,80,40,00,C0,
7119528,00400066,true,Rx,0,8,40,00,00,04,01,5E,40,7F,
7120710,0240102A,true,Rx,0,8,01,00,00,00,00,00,00,00,
7121862,01213FFC,true,Rx,0,8,48,02,4C,00,70,00,08,00,
7122997,02C13428,true,Rx,0,8,40,00,08,80,00,00,00,00,
7124131,02E10DF4,true,Rx,0,8,40,A1,00,20,90,00,08,00,
7125943,00613DF8,true,Rx,0,8,C3,00,00,40,00,00,00,00,
7127078,0340024C,true,Rx,0,8,40,00,00,00,0B,8C,00,00,
7138048,0280142A,true,Rx,0,8,81,50,00,28,17,00,00,00,
7144625,0261300A,true,Rx,0,8,00,00,00,27,80,40,00,C0,
7145726,01C030A2,true,Rx,0,8,40,5B,40,01,89,01,14,00,
7146908,00613DF8,true,Rx,0,8,01,00,00,40,00,00,00,00,
7148064,01213FFC,true,Rx,0,8,88,02,4C,00,60,00,08,00,
7149248,01800028,true,Rx,0,8,C0,00,00,00,00,00,00,00,
7150395,02A03028,true,Rx,0,8,00,80,84,01,00,00,00,00,
7154572,02001022,true,Rx,0,8,80,00,00,01,35,90,10,43,
7155724,0240102A,true,Rx,0,8,43,00,00,00,00,00,00,00,
7165840,00613DF8,true,Rx,0,8,43,00,00,40,00,00,00,00,
7168044,0280142A,true,Rx,0,8,C0,50,00,20,17,00,00,00,
7170828,01213FFC,true,Rx,0,8,C8,02,4C,00,70,40,08,00,
7174774,0261300A,true,Rx,0,8,40,00,00,27,80,40,00,C0,
7175925,02C13428,true,Rx,0,8,80,00,08,80,00,00,00,00,
7177057,02E10DF4,true,Rx,0,8,80,A1,20,A0,90,00,08,00,
7180878,02A03028,true,Rx,0,8,00,80,C4,09,00,00,00,00,
7185848,00613DF8,true,Rx,0,8,81,00,00,40,00,00,00,00,
7187052,01800028,true,Rx,0,8,00,00,00,00,00,00,00,00,
7189626,01C030A2,true,Rx,0,8,80,5B,40,01,89,01,14,00,
7190788,0240102A,true,Rx,0,8,80,00,00,00,00,00,00,00,
7194572,00400066,true,Rx,0,8,80,00,00,05,01,5E,40,7F,
7195888,01213FFC,true,Rx,0,8,08,02,4C,00,70,00,08,00,
7198060,0280142A,true,Rx,0,8,00,10,00,20,17,00,00,00,
7199635,02001022,true,Rx,0,8,C0,00,00,01,35,90,10,43,
7204621,0261300A,true,Rx,0,8,80,00,00,27,80,40,00,C0,
7205835,00613DF8,true,Rx,0,8,C3,00,00,40,00,00,00,00,
7215808,02A03028,true,Rx,0,8,00,80,84,01,00,00,00,00,
7216991,03200008,true,Rx,0,8,00,00,00,00,00,80,00,00,
7220755,01213FFC,true,Rx,0,8,48,02,4C,00,60,00,08,00,
7224919,0240102A,true,Rx,0,8,C1,00,00,00,00,00,00,00,
7226091,00613DF8,true,Rx,0,8,01,00,00,40,00,00,00,00,
7227285,01800028,true,Rx,0,8,40,00,00,00,00,00,00,00,
7228420,0280142A,true,Rx,0,8,40,50,00,20,17,00,00,00,
7230843,02C13428,true,Rx,0,8,C0,00,08,80,00,00,00,00,
7231984,02E10DF4,true,Rx,0,8,C0,A1,00,20,90,00,08,00,
7234578,0261300A,true,Rx,0,8,C0,00,00,27,80,40,00,C0,
7235700,01C030A2,true,Rx,0,8,C0,5B,40,01,89,01,14,00,
7236844,01613FFC,true,Rx,0,8,18,01,01,01,02,01,05,01,
7244491,02001022,true,Rx,0,8,00,00,00,01,35,90,10,43,
7245859,00613DF8,true,Rx,0,8,43,00,00,40,00,00,00,00,
7247011,01213FFC,true,Rx,0,8,88,02,4C,00,70,00,08,00,
7250782,02A03028,true,Rx,0,8,00,80,84,01,00,00,00,00,
7258043,0280142A,true,Rx,0,8,80,50,00,20,17,00,00,00,
7259895,0240102A,true,Rx,0,8,01,00,00,00,00,00,00,00,
7264525,0261300A,true,Rx,0,8,00,00,00,27,80,40,00,C0,
7265863,00613DF8,true,Rx,0,8,81,00,00,40,00,00,00,00,
7267046,01800028,true,Rx,0,8,80,00,00,00,00,00,00,00,
7269568,00400066,true,Rx,0,8,C0,00,00,06,01,5E,40,7F,
7270845,01213FFC,true,Rx,0,8,C8,02,4C,00,60,40,08,00,
7279608,01C030A2,true,Rx,0,8,00,5B,40,01,89,01,14,00,
7285874,00613DF8,true,Rx,0,8,C3,00,00,40,00,00,00,00,
7287016,02A03028,true,Rx,0,8,00,80,C4,09,00,00,00,00,
7288146,0280142A,true,Rx,0,8,C0,10,00,20,17,00,00,00,
7289293,02C13428,true,Rx,0,8,00,00,08,80,00,00,00,00,
7290426,02001022,true,Rx,0,8,40,00,00,01,35,90,10,43,
7291562,02E10DF4,true,Rx,0,8,00,A1,20,A0,90,00,08,00,
7294584,0261300A,true,Rx,0,8,40,00,00,27,80,40,00,C0,
7295746,0240102A,true,Rx,0,8,41,00,00,00,00,00,00,00,
7296908,01213FFC,true,Rx,0,8,08,02,4C,00,70,00,08,00,
7305841,00613DF8,true,Rx,0,8,01,00,00,40,00,00,00,00,
7307034,01800028,true,Rx,0,8,C0,00,00,00,00,00,00,00,
7308185,0340024C,true,Rx,0,8,80,00,00,00,03,8C,00,00,
7318040,0280142A,true,Rx,0,8,00,50,00,20,17,00,00,00,
7320835,01213FFC,true,Rx,0,8,48,02,4C,00,70,00,08,00,
7321976,02A03028,true,Rx,0,8,00,80,84,01,00,00,00,00,
7323169,03200008,true,Rx,0,8,00,00,00,00,00,80,00,00,
7324666,0261300A,true,Rx,0,8,80,00,00,27,80,40,00,C0,
7325829,00613DF8,true,Rx,0,8,43,00,00,40,00,00,00,00,
7326930,01C030A2,true,Rx,0,8,40,5B,40,01,89,01,14,00,
7329875,0240102A,true,Rx,0,8,80,00,00,00,00,00,00,00,
7334498,02001022,true,Rx,0,8,80,00,00,01,35,90,10,43,
7335639,03C0002A,true,Rx,0,8,00,00,30,C0,2D,00,1F,00,
7340956,02C13428,true,Rx,0,8,40,00,08,80,00,00,00,00,
7342097,02E10DF4,true,Rx,0,8,40,A1,00,20,90,00,08,00,
7344498,00400066,true,Rx,0,8,00,00,00,07,01,5E,40,7F,
7345959,00613DF8,true,Rx,0,8,81,00,00,40,00,00,00,00,
7347120,01213FFC,true,Rx,0,8,88,02,4C,00,60,00,08,00,
7348318,01800028,true,Rx,0,8,00,00,00,00,00,00,00,00,
7349441,0280142A,true,Rx,0,8,40,50,00,28,17,00,00,00,
7354497,0261300A,true,Rx,0,8,C0,00,00,27,80,40,00,C0,
7355853,02A03028,true,Rx,0,8,00,80,84,09,00,00,00,00,
7364852,0240102A,true,Rx,0,8,C1,00,00,00,00,00,00,00,
7366025,00613DF8,true,Rx,0,8,C3,00,00,40,00,00,00,00,
7369634,01C030A2,true,Rx,0,8,80,5B,40,01,89,01,14,00,
7370808,01213FFC,true,Rx,0,8,C8,02,4C,00,70,40,08,00,
7378042,0280142A,true,Rx,0,8,80,10,00,20,17,00,00,00,
7379555,02001022,true,Rx,0,8,C0,00,00,01,35,90,10,43,
7384689,0261300A,true,Rx,0,8,00,00,00,27,80,40,00,C0,
7385861,00613DF8,true,Rx,0,8,01,00,00,40,00,00,00,00,
7387055,01800028,true,Rx,0,8,40,00,00,00,00,00,00,00,
7390825,02A03028,true,Rx,0,8,00,00,54,01,00,00,80,00,
7395816,01213FFC,true,Rx,0,8,08,02,4C,00,70,00,08,00,
7396968,02C13428,true,Rx,0,8,80,00,08,80,00,00,00,00,
7398088,02E10DF4,true,Rx,0,8,80,A1,20,A0,90,00,08,00,
7399973,0240102A,true,Rx,0,8,01,00,00,00,00,00,00,00,
7405855,00613DF8,true,Rx,0,8,43,00,00,40,00,00,00,00,
7408047,0280142A,true,Rx,0,8,C0,50,00,20,17,00,00,00,
7414698,0261300A,true,Rx,0,8,40,00,00,27,80,40,00,C0,
7415818,01C030A2,true,Rx,0,8,C0,5B,40,01,89,01,14,00,
7419665,00400066,true,Rx,0,8,40,00,00,00,01,5E,40,7F,
7420920,01213FFC,true,Rx,0,8,48,02,4C,00,60,00,08,00,
7424581,02001022,true,Rx,0,8,00,00,00,01,35,90,10,43,
7425970,00613DF8,true,Rx,0,8,81,00,00,40,00,00,00,00,
7427152,01800028,true,Rx,0,8,80,00,00,00,00,00,00,00,
7428299,02A03028,true,Rx,0,8,00,80,84,01,00,00,00,00,
7429483,03200008,true,Rx,0,8,00,00,00,00,00,80,00,00,
7430619,03801028,true,Rx,0,8,C0,00,20,08,5C,43,00,00,
7434845,0240102A,true,Rx,0,8,40,00,00,00,00,00,00,00,
7438024,0280142A,true,Rx,0,8,00,50,00,20,17,00,00,00,
7444808,0261300A,true,Rx,0,8,80,00,00,27,80,40,00,C0,
7445981,00613DF8,true,Rx,0,8,C3,00,00,40,00,00,00,00,
7447122,01213FFC,true,Rx,0,8,88,02,4C,00,70,00,08,00,
7450819,02C13428,true,Rx,0,8,C0,00,08,80,00,00,00,00,
7451951,02E10DF4,true,Rx,0,8,C0,A1,00,20,90,00,08,00,
7459611,01C030A2,true,Rx,0,8,00,5B,40,01,89,01,14,00,
7460783,02A03028,true,Rx,0,8,00,80,C4,09,00,00,00,00,
7465894,00613DF8,true,Rx,0,8,01,00,00,40,00,00,00,00,
7467076,01800028,true,Rx,0,8,C0,00,00,00,00,00,00,00,
7468198,0280142A,true,Rx,0,8,40,10,00,20,17,00,00,00,
7469602,02001022,true,Rx,0,8,40,00,00,01,35,90,10,43,
7470765,0240102A,true,Rx,0,8,81,00,00,00,00,00,00,00,
7471911,01213FFC,true,Rx,0,8,C8,02,4C,00,60,40,08,00,
7474862,0261300A,true,Rx,0,8,C0,00,00,27,80,40,00,C0,
7485792,00613DF8,true,Rx,0,8,43,00,00,40,00,00,00,00,
7486933,0340024C,true,Rx,0,8,C0,00,00,00,0B,8C,00,00,
7495029,00400066,true,Rx,0,8,80,00,00,01,01,5E,40,7F,
7496191,01213FFC,true,Rx,0,8,08,02,4C,00,70,00,08,00,
7497325,02A03028,true,Rx,0,8,00,80,84,01,00,00,00,00,
7498470,0280142A,true,Rx,0,8,80,50,00,20,17,00,00,00,
7504858,0240102A,true,Rx,0,8,C3,00,00,00,00,00,00,00,
7506031,00613DF8,true,Rx,0,8,81,00,00,40,00,00,00,00,
7507235,01800028,true,Rx,0,8,00,00,00,00,00,00,00,00,
7508340,01C030A2,true,Rx,0,8,40,5B,40,01,89,01,14,00,
7509462,0261300A,true,Rx,0,8,00,00,00,27,80,40,00,C0,
7510618,02C13428,true,Rx,0,8,00,00,08,80,00,00,00,00,
7511761,02E10DF4,true,Rx,0,8,00,A1,20,A0,90,00,08,00,
7514583,02001022,true,Rx,0,8,80,00,00,01,35,90,10,43,
7515838,01613FFC,true,Rx,0,8,01,0F,B0,60,91,4C,00,09,
7520782,01213FFC,true,Rx,0,8,48,02,4C,00,70,00,08,00,
7525837,00613DF8,true,Rx,0,8,C3,00,00,40,00,00,00,00,
7527999,0280142A,true,Rx,0,8,C0,50,00,28,17,00,00,00,
7530814,02A03028,true,Rx,0,8,00,80,84,01,00,00,00,00,
7532007,03200008,true,Rx,0,8,00,00,00,00,00,80,00,00,
7534984,0261300A,true,Rx,0,8,40,00,00,27,80,40,00,C0,
7539831,0240102A,true,Rx,0,8,00,00,00,00,00,00,00,00,
7545890,00613DF8,true,Rx,0,8,01,00,00,40,00,00,00,00,
7547051,01213FFC,true,Rx,0,8,88,02,4C,00,60,00,08,00,
7548245,01800028,true,Rx,0,8,40,00,00,00,00,00,00,00,
7549732,01C030A2,true,Rx,0,8,80,5B,40,01,89,01,14,00,
7558010,0280142A,true,Rx,0,8,00,10,00,20,17,00,00,00,
7559565,02001022,true,Rx,0,8,C0,00,00,01,35,90,10,43,
7560859,02C13428,true,Rx,0,8,40,00,08,80,00,00,00,00,
7561995,02E10DF4,true,Rx,0,8,40,A1,20,A0,90,00,08,00,
7565237,0261300A,true,Rx,0,8,80,00,00,27,80,40,00,C0,
7566400,00613DF8,true,Rx,0,8,43,00,00,40,00,00,00,00,
7567541,02A03028,true,Rx,0,8,00,80,C4,09,00,00,00,00,
7570145,00400066,true,Rx,0,8,C0,00,00,02,01,5E,40,7F,
7571292,01213FFC,true,Rx,0,8,C8,02,4C,00,70,40,08,00,
7574886,0240102A,true,Rx,0,8,41,00,00,00,00,00,00,00,
7585868,00613DF8,true,Rx,0,8,81,00,00,40,00,00,00,00,
7587050,01800028,true,Rx,0,8,80,00,00,00,00,00,00,00,
7588181,0280142A,true,Rx,0,8,40,50,00,20,17,00,00,00,
7594874,01C030A2,true,Rx,0,8,C0,5B,40,01,89,01,14,00,
7596036,01213FFC,true,Rx,0,8,08,02,4C,00,70,00,08,00,
7597157,0261300A,true,Rx,0,8,C0,00,00,27,80,40,00,C0,
7600884,02A03028,true,Rx,0,8,00,80,84,01,00,00,00,00,
7604500,02001022,true,Rx,0,8,00,00,00,01,35,90,10,43,
7605826,00613DF8,true,Rx,0,8,C3,00,00,40,00,00,00,00,
7609840,0240102A,true,Rx,0,8,81,00,00,00,00,00,00,00,
7615818,02C13428,true,Rx,0,8,80,00,08,80,00,00,00,00,
7616948,02E10DF4,true,Rx,0,8,80,A1,00,20,90,00,08,00,
7618090,0280142A,true,Rx,0,8,80,50,00,20,17,00,00,00,
7620818,01213FFC,true,Rx,0,8,48,02,4C,00,60,00,08,00,
7625536,0261300A,true,Rx,0,8,00,00,00,27,80,40,00,C0,
7626708,00613DF8,true,Rx,0,8,01,00,00,40,00,00,00,00,
7627891,01800028,true,Rx,0,8,C0,00,00,00,00,00,00,00,
7635796,02A03028,true,Rx,0,8,00,80,94,01,00,00,80,00,
7636978,03200008,true,Rx,0,8,00,00,00,00,00,80,00,00,
7639624,01C030A2,true,Rx,0,8,00,5B,40,01,89,01,14,00,
7644813,0240102A,true,Rx,0,8,C1,00,00,00,00,00,00,00,
7645964,00400066,true,Rx,0,8,00,00,00,03,01,5E,40,7F,
7647116,00613DF8,true,Rx,0,8,43,00,00,40,00,00,00,00,
7648261,01213FFC,true,Rx,0,8,88,02,4C,00,70,00,08,00,
7649396,0280142A,true,Rx,0,8,C0,10,00,20,17,00,00,00,
7650521,02001022,true,Rx,0,8,40,00,00,01,35,90,10,43,
7655378,0261300A,true,Rx,0,8,40,00,00,27,80,40,00,C0,
7665832,00613DF8,true,Rx,0,8,81,00,00,40,00,00,00,00,
7667035,01800028,true,Rx,0,8,00,00,00,00,00,00,00,00,
7668176,0340024C,true,Rx,0,8,00,00,00,00,0B,8C,00,00,
7670739,01213FFC,true,Rx,0,8,C8,02,4C,00,60,40,08,00,
7671885,02A03028,true,Rx,0,8,00,00,44,09,00,00,00,00,
7673028,02C13428,true,Rx,0,8,C0,00,08,80,00,00,00,00,
7674150,02E10DF4,true,Rx,0,8,C0,A1,20,A0,90,00,08,00,
7677993,0280142A,true,Rx,0,8,00,50,00,20,17,00,00,00,
7679876,0240102A,true,Rx,0,8,00,00,00,00,00,00,00,00,
7684858,01C030A2,true,Rx,0,8,40,5B,40,01,89,01,14,00,
7686029,00613DF8,true,Rx,0,8,C3,00,00,40,00,00,00,00,
7687161,0261300A,true,Rx,0,8,80,00,00,27,80,40,00,C0,
7694506,02001022,true,Rx,0,8,80,00,00,01,35,90,10,43,
7695833,01213FFC,true,Rx,0,8,08,02,4C,00,70,00,08,00,
7705857,00613DF8,true,Rx,0,8,01,00,00,40,00,00,00,00,
7707051,01800028,true,Rx,0,8,40,00,00,00,00,00,00,00,
7708181,0280142A,true,Rx,0,8,40,50,00,20,17,00,00,00,
7709328,02A03028,true,Rx,0,8,00,80,84,01,00,00,00,00,
7714816,0240102A,true,Rx,0,8,41,00,00,00,00,00,00,00,
7715936,0261300A,true,Rx,0,8,C0,00,00,27,80,40,00,C0,
7720780,00400066,true,Rx,0,8,40,00,00,04,01,5E,40,7F,
7721931,01213FFC,true,Rx,0,8,48,02,4C,00,70,00,08,00,
7725891,00613DF8,true,Rx,0,8,43,00,00,40,00,00,00,00,
7727044,02C13428,true,Rx,0,8,00,00,08,80,00,00,00,00,
7728184,02E10DF4,true,Rx,0,8,00,A1,00,20,90,00,08,00,
7729712,01C030A2,true,Rx,0,8,80,5B,40,01,89,01,14,00,
7737981,0280142A,true,Rx,0,8,80,10,00,28,17,00,00,00,
7739576,02001022,true,Rx,0,8,C0,00,00,01,35,90,10,43,
7740841,02A03028,true,Rx,0,8,00,80,84,01,00,00,00,00,
7742028,03200008,true,Rx,0,8,00,00,00,00,00,80,00,00,
7744795,03C0002A,true,Rx,0,8,00,00,30,C0,2D,00,1F,00,
7745967,00613DF8,true,Rx,0,8,81,00,00,40,00,00,00,00,
7747129,01213FFC,true,Rx,0,8,88,02,4C,00,60,00,08,00,
7748308,01800028,true,Rx,0,8,80,00,00,00,00,00,00,00,
7749442,0261300A,true,Rx,0,8,00,00,00,27,80,40,00,C0,
7750597,0240102A,true,Rx,0,8,81,00,00,00,00,00,00,00,
7751751,03801028,true,Rx,0,8,00,00,20,08,1C,43,00,00,
7765826,00613DF8,true,Rx,0,8,C3,00,00,40,00,00,00,00,
7767968,0280142A,true,Rx,0,8,C0,50,00,20,17,00,00,00,
7770795,01213FFC,true,Rx,0,8,C8,02,4C,00,70,40,08,00,
7774977,01C030A2,true,Rx,0,8,C0,5B,40,01,89,01,14,00,
7776119,02A03028,true,Rx,0,8,00,80,C4,09,00,00,00,00,
7777239,0261300A,true,Rx,0,8,40,00,00,27,80,40,00,C0,
7780875,02C13428,true,Rx,0,8,40,00,08,80,00,00,00,00,
7782006,02E10DF4,true,Rx,0,8,40,A1,20,A0,90,00,08,00,
7784550,02001022,true,Rx,0,8,00,00,00,01,35,90,10,43,
7785711,0240102A,true,Rx,0,8,C0,00,00,00,00,00,00,00,
7786888,00613DF8,true,Rx,0,8,01,00,00,40,00,00,00,00,
7788072,01800028,true,Rx,0,8,C0,00,00,00,00,00,00,00,
7795784,01213FFC,true,Rx,0,8,08,02,4C,00,70,00,08,00,
7796916,00400066,true,Rx,0,8,80,00,00,05,01,5E,40,7F,
7798108,01613FFC,true,Rx,0,8,FF,00,00,00,00,00,00,00,
7799244,0280142A,true,Rx,0,8,00,50,00,20,17,00,00,00,
7805811,00613DF8,true,Rx,0,8,43,00,00,40,00,00,00,00,
7806943,0261300A,true,Rx,0,8,80,00,00,27,80,40,00,C0,
7810811,02A03028,true,Rx,0,8,00,80,84,01,00,00,00,00,
7819636,01C030A2,true,Rx,0,8,00,5B,40,01,89,01,14,00,
7820778,01213FFC,true,Rx,0,8,48,02,4C,00,60,00,08,00,
7821949,0240102A,true,Rx,0,8,01,00,00,00,00,00,00,00,
7825906,00613DF8,true,Rx,0,8,81,00,00,40,00,00,00,00,
7827100,01800028,true,Rx,0,8,00,00,00,00,00,00,00,00,
7828231,0280142A,true,Rx,0,8,40,10,00,20,17,00,00,00,
7829616,02001022,true,Rx,0,8,40,00,00,01,35,90,10,43,
7835821,02C13428,true,Rx,0,8,80,00,08,80,00,00,00,00,
7836942,0261300A,true,Rx,0,8,C0,00,00,27,80,40,00,C0,
7838083,02E10DF4,true,Rx,0,8,80,A1,00,20,90,00,08,00,
7845843,00613DF8,true,Rx,0,8,C3,00,00,40,00,00,00,00,
7846985,01213FFC,true,Rx,0,8,88,02,4C,00,70,00,08,00,
7848125,02A03028,true,Rx,0,8,00,80,84,01,00,00,00,00,
7849314,03200008,true,Rx,0,8,00,00,00,00,00,80,00,00,
7850457,0340024C,true,Rx,0,8,40,00,00,00,03,8C,00,00,
7854787,0240102A,true,Rx,0,8,43,00,00,00,00,00,00,00,
7857965,0280142A,true,Rx,0,8,80,50,00,20,17,00,00,00,
7864884,01C030A2,true,Rx,0,8,40,5B,40,01,89,01,14,00,
7866056,00613DF8,true,Rx,0,8,01,00,00,40,00,00,00,00,
7867249,01800028,true,Rx,0,8,40,00,00,00,00,00,00,00,
7868375,0261300A,true,Rx,0,8,00,00,00,27,80,40,00,C0,
7870981,01213FFC,true,Rx,0,8,C8,02,4C,00,60,40,08,00,
7872123,00400066,true,Rx,0,8,C0,00,00,06,01,5E,40,7F,
7874604,02001022,true,Rx,0,8,80,00,00,01,35,90,10,43,
7880754,02A03028,true,Rx,0,8,00,80,D4,09,00,00,80,00,
7885807,00613DF8,true,Rx,0,8,43,00,00,40,00,00,00,00,
7887949,0280142A,true,Rx,0,8,C0,50,00,20,17,00,00,00,
7889823,0240102A,true,Rx,0,8,80,00,00,00,00,00,00,00,
7890964,02C13428,true,Rx,0,8,C0,00,08,80,00,00,00,00,
7892086,02E10DF4,true,Rx,0,8,C0,A1,20,A0,90,00,08,00,
7895823,01213FFC,true,Rx,0,8,08,02,4C,00,70,00,08,00,
7897316,0261300A,true,Rx,0,8,40,00,00,27,80,40,00,C0,
7905815,00613DF8,true,Rx,0,8,81,00,00,40,00,00,00,00,
7906998,01800028,true,Rx,0,8,80,00,00,00,00,00,00,00,
7909666,01C030A2,true,Rx,0,8,80,5B,40,01,89,01,14,00,
7915795,02A03028,true,Rx,0,8,00,80,84,01,00,00,00,00,
7917958,0280142A,true,Rx,0,8,00,10,00,20,17,00,00,00,
7919575,02001022,true,Rx,0,8,C0,00,00,01,35,90,10,43,
7920840,01213FFC,true,Rx,0,8,48,02,4C,00,70,00,08,00,
7924831,0240102A,true,Rx,0,8,C1,00,00,00,00,00,00,00,
7926004,00613DF8,true,Rx,0,8,C3,00,00,40,00,00,00,00,
7927640,0261300A,true,Rx,0,8,80,00,00,27,80,40,00,C0,
7945880,00613DF8,true,Rx,0,8,01,00,00,40,00,00,00,00,
7947042,01213FFC,true,Rx,0,8,88,02,4C,00,60,00,08,00,
7948184,00400066,true,Rx,0,8,00,00,00,07,01,5E,40,7F,
7949371,01800028,true,Rx,0,8,C0,00,00,00,00,00,00,00,
7950495,0280142A,true,Rx,0,8,40,50,00,28,17,00,00,00,
7951660,02A03028,true,Rx,0,8,00,00,04,01,00,00,00,00,
7952804,02C13428,true,Rx,0,8,00,00,08,80,00,00,00,00,
7953949,02E10DF4,true,Rx,0,8,00,A1,00,20,90,00,08,00,
7955073,01C030A2,true,Rx,0,8,C0,5B,40,01,89,01,14,00,
7956255,03200008,true,Rx,0,8,00,00,00,00,00,80,00,00,
7958014,0261300A,true,Rx,0,8,C0,00,00,27,80,40,00,C0,
7959810,0240102A,true,Rx,0,8,01,00,00,00,00,00,00,00,
7964523,02001022,true,Rx,0,8,00,00,00,01,35,90,10,43,
7965829,00613DF8,true,Rx,0,8,43,00,00,40,00,00,00,00,
7970744,01213FFC,true,Rx,0,8,C8,02,4C,00,70,40,08,00,
7977941,0280142A,true,Rx,0,8,80,50,00,20,17,00,00,00,
7985806,00613DF8,true,Rx,0,8,81,00,00,40,00,00,00,00,
7987008,01800028,true,Rx,0,8,00,00,00,00,00,00,00,00,
7988140,0261300A,true,Rx,0,8,00,00,00,27,80,40,00,C0,
7989275,02A03028,true,Rx,0,8,00,80,C4,09,00,00,00,00,
7994773,0240102A,true,Rx,0,8,41,00,00,00,00,00,00,00,
7995935,01213FFC,true,Rx,0,8,08,02,4C,00,70,00,08,00,
7999731,01C030A2,true,Rx,0,8,00,5B,40,01,89,01,14,00,
8000861,02C13428,true,Rx,0,8,40,00,08,80,00,00,00,00,
8002003,02E10DF4,true,Rx,0,8,40,A1,20,A0,90,00,08,00,
8005845,00613DF8,true,Rx,0,8,C3,00,00,40,00,00,00,00,
8007956,0280142A,true,Rx,0,8,C0,10,00,20,17,00,00,00,
8009624,02001022,true,Rx,0,8,40,00,00,01,35,90,10,43,
8018128,0261300A,true,Rx,0,8,40,00,00,27,80,40,00,C0,
8020828,01213FFC,true,Rx,0,8,48,02,4C,00,60,00,08,00,
8021971,02A03028,true,Rx,0,8,00,80,84,01,00,00,00,00,
8023361,00400066,true,Rx,0,8,40,00,00,00,01,5E,40,7F,
8025913,00613DF8,true,Rx,0,8,01,00,00,40,00,00,00,00,
8027105,01800028,true,Rx,0,8,40,00,00,00,00,00,00,00,
8028251,0340024C,true,Rx,0,8,80,00,00,00,0B,8C,00,00,
8029787,0240102A,true,Rx,0,8,80,00,00,00,00,00,00,00,
8037943,0280142A,true,Rx,0,8,00,50,00,20,17,00,00,00,
8044883,01C030A2,true,Rx,0,8,40,5B,40,01,89,01,14,00,
8046045,00613DF8,true,Rx,0,8,43,00,00,40,00,00,00,00,
8047187,01213FFC,true,Rx,0,8,88,02,4C,00,70,00,08,00,
8048324,0261300A,true,Rx,0,8,80,00,00,27,80,40,00,C0,
8054528,02001022,true,Rx,0,8,80,00,00,01,35,90,10,43,
8055803,02A03028,true,Rx,0,8,00,80,C4,09,00,00,00,00,
8056954,02C13428,true,Rx,0,8,80,00,08,80,00,00,00,00,
8058090,02E10DF4,true,Rx,0,8,80,A1,20,A0,90,00,08,00,
8059274,03200008,true,Rx,0,8,00,00,00,00,00,80,00,00,
8064757,0240102A,true,Rx,0,8,C1,00,00,00,00,00,00,00,
8065940,00613DF8,true,Rx,0,8,81,00,00,40,00,00,00,00,
8067123,01800028,true,Rx,0,8,80,00,00,00,00,00,00,00,
8068258,0280142A,true,Rx,0,8,40,50,00,20,17,00,00,00,
8069403,03801028,true,Rx,0,8,40,00,20,08,1C,43,00,00,
8070832,01213FFC,true,Rx,0,8,C8,02,4C,00,60,40,08,00,
8075771,01613FFC,true,Rx,0,8,14,02,02,01,01,02,02,56,
8078453,0261300A,true,Rx,0,8,C0,00,00,27,80,40,00,C0,
8085776,00613DF8,true,Rx,0,8,C3,00,00,40,00,00,00,00,
8089669,01C030A2,true,Rx,0,8,80,5B,40,01,89,01,14,00,
8090810,02A03028,true,Rx,0,8,00,80,84,01,00,00,00,00,
8095818,01213FFC,true,Rx,0,8,08,02,4C,00,70,00,08,00,
8097939,0280142A,true,Rx,0,8,80,10,00,20,17,00,00,00,
8099090,00400066,true,Rx,0,8,80,00,00,01,01,5E,40,7F,
8100222,02001022,true,Rx,0,8,C0,00,00,01,35,90,10,43,
8101399,0240102A,true,Rx,0,8,01,00,00,00,00,00,00,00,
8105955,00613DF8,true,Rx,0,8,01,00,00,40,00,00,00,00,
8107138,01800028,true,Rx,0,8,C0,00,00,00,00,00,00,00,
8108590,0261300A,true,Rx,0,8,00,00,00,27,80,40,00,C0,
8110812,02C13428,true,Rx,0,8,C0,00,08,80,00,00,00,00,
8111948,02E10DF4,true,Rx,0,8,C0,A1,00,20,90,00,08,00,
8120723,01213FFC,true,Rx,0,8,48,02,4C,00,70,00,08,00,
8125798,00613DF8,true,Rx,0,8,43,00,00,40,00,00,00,00,
8126940,02A03028,true,Rx,0,8,00,80,94,01,00,00,80,00,
8128082,0280142A,true,Rx,0,8,C1,50,00,28,17,00,00,00,
8134753,0240102A,true,Rx,0,8,40,00,00,00,00,00,00,00,
8135874,01C030A2,true,Rx,0,8,C0,5B,40,01,89,01,14,00,
8138655,0261300A,true,Rx,0,8,40,00,00,27,80,40,00,C0,
8144525,02001022,true,Rx,0,8,00,00,00,01,35,90,10,43,
8145873,00613DF8,true,Rx,0,8,81,00,00,40,00,00,00,00,
8147025,01213FFC,true,Rx,0,8,88,02,4C,00,60,00,08,00,
8148231,01800028,true,Rx,0,8,00,00,00,00,00,00,00,00,
8154728,03C0002A,true,Rx,0,8,00,00,30,C0,2D,00,9F,00,
8157937,0280142A,true,Rx,0,8,00,50,00,20,17,00,00,00,
8161073,02A03028,true,Rx,0,8,00,80,C4,09,00,00,00,00,
8162255,03200008,true,Rx,0,8,00,00,00,00,00,80,00,00,
8165761,00613DF8,true,Rx,0,8,C3,00,00,40,00,00,00,00,
8166912,02C13428,true,Rx,0,8,00,00,08,80,00,00,00,00,
8168065,02E10DF4,true,Rx,0,8,00,A1,20,A0,90,00,08,00,
8169189,0261300A,true,Rx,0,8,80,00,00,27,80,40,00,C0,
8170346,0240102A,true,Rx,0,8,81,00,00,00,00,00,00,00,
8171491,01213FFC,true,Rx,0,8,C8,02,4C,00,70,40,08,00,
8173985,00400066,true,Rx,0,8,C0,00,00,02,01,5E,40,7F,
8179651,01C030A2,true,Rx,0,8,00,5B,40,01,89,01,14,00,
8185855,00613DF8,true,Rx,0,8,01,00,00,40,00,00,00,00,
8187048,01800028,true,Rx,0,8,40,00,00,00,00,00,00,00,
8188179,0280142A,true,Rx,0,8,40,10,00,20,17,00,00,00,
8189624,02001022,true,Rx,0,8,40,00,00,01,35,90,10,43,
8195807,01213FFC,true,Rx,0,8,08,02,4C,00,70,00,08,00,
8196949,02A03028,true,Rx,0,8,00,80,84,01,00,00,00,00,
8199110,0261300A,true,Rx,0,8,C0,00,00,27,80,40,00,C0,
8204743,0240102A,true,Rx,0,8,C3,00,00,00,00,00,00,00,
8205905,00613DF8,true,Rx,0,8,43,00,00,40,00,00,00,00,
8207036,0340024C,true,Rx,0,8,C0,00,00,00,0B,8C,00,00,
8217916,0280142A,true,Rx,0,8,80,50,00,20,17,00,00,00,
8220795,01213FFC,true,Rx,0,8,48,02,4C,00,60,00,08,00,
8221935,02C13428,true,Rx,0,8,40,00,08,80,00,00,00,00,
8223067,02E10DF4,true,Rx,0,8,40,A1,00,20,90,00,08,00,
8225032,01C030A2,true,Rx,0,8,40,5B,40,01,89,01,14,00,
8226209,00613DF8,true,Rx,0,8,81,00,00,40,00,00,00,00,
8227395,01800028,true,Rx,0,8,80,00,00,00,00,00,00,00,
8229144,0261300A,true,Rx,0,8,00,00,00,27,80,40,00,C0,
8230808,02A03028,true,Rx,0,8,00,00,04,01,00,00,00,00,
8234538,02001022,true,Rx,0,8,80,00,00,01,35,90,10,43,
8239735,0240102A,true,Rx,0,8,00,00,00,00,00,00,00,00,
8245856,00613DF8,true,Rx,0,8,C3,00,00,40,00,00,00,00,
8247009,01213FFC,true,Rx,0,8,88,02,4C,00,70,00,08,00,
8248129,0280142A,true,Rx,0,8,C0,50,00,20,17,00,00,00,
8249596,00400066,true,Rx,0,8,00,00,00,03,01,5E,40,7F,
8259594,0261300A,true,Rx,0,8,40,00,00,27,80,40,00,C0,
8265831,00613DF8,true,Rx,0,8,01,00,00,40,00,00,00,00,
8267014,01800028,true,Rx,0,8,C0,00,00,00,00,00,00,00,
8268155,02A03028,true,Rx,0,8,00,80,C4,09,00,00,00,00,
8269334,03200008,true,Rx,0,8,00,00,00,00,00,80,00,00,
8270447,01C030A2,true,Rx,0,8,80,5B,40,01,89,01,14,00,
8271583,01213FFC,true,Rx,0,8,C8,02,4C,00,60,40,08,00,
8274792,0240102A,true,Rx,0,8,41,00,00,00,00,00,00,00,
8275943,02C13428,true,Rx,0,8,80,00,08,80,00,00,00,00,
8277075,02E10DF4,true,Rx,0,8,80,A1,20,A0,90,00,08,00,
8278220,0280142A,true,Rx,0,8,00,10,00,20,17,00,00,00,
8279633,02001022,true,Rx,0,8,C0,00,00,01,35,90,10,43,
8285778,00613DF8,true,Rx,0,8,43,00,00,40,00,00,00,00,
8289816,0261300A,true,Rx,0,8,80,00,00,27,80,40,00,C0,
8295802,01213FFC,true,Rx,0,8,08,02,4C,00,70,00,08,00,
8300722,02A03028,true,Rx,0,8,00,80,84,01,00,00,00,00,
8305838,00613DF8,true,Rx,0,8,81,00,00,40,00,00,00,00,
8307031,01800028,true,Rx,0,8,00,00,00,00,00,00,00,00,
8308172,0280142A,true,Rx,0,8,40,50,00,20,17,00,00,00,
8309814,0240102A,true,Rx,0,8,81,00,00,00,00,00,00,00,
8314921,01C030A2,true,Rx,0,8,C0,5B,40,01,89,01,14,00,
8319924,0261300A,true,Rx,0,8,C0,00,00,27,80,40,00,C0,
8321076,01213FFC,true,Rx,0,8,48,02,4C,00,70,00,08,00,
8324612,02001022,true,Rx,0,8,00,00,00,01,35,90,10,43,
8325743,00400066,true,Rx,0,8,40,00,00,04,01,5E,40,7F,
8326917,00613DF8,true,Rx,0,8,C3,00,00,40,00,00,00,00,
8330841,02C13428,true,Rx,0,8,C0,00,08,80,00,00,00,00,
8331982,02E10DF4,true,Rx,0,8,C0,A1,00,20,90,00,08,00,
8335757,02A03028,true,Rx,0,8,00,80,84,01,00,00,00,00,
8337909,0280142A,true,Rx,0,8,80,50,00,28,17,00,00,00,
8344724,0240102A,true,Rx,0,8,C1,00,00,00,00,00,00,00,
8345897,00613DF8,true,Rx,0,8,01,00,00,40,00,00,00,00,
8347058,01213FFC,true,Rx,0,8,88,02,4C,00,60,00,08,00,
8348245,01800028,true,Rx,0,8,40,00,00,00,00,00,00,00,
8350069,0261300A,true,Rx,0,8,00,00,00,27,80,40,00,C0,
8355792,01613FFC,true,Rx,0,8,19,05,01,01,01,02,01,01,
8359728,01C030A2,true,Rx,0,8,00,5B,40,01,89,01,14,00,
8365817,00613DF8,true,Rx,0,8,43,00,00,40,00,00,00,00,
8367886,0280142A,true,Rx,0,8,C0,10,00,20,17,00,00,00,
8369647,02001022,true,Rx,0,8,40,00,00,01,35,90,10,43,
8370799,01213FFC,true,Rx,0,8,C8,02,4C,00,70,40,08,00,
8371951,02A03028,true,Rx,0,8,00,80,D4,09,00,00,80,00,
8373128,03200008,true,Rx,0,8,00,00,00,00,00,80,00,00,
8379724,0240102A,true,Rx,0,8,00,00,00,00,00,00,00,00,
8380844,0261300A,true,Rx,0,8,40,00,00,27,80,40,00,C0,
8385852,00613DF8,true,Rx,0,8,81,00,00,40,00,00,00,00,
8387034,01800028,true,Rx,0,8,80,00,00,00,00,00,00,00,
8388186,02C13428,true,Rx,0,8,00,00,08,80,00,00,00,00,
8389334,02E10DF4,true,Rx,0,8,00,A1,20,A0,90,00,08,00,
8390479,0340024C,true,Rx,0,8,00,00,00,00,0B,8C,00,00,
8391624,03801028,true,Rx,0,8,80,00,20,08,5C,43,00,00,
8395755,01213FFC,true,Rx,0,8,08,02,4C,00,70,00,08,00,
8397896,0280142A,true,Rx,0,8,00,50,00,20,17,00,00,00,
8400234,00400066,true,Rx,0,8,80,00,00,05,01,5E,40,7F,
8404905,01C030A2,true,Rx,0,8,40,5B,40,01,89,01,14,00,
8406067,00613DF8,true,Rx,0,8,C3,00,00,40,00,00,00,00,
8407208,02A03028,true,Rx,0,8,00,80,84,01,00,00,00,00,
8410204,0261300A,true,Rx,0,8,80,00,00,27,80,40,00,C0,
8414541,02001022,true,Rx,0,8,80,00,00,01,35,90,10,43,
8415712,0240102A,true,Rx,0,8,41,00,00,00,00,00,00,00,
8420752,01213FFC,true,Rx,0,8,48,02,4C,00,60,00,08,00,
8425828,00613DF8,true,Rx,0,8,01,00,00,40,00,00,00,00,
8427010,01800028,true,Rx,0,8,C0,00,00,00,00,00,00,00,
8428152,0280142A,true,Rx,0,8,40,50,00,20,17,00,00,00,
8440440,0261300A,true,Rx,0,8,C0,00,00,27,80,40,00,C0,
8441591,02A03028,true,Rx,0,8,00,80,84,01,00,00,00,00,
8442723,02C13428,true,Rx,0,8,40,00,08,80,00,00,00,00,
8443858,02E10DF4,true,Rx,0,8,40,A1,00,20,90,00,08,00,
8445816,00613DF8,true,Rx,0,8,43,00,00,40,00,00,00,00,
8446957,01213FFC,true,Rx,0,8,88,02,4C,00,70,00,08,00,
8449809,0240102A,true,Rx,0,8,81,00,00,00,00,00,00,00,
8450919,01C030A2,true,Rx,0,8,80,5B,40,01,89,01,14,00,
8457901,0280142A,true,Rx,0,8,80,10,00,20,17,00,00,00,
8459602,02001022,true,Rx,0,8,C0,00,00,01,35,90,10,43,
8465816,00613DF8,true,Rx,0,8,81,00,00,40,00,00,00,00,
8467008,01800028,true,Rx,0,8,00,00,00,00,00,00,00,00,
8470576,0261300A,true,Rx,0,8,00,00,00,27,80,40,00,C0,
8471727,01213FFC,true,Rx,0,8,C8,02,4C,00,60,40,08,00,
8475615,00400066,true,Rx,0,8,C0,00,00,06,01,5E,40,7F,
8476767,02A03028,true,Rx,0,8,00,80,C4,09,00,00,00,00,
8477949,03200008,true,Rx,0,8,00,00,00,00,00,80,00,00,
8484703,0240102A,true,Rx,0,8,C0,00,00,00,00,00,00,00,
8485876,00613DF8,true,Rx,0,8,C3,00,00,40,00,00,00,00,
8487862,0280142A,true,Rx,0,8,C0,50,00,20,17,00,00,00,
8494922,01C030A2,true,Rx,0,8,C0,5B,40,01,89,01,14,00,
8496083,01213FFC,true,Rx,0,8,08,02,4C,00,70,00,08,00,
8497236,02C13428,true,Rx,0,8,80,00,08,80,00,00,00,00,
8498362,02E10DF4,true,Rx,0,8,80,A1,20,A0,90,00,08,00,
8500875,0261300A,true,Rx,0,8,40,00,00,27,80,40,00,C0,
8504583,02001022,true,Rx,0,8,00,00,00,01,35,90,10,43,
8505848,00613DF8,true,Rx,0,8,01,00,00,40,00,00,00,00,
8507040,01800028,true,Rx,0,8,40,00,00,00,00,00,00,00,
8510749,02A03028,true,Rx,0,8,00,00,04,01,00,00,00,00,
8517885,0280142A,true,Rx,0,8,00,50,00,20,17,00,00,00,
8519728,0240102A,true,Rx,0,8,01,00,00,00,00,00,00,00,
8520879,01213FFC,true,Rx,0,8,48,02,4C,00,70,00,08,00,
8525772,00613DF8,true,Rx,0,8,43,00,00,40,00,00,00,00,
8530907,0261300A,true,Rx,0,8,80,00,00,27,80,40,00,C0,
8539662,01C030A2,true,Rx,0,8,00,5B,40,01,89,01,14,00,
8545877,00613DF8,true,Rx,0,8,81,00,00,40,00,00,00,00,
8547039,01213FFC,true,Rx,0,8,88,02,4C,00,60,00,08,00,
8548222,01800028,true,Rx,0,8,80,00,00,00,00,00,00,00,
8549359,0280142A,true,Rx,0,8,40,10,00,28,17,00,00,00,
