Time Stamp,ID,Extended,Dir,Bus,LEN,D1,D2,D3,D4,D5,D6,D7,D8
157601295,10C41FBE,true,Rx,1,15,AA,AA,AA,AA,AA,AA,AA,AA,
157601837,120171F7,true,Rx,1,15,AA,AA,AA,AA,AA,AA,AA,AA,
157603698,0042401E,true,Rx,1,8,64,00,40,00,4C,00,80,00,
157604262,0062401E,true,Rx,1,8,60,00,5C,00,24,00,20,00,
157604847,01400002,true,Rx,1,8,60,00,A0,00,00,00,00,00,
157605432,02000014,true,Rx,1,8,60,00,00,00,00,20,00,00,
157606008,02800006,true,Rx,1,8,61,2B,AA,0D,00,3C,00,00,
157613679,0042401E,true,Rx,1,8,87,BE,43,BE,4C,00,80,00,
157614250,0062401E,true,Rx,1,8,80,00,5C,00,34,00,60,00,
157623728,0042401E,true,Rx,1,8,C7,BE,43,BE,4C,00,80,00,
157624288,0062401E,true,Rx,1,8,C0,00,5C,00,34,00,60,00,
157624863,01400002,true,Rx,1,8,80,00,E0,12,57,7E,9F,04,
157625448,02000014,true,Rx,1,8,80,00,00,00,00,20,00,00,
157635157,0042401E,true,Rx,1,8,07,CA,43,CA,4C,00,80,00,
157635729,0062401E,true,Rx,1,8,00,00,5C,00,34,00,60,00,
157643690,0042401E,true,Rx,1,8,47,CA,43,CA,4C,00,80,00,
157644260,0062401E,true,Rx,1,8,40,00,5C,00,74,00,60,00,
157644824,01400002,true,Rx,1,8,C0,00,A0,12,57,7E,9F,04,
157645409,02000014,true,Rx,1,8,C0,00,00,00,00,20,00,00,
157653625,0042401E,true,Rx,1,8,87,CA,40,96,4C,00,80,00,
157654196,0062401E,true,Rx,1,8,80,00,5C,00,74,00,60,00,
157654760,02800006,true,Rx,1,8,81,2B,BB,0D,00,4C,00,00,
157663692,0042401E,true,Rx,1,8,C7,CA,40,96,4C,00,80,00,
157664262,0062401E,true,Rx,1,8,C0,00,5C,00,74,00,60,00,
157664838,01400002,true,Rx,1,8,00,00,A0,12,57,7E,9F,04,
157665432,02000014,true,Rx,1,8,00,00,00,00,00,20,00,00,
157673574,0042401E,true,Rx,1,8,07,CA,40,96,4C,00,80,00,
157674155,0062401E,true,Rx,1,8,00,00,5C,00,74,00,60,00,
157683686,0042401E,true,Rx,1,8,47,CA,40,96,4C,00,80,00,
157684257,0062401E,true,Rx,1,8,40,00,5C,00,74,00,60,00,
157684822,01400002,true,Rx,1,8,40,00,A0,12,57,7E,9F,04,
157685405,02000014,true,Rx,1,8,40,00,00,00,00,20,00,00,
157693569,0042401E,true,Rx,1,8,87,CA,40,96,4C,00,80,00,
157694139,0062401E,true,Rx,1,8,80,00,5C,00,74,00,60,00,
157703692,0042401E,true,Rx,1,8,C7,CA,40,96,4C,00,80,00,
157704262,0062401E,true,Rx,1,8,C0,00,5C,00,74,00,60,00,
157704828,01400002,true,Rx,1,8,80,00,A0,12,57,7E,9F,04,
157705411,02000014,true,Rx,1,8,80,00,00,00,00,20,00,00,
157705977,02800006,true,Rx,1,8,C1,2B,BB,0D,00,4C,00,00,
157713618,0042401E,true,Rx,1,8,07,CA,40,96,4C,00,80,00,
157714199,0062401E,true,Rx,1,8,00,00,5C,00,74,00,60,00,
157723687,0042401E,true,Rx,1,8,47,CA,40,96,4C,00,80,00,
157724258,0062401E,true,Rx,1,8,40,00,5C,00,74,00,60,00,
157724823,01400002,true,Rx,1,8,C0,00,A0,12,57,7E,9F,04,
157725406,02000014,true,Rx,1,8,C0,00,00,00,00,20,00,00,
157733613,0042401E,true,Rx,1,8,87,CA,40,96,4C,00,80,00,
157734183,0062401E,true,Rx,1,8,80,00,5C,00,74,00,60,00,
157743681,0042401E,true,Rx,1,8,C7,CA,40,96,4C,00,80,00,
157744262,0062401E,true,Rx,1,8,C0,00,5C,00,74,00,60,00,
157744828,01400002,true,Rx,1,8,00,00,A0,12,57,7E,9F,04,
157745421,02000014,true,Rx,1,8,00,00,00,00,00,20,00,00,
157753648,0042401E,true,Rx,1,8,07,CA,40,96,4C,00,80,00,
157754229,0062401E,true,Rx,1,8,00,00,5C,00,7C,00,60,00,
157754794,02800006,true,Rx,1,8,01,2B,BB,0D,00,4C,00,00,
157763691,0042401E,true,Rx,1,8,47,CA,40,96,4C,00,80,00,
157764262,0062401E,true,Rx,1,8,40,00,5C,00,7C,00,60,00,
157764827,01400002,true,Rx,1,8,40,00,A0,12,57,7E,9F,04,
157765411,02000014,true,Rx,1,8,40,00,00,00,00,20,00,00,
157773637,0042401E,true,Rx,1,8,87,CA,40,96,4C,00,80,00,
157774207,0062401E,true,Rx,1,8,80,00,5C,00,7C,00,60,00,
157783696,0042401E,true,Rx,1,8,C7,CA,40,96,4C,00,80,00,
157784267,0062401E,true,Rx,1,8,C0,00,5C,00,7C,00,60,00,
157784832,01400002,true,Rx,1,8,80,00,A0,12,57,7E,9F,04,
157785427,02000014,true,Rx,1,8,80,00,00,00,00,20,00,00,
157795160,0042401E,true,Rx,1,8,07,CA,40,96,4C,00,80,00,
157795731,0062401E,true,Rx,1,8,00,00,5C,00,7C,00,60,00,
157803682,0042401E,true,Rx,1,8,47,CA,40,96,4C,00,80,00,
157804252,0062401E,true,Rx,1,8,40,00,5C,00,7C,00,60,00,
157804818,01400002,true,Rx,1,8,C0,00,A0,12,57,7E,9F,04,
157805413,02000014,true,Rx,1,8,C0,00,00,00,00,20,00,00,
157805967,02800006,true,Rx,1,8,41,2B,BB,0D,00,4C,00,00,
157813620,0042401E,true,Rx,1,8,87,CA,40,96,4C,00,80,00,
157814190,0062401E,true,Rx,1,8,80,00,5C,00,7C,00,60,00,
157823689,0042401E,true,Rx,1,8,C7,CA,40,96,4C,00,80,00,
157824259,0062401E,true,Rx,1,8,C0,00,5C,00,7C,00,60,00,
157824836,01400002,true,Rx,1,8,00,00,A0,12,57,7E,9F,04,
157825431,02000014,true,Rx,1,8,00,00,00,00,00,20,00,00,
157833572,0042401E,true,Rx,1,8,07,CA,40,96,4C,00,80,00,
157834142,0062401E,true,Rx,1,8,00,00,5C,00,7C,00,60,00,
157843683,0042401E,true,Rx,1,8,47,CA,40,96,4C,00,80,00,
157844253,0062401E,true,Rx,1,8,40,00,5C,00,7C,00,60,00,
157844818,01400002,true,Rx,1,8,40,00,A0,12,57,7E,9F,04,
157845403,02000014,true,Rx,1,8,40,00,00,00,00,20,00,00,
157853566,0042401E,true,Rx,1,8,87,CA,40,96,4C,00,80,00,
157854147,0062401E,true,Rx,1,8,80,00,5C,00,7C,00,60,00,
157854702,02800006,true,Rx,1,8,81,2B,BB,0D,00,4C,00,00,
157863686,0042401E,true,Rx,1,8,C7,CA,40,96,4C,00,80,00,
157864256,0062401E,true,Rx,1,8,C0,00,5C,00,7C,00,60,00,
157864822,01400002,true,Rx,1,8,80,00,A0,12,57,7E,9F,04,
157865406,02000014,true,Rx,1,8,80,00,00,00,00,20,00,00,
157873623,0042401E,true,Rx,1,8,07,CA,40,96,4C,00,80,00,
157874193,0062401E,true,Rx,1,8,00,00,5C,00,7C,00,60,00,
157883682,0042401E,true,Rx,1,8,47,CA,40,96,4C,00,80,00,
157884252,0062401E,true,Rx,1,8,40,00,5C,00,7C,00,60,00,
157884817,01400002,true,Rx,1,8,C0,00,A0,12,57,7E,9F,04,
157885402,02000014,true,Rx,1,8,C0,00,00,00,00,20,00,00,
157893618,0042401E,true,Rx,1,8,87,CA,40,96,4C,00,80,00,
157894188,0062401E,true,Rx,1,8,80,00,5C,00,7C,00,60,00,
157903676,0042401E,true,Rx,1,8,C7,CA,40,96,4C,00,80,00,
157904246,0062401E,true,Rx,1,8,C0,00,5C,00,7C,00,60,00,
157904822,01400002,true,Rx,1,8,00,00,A0,12,57,7E,9F,04,
157905417,02000014,true,Rx,1,8,00,00,00,00,00,20,00,00,
157905981,02800006,true,Rx,1,8,C1,2B,BB,0D,00,4C,00,00,
157913645,0042401E,true,Rx,1,8,07,CA,40,96,4C,00,80,00,
157914226,0062401E,true,Rx,1,8,00,00,5C,00,7C,00,60,00,
157923675,0042401E,true,Rx,1,8,47,CA,40,96,4C,00,80,00,
157924254,0062401E,true,Rx,1,8,40,00,5C,00,7C,00,60,00,
157924819,01400002,true,Rx,1,8,40,00,A0,12,57,7E,9F,04,
157925404,02000014,true,Rx,1,8,40,00,00,00,00,20,00,00,
157933662,0042401E,true,Rx,1,8,87,CA,40,96,4C,00,80,00,
157934231,0062401E,true,Rx,1,8,80,00,5C,00,7C,00,60,00,
157943712,0042401E,true,Rx,1,8,C7,CA,40,96,4C,00,80,00,
157944291,0062401E,true,Rx,1,8,C0,00,5C,00,7C,00,60,00,
157944857,01400002,true,Rx,1,8,80,00,E0,12,57,7E,9F,04,
157945441,02000014,true,Rx,1,8,80,00,00,00,00,20,00,00,
157955153,0042401E,true,Rx,1,8,07,CA,40,96,4C,00,80,00,
157955733,0062401E,true,Rx,1,8,00,00,5C,00,7C,00,60,00,
157956297,02800006,true,Rx,1,8,01,2B,BB,0D,00,4C,00,00,
157963682,0042401E,true,Rx,1,8,47,CA,40,96,4C,00,80,00,
157964251,0062401E,true,Rx,1,8,40,00,5C,00,7C,00,60,00,
157964816,01400002,true,Rx,1,8,C0,00,A0,12,57,7E,9F,04,
157965401,02000014,true,Rx,1,8,C0,00,00,00,00,20,00,00,
157973617,0042401E,true,Rx,1,8,87,CA,40,96,4C,00,80,00,
157974186,0062401E,true,Rx,1,8,80,00,5C,00,7C,00,60,00,
157983677,0042401E,true,Rx,1,8,C7,CA,40,96,4C,00,80,00,
157984246,0062401E,true,Rx,1,8,C0,00,5C,00,7C,00,60,00,
157984811,01400002,true,Rx,1,8,00,00,A0,12,57,7E,9F,04,
157985406,02000014,true,Rx,1,8,00,00,00,00,00,20,00,00,
157993570,0042401E,true,Rx,1,8,07,CA,40,96,4C,00,80,00,
157994149,0062401E,true,Rx,1,8,00,00,5C,00,7C,00,60,00,
158003672,0042401E,true,Rx,1,8,47,CA,40,96,4C,00,80,00,
158004241,0062401E,true,Rx,1,8,40,00,5C,00,7C,00,60,00,
158004806,01400002,true,Rx,1,8,40,00,A0,12,57,7E,9F,04,
158005401,02000014,true,Rx,1,8,40,00,00,00,00,20,00,00,
158005956,02800006,true,Rx,1,8,41,2B,BB,0D,00,4C,00,00,
158013567,0042401E,true,Rx,1,8,87,CA,40,96,4C,00,80,00,
158014136,0062401E,true,Rx,1,8,80,00,5C,00,7C,00,60,00,
158023678,0042401E,true,Rx,1,8,C7,CA,40,96,4C,00,80,00,
158024257,0062401E,true,Rx,1,8,C0,00,5C,00,7C,00,60,00,
158024823,01400002,true,Rx,1,8,80,00,A0,12,57,7E,9F,04,
158025408,02000014,true,Rx,1,8,80,00,00,00,00,20,00,00,
158033613,0042401E,true,Rx,1,8,07,CA,40,96,4C,00,80,00,
158034182,0062401E,true,Rx,1,8,00,00,5C,00,7C,00,60,00,
158043683,0042401E,true,Rx,1,8,47,CA,40,96,4C,00,80,00,
158044253,0062401E,true,Rx,1,8,40,00,5C,00,7C,00,60,00,
158044817,01400002,true,Rx,1,8,C0,00,A0,12,57,7E,9F,04,
158045402,02000014,true,Rx,1,8,C0,00,00,00,00,20,00,00,
158053596,0042401E,true,Rx,1,8,87,CA,40,96,4C,00,80,00,
158054175,0062401E,true,Rx,1,8,80,00,5C,00,7C,00,60,00,
158054741,02800006,true,Rx,1,8,81,2B,BB,0D,00,4C,00,00,
158063672,0042401E,true,Rx,1,8,C7,CA,40,96,4C,00,80,00,
158064242,0062401E,true,Rx,1,8,C0,00,5C,00,7C,00,60,00,
158064816,01400002,true,Rx,1,8,00,00,A0,12,57,7E,9F,04,
158065411,02000014,true,Rx,1,8,00,00,00,00,00,20,00,00,
158073628,0042401E,true,Rx,1,8,07,CA,40,96,4C,00,80,00,
158074209,0062401E,true,Rx,1,8,00,00,5C,00,7C,00,60,00,
158083688,0042401E,true,Rx,1,8,47,CA,40,96,4C,00,80,00,
158084258,0062401E,true,Rx,1,8,40,00,5C,00,7C,00,60,00,
158084823,01400002,true,Rx,1,8,40,00,A0,12,57,7E,9F,04,
158085407,02000014,true,Rx,1,8,40,00,00,00,00,20,00,00,
158093634,0042401E,true,Rx,1,8,87,CA,40,96,4C,00,80,00,
158094204,0062401E,true,Rx,1,8,80,00,5C,00,7C,00,60,00,
158103672,0042401E,true,Rx,1,8,C7,CA,40,96,4C,00,80,00,
158104242,0062401E,true,Rx,1,8,C0,00,5C,00,7C,00,60,00,
158104817,01400002,true,Rx,1,8,80,00,A0,12,57,7E,9F,04,
158105401,02000014,true,Rx,1,8,80,00,00,00,00,20,00,00,
158105967,02800006,true,Rx,1,8,C1,2B,BB,0D,00,4C,00,00,
158115147,0042401E,true,Rx,1,8,07,CA,40,96,4C,00,80,00,
158115729,0062401E,true,Rx,1,8,00,00,5C,00,7C,00,60,00,
158123669,0042401E,true,Rx,1,8,47,CA,40,96,4C,00,80,00,
158124239,0062401E,true,Rx,1,8,40,00,5C,00,7C,00,60,00,
158124803,01400002,true,Rx,1,8,C0,00,A0,12,57,7E,9F,04,
158125398,02000014,true,Rx,1,8,C0,00,00,00,00,20,00,00,
158133603,0042401E,true,Rx,1,8,87,CA,40,96,4C,00,80,00,
158134173,0062401E,true,Rx,1,8,80,00,5C,00,7C,00,60,00,
158143672,0042401E,true,Rx,1,8,C7,CA,40,96,4C,00,80,00,
158144243,0062401E,true,Rx,1,8,C0,00,5C,00,7C,00,60,00,
158144817,01400002,true,Rx,1,8,00,00,A0,12,57,7E,9F,04,
158145412,02000014,true,Rx,1,8,00,00,00,00,00,20,00,00,
158153565,0042401E,true,Rx,1,8,07,CA,40,96,4C,00,80,00,
158154136,0062401E,true,Rx,1,8,00,00,5C,00,7C,00,60,00,
158154700,02800006,true,Rx,1,8,01,2B,BB,0D,00,4C,00,00,
158163672,0042401E,true,Rx,1,8,47,CA,40,96,4C,00,80,00,
158164242,0062401E,true,Rx,1,8,40,00,5C,00,7C,00,60,00,
158164807,01400002,true,Rx,1,8,40,00,A0,12,57,7E,9F,04,
158165391,02000014,true,Rx,1,8,40,00,00,00,00,20,00,00,
158173565,0042401E,true,Rx,1,8,87,CA,40,96,4C,00,80,00,
158174136,0062401E,true,Rx,1,8,80,00,5C,00,7C,00,60,00,
158183677,0042401E,true,Rx,1,8,C7,CA,40,96,4C,00,80,00,
158184248,0062401E,true,Rx,1,8,C0,00,5C,00,7C,00,60,00,
158184813,01400002,true,Rx,1,8,80,00,A0,12,57,7E,9F,04,
158185397,02000014,true,Rx,1,8,80,00,00,00,00,20,00,00,
158193602,0042401E,true,Rx,1,8,07,CA,40,96,4C,00,80,00,
158194173,0062401E,true,Rx,1,8,00,00,5C,00,7C,00,60,00,
158203671,0042401E,true,Rx,1,8,47,CA,40,96,4C,00,80,00,
158204242,0062401E,true,Rx,1,8,40,00,5C,00,7C,00,60,00,
158204807,01400002,true,Rx,1,8,C0,00,A0,12,57,7E,9F,04,
158205391,02000014,true,Rx,1,8,C0,00,00,00,00,20,00,00,
158205956,02800006,true,Rx,1,8,41,2B,BB,0D,00,4C,00,00,
158213599,0042401E,true,Rx,1,8,87,CA,40,96,4C,00,80,00,
158214179,0062401E,true,Rx,1,8,80,00,5C,00,7C,00,60,00,
158223678,0042401E,true,Rx,1,8,C7,CA,40,96,4C,00,80,00,
158224249,0062401E,true,Rx,1,8,C0,00,5C,00,7C,00,60,00,
158224815,01400002,true,Rx,1,8,00,00,A0,12,57,7E,9F,04,
158225419,02000014,true,Rx,1,8,00,00,00,00,00,20,00,00,
158233634,0042401E,true,Rx,1,8,07,CA,40,96,4C,00,80,00,
158234215,0062401E,true,Rx,1,8,00,00,5C,00,7C,00,60,00,
158243671,0042401E,true,Rx,1,8,47,CA,40,96,4C,00,80,00,
158244242,0062401E,true,Rx,1,8,40,00,5C,00,7C,00,60,00,
158244807,01400002,true,Rx,1,8,40,00,A0,12,57,7E,9F,04,
158245390,02000014,true,Rx,1,8,40,00,00,00,00,20,00,00,
158253658,0042401E,true,Rx,1,8,87,CA,40,96,4C,00,80,00,
158254228,0062401E,true,Rx,1,8,80,00,5C,00,7C,00,60,00,
158254794,02800006,true,Rx,1,8,81,2B,BB,0D,00,4C,00,00,
158263692,0042401E,true,Rx,1,8,C7,CA,40,96,4C,00,80,00,
158264263,0062401E,true,Rx,1,8,C0,00,5C,00,7C,00,60,00,
158264828,01400002,true,Rx,1,8,80,00,E0,12,57,7E,9F,04,
158265423,02000014,true,Rx,1,8,80,00,00,00,00,20,00,00,
158275144,0042401E,true,Rx,1,8,07,CA,40,96,4C,00,80,00,
158275726,0062401E,true,Rx,1,8,00,00,5C,00,7C,00,60,00,
158283677,0042401E,true,Rx,1,8,47,CA,40,96,4C,00,80,00,
158284247,0062401E,true,Rx,1,8,40,00,5C,00,7C,00,60,00,
158284812,01400002,true,Rx,1,8,C0,00,A0,12,57,7E,9F,04,
158285407,02000014,true,Rx,1,8,C0,00,00,00,00,20,00,00,
158293602,0042401E,true,Rx,1,8,87,CA,40,96,4C,00,80,00,
158294172,0062401E,true,Rx,1,8,80,00,5C,00,7C,00,60,00,
158303661,0042401E,true,Rx,1,8,C7,CA,40,96,4C,00,80,00,
158304241,0062401E,true,Rx,1,8,C0,00,5C,00,7C,00,60,00,
158304807,01400002,true,Rx,1,8,00,00,A0,12,57,7E,9F,04,
158305402,02000014,true,Rx,1,8,00,00,00,00,00,20,00,00,
158305966,02800006,true,Rx,1,8,C1,2B,BB,0D,00,4C,00,00,
158313556,0042401E,true,Rx,1,8,07,CA,40,96,4C,00,80,00,
158314136,0062401E,true,Rx,1,8,00,00,5C,00,7C,00,60,00,
158323677,0042401E,true,Rx,1,8,47,CA,40,96,4C,00,80,00,
158324248,0062401E,true,Rx,1,8,40,00,5C,00,7C,00,60,00,
158324813,01400002,true,Rx,1,8,40,00,A0,12,57,7E,9F,04,
158325397,02000014,true,Rx,1,8,40,00,00,00,00,20,00,00,
158333550,0042401E,true,Rx,1,8,87,CA,40,96,4C,00,80,00,
158334120,0062401E,true,Rx,1,8,80,00,5C,00,7C,00,60,00,
158343682,0042401E,true,Rx,1,8,C7,CA,40,96,4C,00,80,00,
158344252,0062401E,true,Rx,1,8,C0,00,5C,00,7C,00,60,00,
158344819,01400002,true,Rx,1,8,80,00,A0,12,57,7E,9F,04,
158345403,02000014,true,Rx,1,8,80,00,00,00,00,20,00,00,
158353597,0042401E,true,Rx,1,8,07,CA,40,96,4C,00,80,00,
158354178,0062401E,true,Rx,1,8,00,00,5C,00,7C,00,60,00,
158354743,02800006,true,Rx,1,8,01,2B,BB,0D,00,4C,00,00,
158363663,0042401E,true,Rx,1,8,47,CA,40,96,4C,00,80,00,
158364234,0062401E,true,Rx,1,8,40,00,5C,00,7C,00,60,00,
158364799,01400002,true,Rx,1,8,C0,00,A0,12,57,7E,9F,04,
158365394,02000014,true,Rx,1,8,C0,00,00,00,00,20,00,00,
158373597,0042401E,true,Rx,1,8,87,CA,40,96,4C,00,80,00,
158374178,0062401E,true,Rx,1,8,80,00,5C,00,7C,00,60,00,
158383666,0042401E,true,Rx,1,8,C7,CA,40,96,4C,00,80,00,
158384236,0062401E,true,Rx,1,8,C0,00,5C,00,7C,00,60,00,
158384802,01400002,true,Rx,1,8,00,00,A0,12,57,7E,9F,04,
158385397,02000014,true,Rx,1,8,00,00,00,00,00,20,00,00,
158393632,0042401E,true,Rx,1,8,07,CA,40,96,4C,00,80,00,
158394202,0062401E,true,Rx,1,8,00,00,5C,00,7C,00,60,00,
158403661,0042401E,true,Rx,1,8,47,CA,40,96,4C,00,80,00,
158404230,0062401E,true,Rx,1,8,40,00,5C,00,7C,00,60,00,
158404795,01400002,true,Rx,1,8,40,00,A0,12,57,7E,9F,04,
158405390,02000014,true,Rx,1,8,40,00,00,00,00,20,00,00,
158405956,02800006,true,Rx,1,8,41,2B,BB,0D,00,4C,00,00,
158413618,0042401E,true,Rx,1,8,87,CA,40,96,4C,00,80,00,
158414188,0062401E,true,Rx,1,8,80,00,5C,00,7C,00,60,00,
158423656,0042401E,true,Rx,1,8,C7,CA,40,96,4C,00,80,00,
158424236,0062401E,true,Rx,1,8,C0,00,5C,00,7C,00,60,00,
158424801,01400002,true,Rx,1,8,80,00,A0,12,57,7E,9F,04,
158425386,02000014,true,Rx,1,8,80,00,00,00,00,20,00,00,
158435151,0042401E,true,Rx,1,8,07,CA,40,96,4C,00,80,00,
158435721,0062401E,true,Rx,1,8,00,00,5C,00,7C,00,60,00,
158443673,0042401E,true,Rx,1,8,47,CA,40,96,4C,00,80,00,
158444242,0062401E,true,Rx,1,8,40,00,5C,00,7C,00,60,00,
158444807,01400002,true,Rx,1,8,C0,00,A0,12,57,7E,9F,04,
158445392,02000014,true,Rx,1,8,C0,00,00,00,00,20,00,00,
158453609,0042401E,true,Rx,1,8,87,CA,40,96,4C,00,80,00,
158454179,0062401E,true,Rx,1,8,80,00,5C,00,7C,00,60,00,
158454744,02800006,true,Rx,1,8,81,2B,BB,0D,00,4C,00,00,
158463656,0042401E,true,Rx,1,8,C7,CA,40,96,4C,00,80,00,
158464235,0062401E,true,Rx,1,8,C0,00,5C,00,7C,00,60,00,
158464800,01400002,true,Rx,1,8,00,00,A0,12,57,7E,9F,04,
158465395,02000014,true,Rx,1,8,00,00,00,00,00,20,00,00,
158473559,0042401E,true,Rx,1,8,07,CA,40,96,4C,00,80,00,
158474128,0062401E,true,Rx,1,8,00,00,5C,00,7C,00,60,00,
158483671,0042401E,true,Rx,1,8,47,CA,40,96,4C,00,80,00,
158484251,0062401E,true,Rx,1,8,40,00,5C,00,7C,00,60,00,
158484816,01400002,true,Rx,1,8,40,00,A0,12,57,7E,9F,04,
158485401,02000014,true,Rx,1,8,40,00,00,00,00,20,00,00,
158493553,0042401E,true,Rx,1,8,87,CA,40,96,4C,00,80,00,
158494123,0062401E,true,Rx,1,8,80,00,5C,00,7C,00,60,00,
158503667,0042401E,true,Rx,1,8,C7,CA,40,96,4C,00,80,00,
158504236,0062401E,true,Rx,1,8,C0,00,5C,00,7C,00,60,00,
158504801,01400002,true,Rx,1,8,80,00,A0,12,57,7E,9F,04,
158505386,02000014,true,Rx,1,8,80,00,00,00,00,20,00,00,
158505951,02800006,true,Rx,1,8,C1,2B,BB,0D,00,4C,00,00,
158513594,0042401E,true,Rx,1,8,07,CA,40,96,4C,00,80,00,
158514174,0062401E,true,Rx,1,8,00,00,5C,00,7C,00,60,00,
158523666,0042401E,true,Rx,1,8,47,CA,40,96,4C,00,80,00,
158524236,0062401E,true,Rx,1,8,40,00,5C,00,7C,00,60,00,
158524800,01400002,true,Rx,1,8,C0,00,A0,12,57,7E,9F,04,
158525395,02000014,true,Rx,1,8,C0,00,00,00,00,20,00,00,
158533591,0042401E,true,Rx,1,8,87,CA,40,96,4C,00,80,00,
158534161,0062401E,true,Rx,1,8,80,00,5C,00,7C,00,60,00,
158543660,0042401E,true,Rx,1,8,C7,CA,40,96,4C,00,80,00,
158544231,0062401E,true,Rx,1,8,C0,00,5C,00,7C,00,60,00,
158544805,01400002,true,Rx,1,8,00,00,A0,12,57,7E,9F,04,
158545400,02000014,true,Rx,1,8,00,00,00,00,00,20,00,00,
158553627,0042401E,true,Rx,1,8,07,CA,40,96,4C,00,80,00,
158554197,0062401E,true,Rx,1,8,00,00,5C,00,7C,00,60,00,
158554762,02800006,true,Rx,1,8,01,2B,AB,0D,00,4C,00,00,
158563661,0042401E,true,Rx,1,8,47,CA,40,96,4C,00,80,00,
158564242,0062401E,true,Rx,1,8,40,00,5C,00,7C,00,60,00,
158564806,01400002,true,Rx,1,8,40,00,A0,12,57,7E,9F,04,
158565390,02000014,true,Rx,1,8,40,00,00,00,00,20,00,00,
158573637,0042401E,true,Rx,1,8,87,CA,40,96,4C,00,80,00,
158574217,0062401E,true,Rx,1,8,80,00,5C,00,7C,00,60,00,
158583697,0042401E,true,Rx,1,8,C7,CA,40,96,4C,00,80,00,
158584267,0062401E,true,Rx,1,8,C0,00,5C,00,7C,00,60,00,
158584831,01400002,true,Rx,1,8,80,00,E0,12,57,7E,9F,04,
158585416,02000014,true,Rx,1,8,80,00,00,00,00,20,00,00,
158595136,0042401E,true,Rx,1,8,07,CA,40,96,4C,00,80,00,
158595718,0062401E,true,Rx,1,8,00,00,5C,00,7C,00,60,00,
158603658,0042401E,true,Rx,1,8,47,CA,40,96,4C,00,80,00,
158604229,0062401E,true,Rx,1,8,40,00,5C,00,7C,00,60,00,
158604793,01400002,true,Rx,1,8,C0,00,A0,12,57,7E,9F,04,
158605388,02000014,true,Rx,1,8,C0,00,00,00,00,20,00,00,
158605944,02800006,true,Rx,1,8,41,2B,AB,0D,00,4C,00,00,
158613587,0042401E,true,Rx,1,8,87,CA,40,96,4C,00,80,00,
158614168,0062401E,true,Rx,1,8,80,00,5C,00,7C,00,60,00,
158623656,0042401E,true,Rx,1,8,C7,CA,40,96,4C,00,80,00,
158624227,0062401E,true,Rx,1,8,C0,00,5C,00,7C,00,60,00,
158624801,01400002,true,Rx,1,8,00,00,A0,12,57,7E,9F,04,
158625396,02000014,true,Rx,1,8,00,00,00,00,00,20,00,00,
158633550,0042401E,true,Rx,1,8,07,CA,40,96,4C,00,80,00,
158634121,0062401E,true,Rx,1,8,00,00,5C,00,7C,00,60,00,
158643661,0042401E,true,Rx,1,8,47,CA,40,96,4C,00,80,00,
158644242,0062401E,true,Rx,1,8,40,00,5C,00,7C,00,60,00,
158644807,01400002,true,Rx,1,8,40,00,A0,12,57,7E,9F,04,
158645391,02000014,true,Rx,1,8,40,00,00,00,00,20,00,00,
158653533,0042401E,true,Rx,1,8,87,CA,40,96,4C,00,80,00,
158654115,0062401E,true,Rx,1,8,80,00,5C,00,7C,00,60,00,
158654669,02800006,true,Rx,1,8,81,2B,AB,0D,00,4C,00,00,
158663662,0042401E,true,Rx,1,8,C7,CA,40,96,4C,00,80,00,
158664232,0062401E,true,Rx,1,8,C0,00,5C,00,7C,00,60,00,
158664798,01400002,true,Rx,1,8,80,00,A0,12,57,7E,9F,04,
158665381,02000014,true,Rx,1,8,80,00,00,00,00,20,00,00,
158673598,0042401E,true,Rx,1,8,07,CA,40,96,4C,00,80,00,
158674168,0062401E,true,Rx,1,8,00,00,5C,00,7C,00,60,00,
158683656,0042401E,true,Rx,1,8,47,CA,40,96,4C,00,80,00,
158684227,0062401E,true,Rx,1,8,40,00,5C,00,7C,00,60,00,
158684792,01400002,true,Rx,1,8,C0,00,A0,12,57,7E,9F,04,
158685386,02000014,true,Rx,1,8,C0,00,00,00,00,20,00,00,
158693582,0042401E,true,Rx,1,8,87,CA,40,96,4C,00,80,00,
158694162,0062401E,true,Rx,1,8,80,00,5C,00,7C,00,60,00,
158703651,0042401E,true,Rx,1,8,C7,CA,40,96,4C,00,80,00,
158704221,0062401E,true,Rx,1,8,C0,00,5C,00,7C,00,60,00,
158704797,01400002,true,Rx,1,8,00,00,A0,12,57,7E,9F,04,
158705391,02000014,true,Rx,1,8,00,00,00,00,00,20,00,00,
158705946,02800006,true,Rx,1,8,C1,2B,AB,0D,00,4C,00,00,
158713631,0042401E,true,Rx,1,8,07,CA,40,96,4C,00,80,00,
158714201,0062401E,true,Rx,1,8,00,00,5C,00,7C,00,60,00,
158723648,0042401E,true,Rx,1,8,47,CA,40,96,4C,00,80,00,
158724228,0062401E,true,Rx,1,8,40,00,5C,00,7C,00,60,00,
158724784,01400002,true,Rx,1,8,40,00,A0,12,57,7E,9F,04,
158725378,02000014,true,Rx,1,8,40,00,00,00,00,20,00,00,
158733615,0042401E,true,Rx,1,8,87,CA,40,96,4C,00,80,00,
158734185,0062401E,true,Rx,1,8,80,00,5C,00,7C,00,60,00,
158743652,0042401E,true,Rx,1,8,C7,CA,40,96,4C,00,80,00,
158744233,0062401E,true,Rx,1,8,C0,00,5C,00,7C,00,60,00,
158744799,01400002,true,Rx,1,8,80,00,A0,12,57,7E,9F,04,
158745383,02000014,true,Rx,1,8,80,00,00,00,00,20,00,00,
158755134,0042401E,true,Rx,1,8,07,CA,40,96,4C,00,80,00,
158755716,0062401E,true,Rx,1,8,00,00,5C,00,7C,00,60,00,
158756280,02800006,true,Rx,1,8,01,2B,AB,0D,00,4C,00,00,
158763665,0042401E,true,Rx,1,8,47,CA,40,96,4C,00,80,00,
158764235,0062401E,true,Rx,1,8,40,00,5C,00,7C,00,60,00,
158764800,01400002,true,Rx,1,8,C0,00,A0,12,57,7E,9F,04,
158765395,02000014,true,Rx,1,8,C0,00,00,00,00,20,00,00,
158773589,0042401E,true,Rx,1,8,87,CA,40,96,4C,00,80,00,
158774160,0062401E,true,Rx,1,8,80,00,5C,00,7C,00,60,00,
158783660,0042401E,true,Rx,1,8,C7,CA,40,96,4C,00,80,00,
158784230,0062401E,true,Rx,1,8,C0,00,5C,00,7C,00,60,00,
158784796,01400002,true,Rx,1,8,00,00,A0,12,57,7E,9F,04,
158785391,02000014,true,Rx,1,8,00,00,00,00,00,20,00,00,
158793553,0042401E,true,Rx,1,8,07,CA,40,96,4C,00,80,00,
158794123,0062401E,true,Rx,1,8,00,00,5C,00,7C,00,60,00,
158803654,0042401E,true,Rx,1,8,47,CA,40,96,4C,00,80,00,
158804224,0062401E,true,Rx,1,8,40,00,5C,00,7C,00,60,00,
158804790,01400002,true,Rx,1,8,40,00,A0,12,57,7E,9F,04,
158805374,02000014,true,Rx,1,8,40,00,00,00,00,20,00,00,
158805939,02800006,true,Rx,1,8,41,2B,AB,0D,00,4C,00,00,
158813539,0042401E,true,Rx,1,8,87,CA,40,96,4C,00,80,00,
158814110,0062401E,true,Rx,1,8,80,00,5C,00,7C,00,60,00,
158823661,0042401E,true,Rx,1,8,C7,CA,40,96,4C,00,80,00,
158824231,0062401E,true,Rx,1,8,C0,00,5C,00,7C,00,60,00,
158824807,01400002,true,Rx,1,8,80,00,A0,12,57,7E,9F,04,
158825392,02000014,true,Rx,1,8,80,00,00,00,00,20,00,00,
158833587,0042401E,true,Rx,1,8,07,CA,40,96,4C,00,80,00,
158834167,0062401E,true,Rx,1,8,00,00,5C,00,7C,00,60,00,
158843655,0042401E,true,Rx,1,8,47,CA,40,96,4C,00,80,00,
158844226,0062401E,true,Rx,1,8,40,00,5C,00,7C,00,60,00,
158844791,01400002,true,Rx,1,8,C0,00,A0,12,57,7E,9F,04,
158845376,02000014,true,Rx,1,8,C0,00,00,00,00,20,00,00,
158853581,0042401E,true,Rx,1,8,87,CA,40,96,4C,00,80,00,
158854151,0062401E,true,Rx,1,8,80,00,5C,00,7C,00,60,00,
158854717,02800006,true,Rx,1,8,81,2B,AB,0D,00,4C,00,00,
158863657,0042401E,true,Rx,1,8,C7,CA,40,96,4C,00,80,00,
158864227,0062401E,true,Rx,1,8,C0,00,5C,00,7C,00,60,00,
158864793,01400002,true,Rx,1,8,00,00,A0,12,57,7E,9F,04,
158865388,02000014,true,Rx,1,8,00,00,00,00,00,20,00,00,
158873612,0042401E,true,Rx,1,8,07,CA,40,96,4C,00,80,00,
158874193,0062401E,true,Rx,1,8,00,00,5C,00,7C,00,60,00,
158883662,0042401E,true,Rx,1,8,47,CA,40,96,4C,00,80,00,
158884232,0062401E,true,Rx,1,8,40,00,5C,00,7C,00,60,00,
158884798,01400002,true,Rx,1,8,40,00,A0,12,57,7E,9F,04,
158885383,02000014,true,Rx,1,8,40,00,00,00,00,20,00,00,
158893641,0042401E,true,Rx,1,8,87,CA,40,96,4C,00,80,00,
158894210,0062401E,true,Rx,1,8,80,00,5C,00,7C,00,60,00,
158903678,0042401E,true,Rx,1,8,C7,CA,40,96,4C,00,80,00,
158904247,0062401E,true,Rx,1,8,C0,00,5C,00,7C,00,60,00,
158904822,01400002,true,Rx,1,8,80,00,E0,12,57,7E,9F,04,
158905407,02000014,true,Rx,1,8,80,00,00,00,00,20,00,00,
158905962,02800006,true,Rx,1,8,C1,2B,AB,0D,00,4C,00,00,
158915140,0042401E,true,Rx,1,8,07,CA,40,96,4C,00,80,00,
158915711,0062401E,true,Rx,1,8,00,00,5C,00,7C,00,60,00,
158923643,0042401E,true,Rx,1,8,47,CA,40,96,4C,00,80,00,
158924222,0062401E,true,Rx,1,8,40,00,5C,00,7C,00,60,00,
158924788,01400002,true,Rx,1,8,C0,00,A0,12,57,7E,9F,04,
158925372,02000014,true,Rx,1,8,C0,00,00,00,00,20,00,00,
158933587,0042401E,true,Rx,1,8,87,CA,40,96,4C,00,80,00,
158934157,0062401E,true,Rx,1,8,80,00,5C,00,7C,00,60,00,
158943646,0042401E,true,Rx,1,8,C7,CA,40,96,4C,00,80,00,
158944225,0062401E,true,Rx,1,8,C0,00,5C,00,7C,00,60,00,
158944791,01400002,true,Rx,1,8,00,00,A0,12,57,7E,9F,04,
158945386,02000014,true,Rx,1,8,00,00,00,00,00,20,00,00,
158953537,0042401E,true,Rx,1,8,07,CA,40,96,4C,00,80,00,
158954118,0062401E,true,Rx,1,8,00,00,5C,00,7C,00,60,00,
158954674,02800006,true,Rx,1,8,01,2B,AB,0D,00,4C,00,00,
158963647,0042401E,true,Rx,1,8,47,CA,40,96,4C,00,80,00,
158964216,0062401E,true,Rx,1,8,40,00,5C,00,7C,00,60,00,
158964781,01400002,true,Rx,1,8,40,00,A0,12,57,7E,9F,04,
158965366,02000014,true,Rx,1,8,40,00,00,00,00,20,00,00,
158973529,0042401E,true,Rx,1,8,87,CA,40,96,4C,00,80,00,
158974109,0062401E,true,Rx,1,8,80,00,5C,00,7C,00,60,00,
158983652,0042401E,true,Rx,1,8,C7,CA,40,96,4C,00,80,00,
