Time Stamp,ID,Extended,Dir,Bus,LEN,D1,D2,D3,D4,D5,D6,D7,D8
81428465,01E2402C,true,Rx,1,8,6F,50,00,0D,C2,10,00,00,
81429025,02620028,true,Rx,1,8,60,0C,00,48,F0,5F,45,3B,
81448507,01E2402C,true,Rx,1,8,8F,50,00,0D,C2,10,00,00,
81459260,00E00024,true,Rx,1,8,60,00,00,00,00,00,3F,80,
81459809,02620028,true,Rx,1,8,88,0C,00,48,F0,5F,45,3B,
81468572,01E2402C,true,Rx,1,8,CF,50,00,0D,C2,10,00,00,
81483419,0242C07C,true,Rx,1,8,01,0F,5E,74,0C,42,01,07,
81488444,01E2402C,true,Rx,1,8,0F,50,00,0D,C2,10,00,00,
81489004,02620028,true,Rx,1,8,C8,0C,00,48,F0,5F,45,3B,
81508548,01E2402C,true,Rx,1,8,4F,50,00,0E,C2,10,00,00,
81518424,02620028,true,Rx,1,8,08,0C,00,50,F0,5F,45,3B,
81528503,01E2402C,true,Rx,1,8,8F,50,00,0E,C2,10,00,00,
81548551,01E2402C,true,Rx,1,8,CF,50,00,2E,C2,10,00,00,
81549111,02620028,true,Rx,1,8,40,0C,00,D4,F0,5F,45,3B,
81568506,01E2402C,true,Rx,1,8,0F,50,00,0E,C2,11,00,00,
81578479,02620028,true,Rx,1,8,88,0C,00,40,F0,5F,45,3B,
81583420,00224024,true,Rx,1,8,AC,A1,00,00,C1,FF,98,00,
81583992,00A24026,true,Rx,1,8,6E,9F,00,80,00,00,00,00,
81584578,00C24000,true,Rx,1,8,40,00,80,00,40,00,40,00,
81585152,01C24006,true,Rx,1,8,6C,02,00,00,F0,00,00,00,
81585737,02220002,true,Rx,1,8,40,0E,C0,00,00,00,00,00,
81586322,03200002,true,Rx,1,8,40,00,00,00,00,00,00,00,
81586908,03400002,true,Rx,1,8,00,00,00,00,00,00,00,00,
81589687,01E2402C,true,Rx,1,8,4F,50,00,0E,C2,10,00,00,
81590454,00C24000,true,Rx,1,8,40,00,80,00,40,00,40,00,
81597471,00224024,true,Rx,1,8,A4,A1,00,00,C1,FF,98,00,
81598041,00A24026,true,Rx,1,8,8A,9F,00,80,00,00,00,00,
81598627,00C24000,true,Rx,1,8,40,00,80,00,40,00,40,00,
81604472,00C24000,true,Rx,1,8,40,00,80,00,40,00,40,00,
81605044,01C24006,true,Rx,1,8,88,02,00,00,F0,00,00,00,
81608615,01E2402C,true,Rx,1,8,8F,50,00,0E,C2,10,00,00,
81609185,02620028,true,Rx,1,8,C8,0C,00,40,F0,5F,45,3B,
81611509,00224024,true,Rx,1,8,AC,A1,00,00,C1,FF,98,00,
81612085,00A24026,true,Rx,1,8,CA,9F,00,80,00,00,00,00,
81612659,00C24000,true,Rx,1,8,40,00,80,00,C0,00,C0,00,
81618551,00C24000,true,Rx,1,8,40,00,80,00,C0,00,C0,00,
81619132,02220002,true,Rx,1,8,C0,5E,C0,00,00,00,00,00,
81619718,03200002,true,Rx,1,8,D0,00,00,00,00,00,00,00,
81620311,03400002,true,Rx,1,8,00,00,01,00,00,00,00,00,
81625464,00224024,true,Rx,1,8,A4,A1,00,00,C1,FF,98,00,
81626036,00A24026,true,Rx,1,8,0A,BF,00,80,00,00,00,00,
81626611,00C24000,true,Rx,1,8,40,00,80,00,C0,00,C0,00,
81627184,01C24006,true,Rx,1,8,CC,02,00,00,F0,00,00,00,
81628913,01E2402C,true,Rx,1,8,CF,50,00,0E,C2,10,00,00,
81632505,00C24000,true,Rx,1,8,40,00,80,00,C0,00,C0,00,
81638487,02620028,true,Rx,1,8,08,0C,00,40,F0,5F,45,3B,
81639473,00224024,true,Rx,1,8,AC,A1,00,00,C1,FF,98,00,
81640049,00A24026,true,Rx,1,8,4E,BF,00,80,00,00,00,00,
81640622,00C24000,true,Rx,1,8,40,00,80,00,C0,00,C0,00,
81646481,00C24000,true,Rx,1,8,40,00,80,00,C0,00,C0,00,
81647063,01C24006,true,Rx,1,8,0C,02,00,00,F0,00,00,00,
81648578,01E2402C,true,Rx,1,8,0F,50,00,0E,C2,10,00,00,
81653479,00224024,true,Rx,1,8,A4,A1,00,00,C1,FF,98,00,
81654049,00A24026,true,Rx,1,8,8A,BF,00,80,00,00,00,00,
81654625,00C24000,true,Rx,1,8,40,00,80,00,C0,00,C0,00,
81655199,02220002,true,Rx,1,8,40,5E,C0,00,00,00,00,00,
81660697,00C24000,true,Rx,1,8,40,00,80,00,C0,00,C0,00,
81662036,0162402A,true,Rx,1,8,00,FD,02,04,80,00,80,00,
81667608,00224024,true,Rx,1,8,AC,A1,00,00,C1,FF,98,00,
81668179,00A24026,true,Rx,1,8,CA,BF,00,80,00,00,00,00,
81668753,00C24000,true,Rx,1,8,40,00,80,00,C0,00,C0,00,
81669328,01C24006,true,Rx,1,8,4C,02,00,00,F0,00,00,00,
81669903,01E2402C,true,Rx,1,8,4F,50,00,0E,C2,10,00,00,
81670468,02620028,true,Rx,1,8,42,0C,00,43,F0,5F,45,3B,
81672017,0162402A,true,Rx,1,8,00,ED,12,04,80,00,80,00,
81674653,00C24000,true,Rx,1,8,40,00,80,00,C0,00,C0,00,
81681612,00224024,true,Rx,1,8,A4,A1,00,00,C1,FF,98,00,
81682193,00A24026,true,Rx,1,8,0A,BF,00,80,00,00,00,00,
81682769,00C24000,true,Rx,1,8,40,00,80,00,C0,00,C0,00,
81683332,0162402A,true,Rx,1,8,00,DD,22,04,80,00,80,00,
81688641,00C24000,true,Rx,1,8,40,00,80,00,C0,00,C0,00,
81689221,01C24006,true,Rx,1,8,88,02,00,00,F0,00,00,00,
81689787,01E2402C,true,Rx,1,8,8F,50,00,0E,C2,10,00,00,
81690372,02220002,true,Rx,1,8,40,5E,C0,00,00,00,00,00,
81692016,0162402A,true,Rx,1,8,00,CD,32,04,80,00,80,00,
81695643,00224024,true,Rx,1,8,AC,A1,00,00,C1,FF,98,00,
81696212,00A24026,true,Rx,1,8,4E,BF,00,80,00,00,00,00,
81696788,00C24000,true,Rx,1,8,40,00,80,00,C0,00,C0,00,
81698627,02620028,true,Rx,1,8,88,0C,00,41,F0,5F,45,3B,
81702016,0162402A,true,Rx,1,8,00,BD,42,04,80,00,80,00,
81702629,00C24000,true,Rx,1,8,40,00,80,00,C0,00,C0,00,
81708538,01E2402C,true,Rx,1,8,CF,50,00,0E,C2,10,00,00,
81709659,00224024,true,Rx,1,8,A4,A1,00,00,C1,FF,98,00,
81710232,00A24026,true,Rx,1,8,8A,BF,00,80,00,00,00,00,
81710806,00C24000,true,Rx,1,8,40,00,80,00,C0,00,C0,00,
81711381,01C24006,true,Rx,1,8,CC,02,00,00,F0,00,00,00,
81712018,0162402A,true,Rx,1,8,00,AD,52,04,80,00,80,00,
81716724,00C24000,true,Rx,1,8,40,00,80,00,C0,00,C0,00,
81717315,03200002,true,Rx,1,8,E0,00,00,00,00,00,00,00,
81717900,03400002,true,Rx,1,8,00,00,02,00,00,00,00,00,
81722020,0162402A,true,Rx,1,8,00,9D,62,04,80,00,80,00,
81723639,00224024,true,Rx,1,8,AC,A1,00,00,C1,FF,98,00,
81724210,00A24026,true,Rx,1,8,CA,BF,00,80,00,00,00,00,
81724784,00C24000,true,Rx,1,8,40,00,80,00,C0,00,C0,00,
81725369,02220002,true,Rx,1,8,C0,FE,C0,00,00,00,00,00,
81728841,01E2402C,true,Rx,1,8,0F,50,00,0E,C2,10,00,00,
81729400,02620028,true,Rx,1,8,C8,0C,00,41,F0,5F,45,3B,
81730640,00C24000,true,Rx,1,8,40,00,80,00,C0,00,C0,00,
81731223,01C24006,true,Rx,1,8,0C,02,00,00,F0,00,00,00,
81732016,0162402A,true,Rx,1,8,00,8D,72,04,80,00,80,00,
81737641,00224024,true,Rx,1,8,A4,A1,00,00,C1,FF,98,00,
81738222,00A24026,true,Rx,1,8,0A,BF,00,80,00,00,00,00,
81738798,00C24000,true,Rx,1,8,40,00,80,00,C0,00,C0,00,
81742031,0162402A,true,Rx,1,8,00,7D,82,04,80,00,80,00,
81744676,00C24000,true,Rx,1,8,40,00,80,00,C0,00,C0,00,
81748584,01E2402C,true,Rx,1,8,4F,50,00,0E,C2,10,00,00,
81751692,00224024,true,Rx,1,8,AC,A1,00,00,C1,FF,98,00,
81752262,00A24026,true,Rx,1,8,4E,BF,00,80,00,00,00,00,
81752838,00C24000,true,Rx,1,8,40,00,80,00,C0,00,C0,00,
81753412,0162402A,true,Rx,1,8,00,6D,92,04,80,00,80,00,
81753987,01C24006,true,Rx,1,8,4C,02,00,00,F0,00,00,00,
81758682,00C24000,true,Rx,1,8,40,00,80,00,C0,00,C0,00,
81759261,02220002,true,Rx,1,8,40,FE,C0,00,00,00,00,00,
81759827,02620028,true,Rx,1,8,08,0C,00,41,F0,5F,45,3B,
81762018,0162402A,true,Rx,1,8,00,5D,A2,04,80,00,80,00,
81763855,00E00024,true,Rx,1,8,80,00,00,00,00,00,3F,00,
81764419,0242C07C,true,Rx,1,8,05,00,3F,9E,00,0A,07,A8,
81765721,00224024,true,Rx,1,8,A4,A1,00,00,C1,FF,98,00,
81766294,00A24026,true,Rx,1,8,8A,BF,00,80,00,00,00,00,
81766868,00C24000,true,Rx,1,8,40,00,80,00,C0,00,C0,00,
81768627,01E2402C,true,Rx,1,8,8F,50,00,0E,C2,11,00,00,
81772009,0162402A,true,Rx,1,8,00,4D,B2,04,80,00,80,00,
81772735,00C24000,true,Rx,1,8,40,00,80,00,C0,00,C0,00,
81773310,01C24006,true,Rx,1,8,88,02,00,00,FF,ED,00,00,
81779726,00224024,true,Rx,1,8,AC,A1,00,00,C5,FF,98,00,
81780296,00A24026,true,Rx,1,8,CA,BF,00,80,00,00,00,00,
81780871,00C24000,true,Rx,1,8,40,00,80,00,C0,00,C0,00,
81782015,0162402A,true,Rx,1,8,00,3D,C2,04,80,00,80,00,
81786730,00C24000,true,Rx,1,8,40,00,80,00,C0,00,C0,00,
81788441,01E2402C,true,Rx,1,8,CF,50,00,0E,C2,10,00,00,
81789012,02620028,true,Rx,1,8,40,0C,00,41,F0,5F,45,3B,
81792012,0162402A,true,Rx,1,8,00,2D,D2,04,80,00,80,00,
81793745,00224024,true,Rx,1,8,A4,A1,00,00,C5,FF,98,00,
81794319,00A24026,true,Rx,1,8,0A,BF,00,80,00,00,00,00,
81794903,00C24000,true,Rx,1,8,40,00,80,00,C0,00,C0,00,
81795476,01C24006,true,Rx,1,8,CC,00,00,00,FF,E8,00,00,
81796062,02220002,true,Rx,1,8,40,FE,C0,00,00,00,00,00,
81800744,00C24000,true,Rx,1,8,40,00,80,00,C0,00,C0,00,
81802010,0162402A,true,Rx,1,8,00,1D,E2,04,80,00,80,00,
81807739,00224024,true,Rx,1,8,AC,A1,00,00,C5,FF,98,00,
81808309,00A24026,true,Rx,1,8,4E,BF,00,80,00,00,00,00,
81808885,00C24000,true,Rx,1,8,40,00,80,00,C0,00,C0,00,
81809470,01E2402C,true,Rx,1,8,0F,50,00,0E,C2,10,00,00,
81812021,0162402A,true,Rx,1,8,00,0D,F2,04,80,00,80,00,
81814845,00C24000,true,Rx,1,8,40,00,80,00,C0,00,C0,00,
81815425,01C24006,true,Rx,1,8,0C,00,00,00,FF,F6,00,00,
81816000,03200002,true,Rx,1,8,F0,00,00,00,00,00,00,00,
81816597,03400002,true,Rx,1,8,00,00,03,00,00,00,00,00,
81819114,02620028,true,Rx,1,8,88,0C,00,41,F0,5F,45,3B,
81821781,00224024,true,Rx,1,8,A4,A1,00,00,C5,FF,98,00,
81822351,00A24026,true,Rx,1,8,8A,BF,00,80,00,00,00,00,
81822926,00C24000,true,Rx,1,8,40,00,80,00,C0,00,C0,00,
81823501,0162402A,true,Rx,1,8,00,FD,02,04,80,00,80,00,
81828654,01E2402C,true,Rx,1,8,4F,50,00,0E,C2,10,00,00,
81829234,00C24000,true,Rx,1,8,40,00,80,00,C0,00,C0,00,
81829820,02220002,true,Rx,1,8,C0,FE,C0,00,00,00,00,00,
81832012,0162402A,true,Rx,1,8,00,ED,12,04,80,00,80,00,
81835753,00224024,true,Rx,1,8,AC,A1,00,00,C1,FF,98,00,
81836334,00A24026,true,Rx,1,8,CA,BF,00,80,00,00,00,00,
81836908,00C24000,true,Rx,1,8,40,00,80,00,C0,00,C0,00,
81837483,01C24006,true,Rx,1,8,4C,00,00,00,F0,01,00,00,
81838837,00E00024,true,Rx,1,8,C0,00,00,00,00,00,3F,20,
81842004,0162402A,true,Rx,1,8,00,DD,22,04,80,00,80,00,
81842742,00C24000,true,Rx,1,8,40,00,80,00,C0,00,C0,00,
81848494,01E2402C,true,Rx,1,8,8F,50,00,0E,C2,10,00,00,
81849065,02620028,true,Rx,1,8,C8,0C,00,41,F0,5F,45,3B,
81849765,00224024,true,Rx,1,8,A4,A1,00,00,C1,FF,98,00,
81850339,00A24026,true,Rx,1,8,0A,BF,00,80,00,00,00,00,
81850915,00C24000,true,Rx,1,8,40,00,80,00,C0,00,C0,00,
81852008,0162402A,true,Rx,1,8,00,CD,32,04,80,00,80,00,
81856796,00C24000,true,Rx,1,8,40,00,80,00,C0,00,C0,00,
81857367,01C24006,true,Rx,1,8,88,00,00,00,F0,0C,00,00,
81862012,0162402A,true,Rx,1,8,00,BD,42,04,80,00,80,00,
81863767,00224024,true,Rx,1,8,AC,A1,00,00,C5,FF,98,00,
81864348,00A24026,true,Rx,1,8,4E,BF,00,80,00,00,00,00,
81864923,00C24000,true,Rx,1,8,40,00,80,00,C0,00,C0,00,
81865508,02220002,true,Rx,1,8,40,FE,C0,00,00,00,00,00,
81868970,01E2402C,true,Rx,1,8,CF,50,00,0E,C2,10,00,00,
81870788,00C24000,true,Rx,1,8,40,00,80,00,C0,00,C0,00,
81872011,0162402A,true,Rx,1,8,00,AD,52,04,80,00,80,00,
81877771,00224024,true,Rx,1,8,A4,A1,00,00,C5,FF,98,00,
81878340,00A24026,true,Rx,1,8,8A,BF,00,80,00,00,00,00,
81878916,00C24000,true,Rx,1,8,40,00,80,00,C0,00,C0,00,
81879490,01C24006,true,Rx,1,8,CC,00,00,00,F0,14,00,00,
81880056,02620028,true,Rx,1,8,08,0C,00,41,F0,5F,45,3B,
81882006,0162402A,true,Rx,1,8,00,9D,62,04,80,00,80,00,
81884810,00C24000,true,Rx,1,8,40,00,80,00,C0,00,C0,00,
81888524,01E2402C,true,Rx,1,8,0F,50,00,0E,C2,10,00,00,
81891780,00224024,true,Rx,1,8,AC,A1,00,00,C5,FF,98,00,
81892350,00A24026,true,Rx,1,8,CA,BF,00,80,00,00,00,00,
81892925,00C24000,true,Rx,1,8,40,00,80,00,C0,00,C0,00,
81893499,0162402A,true,Rx,1,8,00,8D,72,04,80,00,80,00,
81898787,00C24000,true,Rx,1,8,40,00,80,00,C0,00,C0,00,
81899368,01C24006,true,Rx,1,8,0C,00,00,00,F0,18,00,00,
81899944,02220002,true,Rx,1,8,40,FE,C0,00,00,00,00,00,
81902020,0162402A,true,Rx,1,8,00,7D,82,04,80,00,80,00,
81905770,00224024,true,Rx,1,8,A4,A1,00,00,C5,FF,98,00,
81906351,00A24026,true,Rx,1,8,0A,BF,00,80,00,00,00,00,
81906926,00C24000,true,Rx,1,8,40,00,80,00,C0,00,C0,00,
81908755,00E00024,true,Rx,1,8,00,00,00,00,00,00,3F,40,
81909329,01E2402C,true,Rx,1,8,4F,50,00,0E,C2,10,00,00,
81909891,02620028,true,Rx,1,8,42,0C,00,41,F0,5F,45,3B,
81912008,0162402A,true,Rx,1,8,00,6D,92,04,80,00,80,00,
81912884,00C24000,true,Rx,1,8,40,00,80,00,C0,00,C0,00,
81913469,03200002,true,Rx,1,8,C0,00,00,00,00,00,00,00,
81914055,03400002,true,Rx,1,8,00,00,00,00,00,00,00,00,
81919791,00224024,true,Rx,1,8,AC,A1,00,00,C5,FF,98,00,
81920372,00A24026,true,Rx,1,8,4E,BF,00,80,00,00,00,00,
81920947,00C24000,true,Rx,1,8,40,00,80,00,C0,00,C0,00,
81921522,01C24006,true,Rx,1,8,4C,00,00,00,F0,1B,00,00,
81922086,0162402A,true,Rx,1,8,00,5D,A2,04,80,00,80,00,
81926814,00C24000,true,Rx,1,8,40,00,80,00,C0,00,C0,00,
81928515,01E2402C,true,Rx,1,8,8F,50,00,0E,C2,10,00,00,
81931998,0162402A,true,Rx,1,8,00,4D,B2,04,80,00,80,00,
81933847,00224024,true,Rx,1,8,A4,A1,00,00,C5,FF,98,00,
81934406,00A24026,true,Rx,1,8,8A,BF,00,80,00,00,00,00,
81934981,00C24000,true,Rx,1,8,40,00,80,00,C0,00,C0,00,
81935567,02220002,true,Rx,1,8,C0,FE,C0,00,00,00,00,00,
81938851,02620028,true,Rx,1,8,88,0C,00,C5,F0,5F,45,3B,
81940803,00C24000,true,Rx,1,8,40,00,80,00,C0,00,C0,00,
81941382,01C24006,true,Rx,1,8,88,00,00,00,F0,1C,00,00,
81942000,0162402A,true,Rx,1,8,00,3D,C2,04,80,00,80,00,
81947804,00224024,true,Rx,1,8,AC,A1,00,00,C5,FF,98,00,
81948374,00A24026,true,Rx,1,8,CA,BF,00,80,00,00,00,00,
81948948,00C24000,true,Rx,1,8,40,00,80,00,C0,00,C0,00,
81949513,01E2402C,true,Rx,1,8,CF,50,00,2E,C2,10,00,00,
81952000,0162402A,true,Rx,1,8,00,2D,D2,04,80,00,80,00,
81954824,00C24000,true,Rx,1,8,40,00,80,00,C0,00,C0,00,
81961797,00224024,true,Rx,1,8,A4,A1,00,00,C5,FF,98,00,
81962367,00A24026,true,Rx,1,8,0A,BF,00,80,00,00,00,00,
81962943,00C24000,true,Rx,1,8,40,00,80,00,C0,00,C0,00,
81963516,0162402A,true,Rx,1,8,00,1D,E2,04,80,00,80,00,
81964092,01C24006,true,Rx,1,8,CC,00,00,00,F0,1C,00,00,
81968661,01E2402C,true,Rx,1,8,0F,50,00,0E,C2,11,00,00,
81969242,00C24000,true,Rx,1,8,40,00,80,00,C0,00,C0,00,
81969816,02220002,true,Rx,1,8,40,FE,C0,00,00,00,00,00,
81970380,02620028,true,Rx,1,8,C8,0C,00,41,F0,5F,45,3B,
81972014,0162402A,true,Rx,1,8,00,0D,F2,04,80,00,80,00,
81975828,00224024,true,Rx,1,8,AC,A1,00,00,C5,FF,98,00,
81976409,00A24026,true,Rx,1,8,4E,BF,00,80,00,00,00,00,
81976985,00C24000,true,Rx,1,8,40,00,80,00,C0,00,C0,00,
81978845,00E00024,true,Rx,1,8,40,00,00,00,00,00,3F,60,
81982011,0162402A,true,Rx,1,8,00,FD,02,04,80,00,80,00,
81982821,00C24000,true,Rx,1,8,40,00,80,00,C0,00,C0,00,
81983396,01C24006,true,Rx,1,8,0C,00,00,00,F0,1D,00,00,
81988572,01E2402C,true,Rx,1,8,4F,50,00,0E,C2,10,00,00,
81989879,00224024,true,Rx,1,8,A4,A1,00,00,C5,FF,98,00,
81990453,00A24026,true,Rx,1,8,8A,BF,00,80,00,00,00,00,
81991026,00C24000,true,Rx,1,8,40,00,80,00,C0,00,C0,00,
81992006,0162402A,true,Rx,1,8,00,ED,12,04,80,00,80,00,
81996845,00C24000,true,Rx,1,8,40,00,80,00,C0,00,C0,00,
81998443,02620028,true,Rx,1,8,08,0C,00,41,F0,5F,45,3B,
82001997,0162402A,true,Rx,1,8,00,DD,22,04,80,00,80,00,
82003846,00224024,true,Rx,1,8,AC,A1,00,00,C5,FF,98,00,
82004416,00A24026,true,Rx,1,8,CA,BF,00,80,00,00,00,00,
82004991,00C24000,true,Rx,1,8,40,00,80,00,C0,00,C0,00,
82005566,01C24006,true,Rx,1,8,4C,00,00,00,F0,20,00,00,
82006151,02220002,true,Rx,1,8,40,FE,C0,00,00,00,00,00,
82008912,01E2402C,true,Rx,1,8,8F,50,00,0E,C2,10,00,00,
82010915,00C24000,true,Rx,1,8,40,00,80,00,C0,00,C0,00,
82011500,03200002,true,Rx,1,8,D0,00,00,00,00,00,00,00,
82012075,0162402A,true,Rx,1,8,00,CD,32,04,80,00,80,00,
82012671,03400002,true,Rx,1,8,00,00,01,00,00,00,00,00,
82017843,00224024,true,Rx,1,8,A4,A1,00,00,C5,FF,B8,00,
82018424,00A24026,true,Rx,1,8,0A,BF,00,80,00,00,00,00,
82018999,00C24000,true,Rx,1,8,40,00,80,00,C0,00,C0,00,
82022001,0162402A,true,Rx,1,8,00,BD,42,04,80,00,80,00,
82024888,00C24000,true,Rx,1,8,40,00,80,00,C0,00,C0,00,
82025458,01C24006,true,Rx,1,8,88,00,00,00,F0,20,00,00,
82028541,01E2402C,true,Rx,1,8,CF,50,00,0E,C2,10,00,00,
82029112,02620028,true,Rx,1,8,40,0C,00,41,F0,5F,45,3B,
82031862,00224024,true,Rx,1,8,AC,A1,00,00,C5,FF,B8,00,
82032437,00A24026,true,Rx,1,8,4E,BF,00,80,00,00,00,00,
82033010,00C24000,true,Rx,1,8,40,00,80,00,C0,00,C0,00,
82033576,0162402A,true,Rx,1,8,00,AD,52,04,80,00,80,00,
82038876,00C24000,true,Rx,1,8,40,00,80,00,C0,00,C0,00,
82039456,02220002,true,Rx,1,8,40,FE,C0,00,00,00,00,00,
82042000,0162402A,true,Rx,1,8,00,9D,62,04,80,00,80,00,
82043662,0242C07C,true,Rx,1,8,12,04,02,02,02,02,05,01,
82045893,00224024,true,Rx,1,8,A4,A1,00,00,C5,FF,B8,00,
82046466,00A24026,true,Rx,1,8,8A,BF,00,80,00,00,00,00,
82047040,00C24000,true,Rx,1,8,40,00,80,00,C0,00,C0,00,
82047617,01C24006,true,Rx,1,8,CC,00,00,00,F0,1F,00,00,
82048875,00E00024,true,Rx,1,8,80,00,00,00,00,00,3F,80,
82049450,01E2402C,true,Rx,1,8,0F,50,00,0E,C2,10,00,00,
82051993,0162402A,true,Rx,1,8,00,8D,72,04,80,00,80,00,
82052891,00C24000,true,Rx,1,8,40,00,80,00,C0,00,C0,00,
82058494,02620028,true,Rx,1,8,88,0C,00,41,F0,5F,45,3B,
82059855,00224024,true,Rx,1,8,AC,A1,00,00,C5,FF,B8,00,
82060428,00A24026,true,Rx,1,8,CA,BF,00,80,00,00,00,00,
82061001,00C24000,true,Rx,1,8,40,00,80,00,C0,00,C0,00,
82062003,0162402A,true,Rx,1,8,00,7D,82,04,80,00,80,00,
82066873,00C24000,true,Rx,1,8,40,00,80,00,C0,00,C0,00,
82067454,01C24006,true,Rx,1,8,0C,00,00,00,F0,21,00,00,
82068538,01E2402C,true,Rx,1,8,4F,50,00,0E,C2,10,00,00,
82072000,0162402A,true,Rx,1,8,00,6D,92,04,80,00,80,00,
82073868,00224024,true,Rx,1,8,A4,A1,00,00,C5,FF,B8,00,
82074449,00A24026,true,Rx,1,8,0A,BF,00,80,00,00,00,00,
82075023,00C24000,true,Rx,1,8,40,00,80,00,C0,00,C0,00,
82075609,02220002,true,Rx,1,8,C0,FE,C0,00,00,00,00,00,
82080885,00C24000,true,Rx,1,8,40,00,80,00,C0,00,C0,00,
82081996,0162402A,true,Rx,1,8,00,5D,A2,04,80,00,80,00,
82087881,00224024,true,Rx,1,8,AC,A1,00,00,C5,FF,B8,00,
82088452,00A24026,true,Rx,1,8,4E,BF,00,80,00,00,00,00,
82089027,00C24000,true,Rx,1,8,40,00,80,00,C0,00,C0,00,
82089602,01C24006,true,Rx,1,8,4C,00,00,00,F0,20,00,00,
82090176,01E2402C,true,Rx,1,8,8F,50,00,0E,C2,10,00,00,
82090742,02620028,true,Rx,1,8,C8,0C,00,43,F0,5F,45,3B,
82091989,0162402A,true,Rx,1,8,00,4D,B2,04,80,00,80,00,
82094905,00C24000,true,Rx,1,8,40,00,80,00,C0,00,C0,00,
82101871,00224024,true,Rx,1,8,A4,A1,00,00,C5,FF,B8,00,
82102442,00A24026,true,Rx,1,8,8A,BF,00,80,00,00,00,00,
82103017,00C24000,true,Rx,1,8,40,00,80,00,C0,00,C0,00,
82103583,0162402A,true,Rx,1,8,00,3D,C2,04,80,00,80,00,
82108796,01E2402C,true,Rx,1,8,CF,50,00,0E,C2,10,00,00,
82109377,00C24000,true,Rx,1,8,40,00,80,00,C0,00,C0,00,
82109953,01C24006,true,Rx,1,8,88,00,00,00,F0,1F,00,00,
82110538,02220002,true,Rx,1,8,40,FE,C0,00,00,00,00,00,
82111122,03200002,true,Rx,1,8,E0,00,00,00,00,00,00,00,
82111708,03400002,true,Rx,1,8,00,00,02,00,00,00,00,00,
82112283,0162402A,true,Rx,1,8,00,2D,D2,04,80,00,80,00,
82115915,00224024,true,Rx,1,8,AC,A1,00,00,C5,FF,B8,00,
82116484,00A24026,true,Rx,1,8,CA,BF,00,80,00,00,00,00,
82117059,00C24000,true,Rx,1,8,40,00,80,00,C0,00,C0,00,
82118588,02620028,true,Rx,1,8,00,0C,00,41,F0,5F,45,3B,
82121971,0162402A,true,Rx,1,8,00,1D,E2,04,80,00,80,00,
82122926,00C24000,true,Rx,1,8,40,00,80,00,C0,00,C0,00,
82123615,00E00024,true,Rx,1,8,C0,00,00,00,00,00,3F,A0,
82128508,01E2402C,true,Rx,1,8,0F,50,00,0E,C2,10,00,00,
82129900,00224024,true,Rx,1,8,A4,A1,00,00,C5,FF,B8,00,
82130474,00A24026,true,Rx,1,8,0A,BF,00,80,00,00,00,00,
82131047,00C24000,true,Rx,1,8,40,00,80,00,C0,00,C0,00,
82131633,01C24006,true,Rx,1,8,CC,00,00,00,F0,1F,00,00,
82132207,0162402A,true,Rx,1,8,00,0D,F2,04,80,00,80,00,
82136968,00C24000,true,Rx,1,8,40,00,80,00,C0,00,C0,00,
82141981,0162402A,true,Rx,1,8,00,FD,02,04,80,00,80,00,
82143922,00224024,true,Rx,1,8,AC,A1,00,00,C5,FF,B8,00,
82144503,00A24026,true,Rx,1,8,4E,BF,00,80,00,00,00,00,
82145079,00C24000,true,Rx,1,8,40,00,80,00,C0,00,C0,00,
82145653,02220002,true,Rx,1,8,40,FE,C0,00,00,00,00,00,
82148887,01E2402C,true,Rx,1,8,4F,50,00,0E,C2,10,00,00,
82149456,02620028,true,Rx,1,8,48,0C,00,41,F0,5F,45,3B,
82150931,00C24000,true,Rx,1,8,40,00,80,00,C0,00,C0,00,
82151505,01C24006,true,Rx,1,8,0C,00,00,00,F0,1F,00,00,
82152081,0162402A,true,Rx,1,8,00,ED,12,04,80,00,80,00,
82157939,00224024,true,Rx,1,8,A4,A1,00,00,C5,FF,B8,00,
82158509,00A24026,true,Rx,1,8,8A,BF,00,80,00,00,00,00,
82159085,00C24000,true,Rx,1,8,40,00,80,00,C0,00,C0,00,
82161962,0162402A,true,Rx,1,8,00,DD,22,04,80,00,80,00,
82164943,00C24000,true,Rx,1,8,40,00,80,00,C0,00,C0,00,
82168533,01E2402C,true,Rx,1,8,8F,50,00,0E,C2,11,00,00,
82171928,00224024,true,Rx,1,8,AC,A1,00,00,C5,FF,B8,00,
82172497,00A24026,true,Rx,1,8,CA,BF,00,80,00,00,00,00,
82173073,00C24000,true,Rx,1,8,40,00,80,00,C0,00,C0,00,
82173649,0162402A,true,Rx,1,8,00,CD,32,04,80,00,80,00,
82174224,01C24006,true,Rx,1,8,4C,00,00,00,F0,21,00,00,
82178665,02620028,true,Rx,1,8,8A,0C,00,41,F0,5F,45,3B,
82179235,00C24000,true,Rx,1,8,40,00,80,00,C0,00,C0,00,
82179821,02220002,true,Rx,1,8,C0,FE,C0,00,00,00,00,00,
82181961,0162402A,true,Rx,1,8,00,BD,42,04,80,00,80,00,
82185932,00224024,true,Rx,1,8,A4,A1,00,00,C5,FF,B8,00,
82186513,00A24026,true,Rx,1,8,0A,BF,00,80,00,00,00,00,
82187088,00C24000,true,Rx,1,8,40,00,80,00,C0,00,C0,00,
82188636,01E2402C,true,Rx,1,8,CF,50,00,0E,C2,10,00,00,
82191958,0162402A,true,Rx,1,8,00,AD,52,04,80,00,80,00,
82192985,00C24000,true,Rx,1,8,40,00,80,00,C0,00,C0,00,
82193582,00E00024,true,Rx,1,8,00,00,00,00,00,00,3F,C0,
82194154,01C24006,true,Rx,1,8,88,00,00,00,F0,21,00,00,
82199930,00224024,true,Rx,1,8,AC,A1,00,00,C5,FF,B8,00,
82200500,00A24026,true,Rx,1,8,4E,BF,00,80,00,00,00,00,
82201076,00C24000,true,Rx,1,8,40,00,80,00,C0,00,C0,00,
82201962,0162402A,true,Rx,1,8,00,9D,62,04,80,00,80,00,
82207043,00C24000,true,Rx,1,8,40,00,80,00,C0,00,C0,00,
82207625,03200002,true,Rx,1,8,F0,00,00,00,00,00,00,00,
82208209,03400002,true,Rx,1,8,00,00,03,00,00,00,00,00,
82208795,01E2402C,true,Rx,1,8,0F,50,00,0E,C2,10,00,00,
82209358,02620028,true,Rx,1,8,C8,0C,00,41,F0,5F,45,3B,
82211965,0162402A,true,Rx,1,8,00,8D,72,04,80,00,80,00,
82213946,00224024,true,Rx,1,8,A4,A1,00,00,C5,FF,B8,00,
82214521,00A24026,true,Rx,1,8,8A,BF,00,80,00,00,00,00,
82215096,00C24000,true,Rx,1,8,40,00,80,00,C0,00,C0,00,
82215672,01C24006,true,Rx,1,8,CC,00,00,00,F0,1F,00,00,
82216256,02220002,true,Rx,1,8,40,FE,C0,00,00,00,00,00,
82220945,00C24000,true,Rx,1,8,40,00,80,00,C0,00,C0,00,
82221973,0162402A,true,Rx,1,8,00,7D,82,04,80,00,80,00,
82227942,00224024,true,Rx,1,8,AC,A1,00,00,C5,FF,B8,00,
82228511,00A24026,true,Rx,1,8,CA,BF,00,80,00,00,00,00,
82229087,00C24000,true,Rx,1,8,40,00,80,00,C0,00,C0,00,
82229663,01E2402C,true,Rx,1,8,4F,50,00,0E,C2,10,00,00,
82231961,0162402A,true,Rx,1,8,00,6D,92,04,80,00,80,00,
82234974,00C24000,true,Rx,1,8,40,00,80,00,C0,00,C0,00,
82235557,01C24006,true,Rx,1,8,0C,00,00,00,F0,20,00,00,
82238513,02620028,true,Rx,1,8,08,0C,00,41,F0,5F,45,3B,
82241964,0162402A,true,Rx,1,8,00,5D,A2,04,80,00,80,00,
82242534,00224024,true,Rx,1,8,A4,A1,00,00,C5,FF,B8,00,
82243108,00A24026,true,Rx,1,8,0A,BF,00,80,00,00,00,00,
82243684,00C24000,true,Rx,1,8,40,00,80,00,C0,00,C0,00,
82248646,01E2402C,true,Rx,1,8,8F,50,00,0E,C2,10,00,00,
82249225,00C24000,true,Rx,1,8,40,00,80,00,C0,00,C0,00,
82249801,02220002,true,Rx,1,8,40,FE,C0,00,00,00,00,00,
82251962,0162402A,true,Rx,1,8,00,4D,B2,04,80,00,80,00,
82255975,00224024,true,Rx,1,8,AC,A1,00,00,C5,FF,B8,00,
82256557,00A24026,true,Rx,1,8,4E,BF,00,80,00,00,00,00,
82257131,00C24000,true,Rx,1,8,40,00,80,00,C0,00,C0,00,
82257706,01C24006,true,Rx,1,8,4C,00,00,00,F0,21,00,00,
82261962,0162402A,true,Rx,1,8,00,3D,C2,04,80,00,80,00,
82262979,00C24000,true,Rx,1,8,40,00,80,00,C0,00,C0,00,
82263565,00E00024,true,Rx,1,8,40,00,00,00,00,00,3F,E0,
82268468,01E2402C,true,Rx,1,8,CF,50,00,0E,C2,30,00,00,
82269040,02620028,true,Rx,1,8,40,0C,00,41,F0,5F,45,3B,
82269977,00224024,true,Rx,1,8,A4,A1,00,00,C5,FF,B8,00,
82270551,00A24026,true,Rx,1,8,8A,BF,00,80,00,00,00,00,
82271125,00C24000,true,Rx,1,8,40,00,80,00,C0,00,C0,00,
82271960,0162402A,true,Rx,1,8,00,2D,D2,04,80,00,80,00,
82277002,00C24000,true,Rx,1,8,40,00,80,00,C0,00,C0,00,
82277573,01C24006,true,Rx,1,8,88,00,00,00,F0,20,00,00,
82281966,0162402A,true,Rx,1,8,00,1D,E2,04,80,00,80,00,
82283981,00224024,true,Rx,1,8,AC,A1,00,00,C5,FF,B8,00,
82284551,00A24026,true,Rx,1,8,CA,BF,00,80,00,00,00,00,
82285125,00C24000,true,Rx,1,8,40,00,80,00,C0,00,C0,00,
82285711,02220002,true,Rx,1,8,C0,FE,C0,00,00,00,00,00,
82289008,01E2402C,true,Rx,1,8,0F,50,00,0E,C2,10,00,00,
82290992,00C24000,true,Rx,1,8,40,00,80,00,C0,00,C0,00,
82291967,0162402A,true,Rx,1,8,00,0D,F2,04,80,00,80,00,
82297976,00224024,true,Rx,1,8,A4,A1,00,00,C5,FF,B8,00,
82298558,00A24026,true,Rx,1,8,0A,BF,00,80,00,00,00,00,
82299131,00C24000,true,Rx,1,8,40,00,80,00,C0,00,C0,00,
82299706,01C24006,true,Rx,1,8,CC,00,00,00,F0,23,00,00,
82300271,02620028,true,Rx,1,8,88,0C,00,41,F0,5F,45,3B,
82301966,0162402A,true,Rx,1,8,00,FD,02,04,80,00,80,00,
82305097,00C24000,true,Rx,1,8,40,00,80,00,C0,00,C0,00,
82305679,03200002,true,Rx,1,8,C0,00,00,00,00,00,00,00,
82306264,03400002,true,Rx,1,8,00,00,00,00,00,00,00,00,
82309192,01E2402C,true,Rx,1,8,4F,50,00,0E,C2,10,00,00,
82311964,0162402A,true,Rx,1,8,00,ED,12,04,80,00,80,00,
82312524,00224024,true,Rx,1,8,AC,A1,00,00,C5,FF,B8,00,
82313109,00A24026,true,Rx,1,8,4E,BF,00,80,00,00,00,00,
82313684,00C24000,true,Rx,1,8,40,00,80,00,C0,00,C0,00,
82319013,00C24000,true,Rx,1,8,40,00,80,00,C0,00,C0,00,
82319586,01C24006,true,Rx,1,8,0C,00,00,00,F0,21,00,00,
82320171,02220002,true,Rx,1,8,40,FE,C0,00,00,00,00,00,
82321960,0162402A,true,Rx,1,8,00,DD,22,04,80,00,80,00,
82326001,00224024,true,Rx,1,8,A4,A1,00,00,C5,FF,B8,00,
82326572,00A24026,true,Rx,1,8,8A,BF,00,80,00,00,00,00,
82327147,00C24000,true,Rx,1,8,40,00,80,00,C0,00,C0,00,
82328602,01E2402C,true,Rx,1,8,8F,50,00,2E,C2,10,00,00,
82329165,0242C07C,true,Rx,1,8,17,02,01,01,01,02,02,01,
82329731,02620028,true,Rx,1,8,C8,0C,00,C5,F0,5F,45,3B,
82331956,0162402A,true,Rx,1,8,00,CD,32,04,80,00,80,00,
82333055,00C24000,true,Rx,1,8,40,00,80,00,C0,00,C0,00,
82333651,00E00024,true,Rx,1,8,80,00,00,00,00,00,3F,00,
82339999,00224024,true,Rx,1,8,AC,A1,00,00,C5,FF,B8,00,
82340569,00A24026,true,Rx,1,8,CA,BF,00,80,00,00,00,00,
82341144,00C24000,true,Rx,1,8,40,00,80,00,C0,00,C0,00,
82341719,01C24006,true,Rx,1,8,4C,00,00,00,F0,1F,00,00,
82342292,0162402A,true,Rx,1,8,00,BD,42,04,80,00,80,00,
82347071,00C24000,true,Rx,1,8,40,00,80,00,C0,00,C0,00,
82348558,01E2402C,true,Rx,1,8,CF,50,00,0E,C2,10,00,00,
82351954,0162402A,true,Rx,1,8,00,AD,52,04,80,00,80,00,
82354030,00224024,true,Rx,1,8,A4,A1,00,00,C5,FF,B8,00,
82354613,00A24026,true,Rx,1,8,0A,BF,00,80,00,00,00,00,
82355186,00C24000,true,Rx,1,8,40,00,80,00,C0,00,C0,00,
82355762,02220002,true,Rx,1,8,40,FE,C0,00,00,00,00,00,
82358807,02620028,true,Rx,1,8,08,0C,00,41,F0,5F,45,3B,
82361031,00C24000,true,Rx,1,8,40,00,80,00,C0,00,C0,00,
82361603,01C24006,true,Rx,1,8,88,00,00,00,F0,1E,00,00,
82362176,0162402A,true,Rx,1,8,00,9D,62,04,80,00,80,00,
82368033,00224024,true,Rx,1,8,AC,A1,00,00,C5,FF,B8,00,
82368605,00A24026,true,Rx,1,8,4E,BF,00,80,00,00,00,00,
82369179,00C24000,true,Rx,1,8,40,00,80,00,C0,00,C0,00,
82369753,01E2402C,true,Rx,1,8,0F,50,00,0E,C2,11,00,00,
82371948,0162402A,true,Rx,1,8,00,8D,72,04,80,00,80,00,
82375054,00C24000,true,Rx,1,8,40,00,80,00,C0,00,C0,00,
82381963,0162402A,true,Rx,1,8,00,7D,82,04,80,00,80,00,
82382533,00224024,true,Rx,1,8,A4,A1,00,00,C5,FF,B8,00,
82383099,00A24026,true,Rx,1,8,8A,BF,00,80,00,00,00,00,
82383673,00C24000,true,Rx,1,8,40,00,80,00,C0,00,C0,00,
82384248,01C24006,true,Rx,1,8,CC,00,00,00,F0,1E,00,00,
82388649,01E2402C,true,Rx,1,8,4F,50,00,0E,C2,10,00,00,
82389219,00C24000,true,Rx,1,8,40,00,80,00,C0,00,C0,00,
82389804,02220002,true,Rx,1,8,C0,FE,C0,00,00,00,00,00,
82390379,02620028,true,Rx,1,8,40,0C,00,41,F0,5F,45,3B,
82391961,0162402A,true,Rx,1,8,00,6D,92,04,80,00,80,00,
82396070,00224024,true,Rx,1,8,AC,A1,00,00,C5,FF,B8,00,
82396641,00A24026,true,Rx,1,8,CA,BF,00,80,00,00,00,00,
82397215,00C24000,true,Rx,1,8,40,00,80,00,C0,00,C0,00,
82401955,0162402A,true,Rx,1,8,00,5D,A2,04,80,00,80,00,
82403128,00C24000,true,Rx,1,8,40,00,80,00,C0,00,C0,00,
82403713,00E00024,true,Rx,1,8,C0,00,00,00,00,00,3F,20,
82404296,01C24006,true,Rx,1,8,0C,00,00,00,F0,1F,00,00,
82404882,03200002,true,Rx,1,8,D0,00,00,00,00,00,00,00,
82405477,03400002,true,Rx,1,8,00,00,01,00,00,00,00,00,
82409277,01E2402C,true,Rx,1,8,8F,50,00,0E,C2,10,00,00,
82410015,00224024,true,Rx,1,8,A4,A1,00,00,C5,FF,B8,00,
82410599,00A24026,true,Rx,1,8,0A,BF,00,80,00,00,00,00,
82411174,00C24000,true,Rx,1,8,40,00,80,00,C0,00,C0,00,
82411957,0162402A,true,Rx,1,8,00,4D,B2,04,80,00,80,00,
82417098,00C24000,true,Rx,1,8,40,00,80,00,C0,00,C0,00,
82418458,02620028,true,Rx,1,8,8A,0C,00,41,F0,5F,45,3B,
82421946,0162402A,true,Rx,1,8,00,3D,C2,04,80,00,80,00,
82424044,00224024,true,Rx,1,8,AC,A1,00,00,C5,FF,B8,00,
82424626,00A24026,true,Rx,1,8,4E,BF,00,80,00,00,00,00,
82425199,00C24000,true,Rx,1,8,40,00,80,00,C0,00,C0,00,
82425775,01C24006,true,Rx,1,8,4C,00,00,00,F0,20,00,00,
82426359,02220002,true,Rx,1,8,40,FE,C0,00,00,00,00,00,
82428923,01E2402C,true,Rx,1,8,CF,50,00,0E,C2,10,00,00,
82431051,00C24000,true,Rx,1,8,40,00,80,00,C0,00,C0,00,
82431947,0162402A,true,Rx,1,8,00,2D,D2,04,80,00,80,00,
82438023,00224024,true,Rx,1,8,A4,A1,00,00,C5,FF,B8,00,
82438595,00A24026,true,Rx,1,8,8A,BF,00,80,00,00,00,00,
82439169,00C24000,true,Rx,1,8,40,00,80,00,C0,00,C0,00,
82441953,0162402A,true,Rx,1,8,00,1D,E2,04,80,00,80,00,
82445059,00C24000,true,Rx,1,8,40,00,80,00,C0,00,C0,00,
82445631,01C24006,true,Rx,1,8,88,00,00,00,F0,20,00,00,
82448568,01E2402C,true,Rx,1,8,0F,50,00,0E,C2,10,00,00,
82449128,02620028,true,Rx,1,8,C8,0C,00,41,F0,5F,45,3B,
82451961,0162402A,true,Rx,1,8,00,0D,F2,04,80,00,80,00,
82452525,00224024,true,Rx,1,8,AC,A1,00,00,C5,FF,B8,00,
82453100,00A24026,true,Rx,1,8,CA,BF,00,80,00,00,00,00,
82453676,00C24000,true,Rx,1,8,40,00,80,00,C0,00,C0,00,
82459069,00C24000,true,Rx,1,8,40,00,80,00,C0,00,C0,00,
82459650,02220002,true,Rx,1,8,40,FE,C0,00,00,00,00,00,
82461953,0162402A,true,Rx,1,8,00,FD,02,04,80,00,80,00,
82466035,00224024,true,Rx,1,8,A4,A1,00,00,C5,FF,B8,00,
82466617,00A24026,true,Rx,1,8,0A,BF,00,80,00,00,00,00,
82467192,00C24000,true,Rx,1,8,40,00,80,00,C0,00,C0,00,
82467767,01C24006,true,Rx,1,8,CC,00,00,00,F0,20,00,00,
82468789,01E2402C,true,Rx,1,8,4F,50,00,0E,C2,10,00,00,
82471954,0162402A,true,Rx,1,8,00,ED,12,04,80,00,80,00,
82473086,00C24000,true,Rx,1,8,40,00,80,00,C0,00,C0,00,
82473672,00E00024,true,Rx,1,8,00,00,00,00,00,00,3F,40,
82478438,02620028,true,Rx,1,8,08,0C,00,43,F0,5F,45,3B,
82480046,00224024,true,Rx,1,8,AC,A1,00,00,C5,FF,B8,00,
82480618,00A24026,true,Rx,1,8,4E,BF,00,80,00,00,00,00,
82481191,00C24000,true,Rx,1,8,40,00,80,00,C0,00,C0,00,
82481943,0162402A,true,Rx,1,8,00,DD,22,04,80,00,80,00,
82487069,00C24000,true,Rx,1,8,40,00,80,00,C0,00,C0,00,
82487641,01C24006,true,Rx,1,8,0C,00,00,00,F0,21,00,00,
82488537,01E2402C,true,Rx,1,8,8F,50,00,0E,C2,10,00,00,
82491954,0162402A,true,Rx,1,8,00,CD,32,04,80,00,80,00,
82494093,00224024,true,Rx,1,8,A4,A1,00,00,C5,FF,B8,00,
82494654,00A24026,true,Rx,1,8,8A,BF,00,80,00,00,00,00,
82495229,00C24000,true,Rx,1,8,40,00,80,00,C0,00,C0,00,
82495814,02220002,true,Rx,1,8,C0,FE,C0,00,00,00,00,00,
82501143,00C24000,true,Rx,1,8,40,00,80,00,C0,00,C0,00,
82501726,03200002,true,Rx,1,8,E0,00,00,00,00,00,00,00,
82502300,0162402A,true,Rx,1,8,00,BD,42,04,80,00,80,00,
82502886,03400002,true,Rx,1,8,00,00,02,00,00,00,00,00,
82508067,00224024,true,Rx,1,8,AC,A1,00,00,C5,FF,B8,00,
82508639,00A24026,true,Rx,1,8,CA,BF,00,80,00,00,00,00,
82509213,00C24000,true,Rx,1,8,40,00,80,00,C0,00,C0,00,
82509789,01C24006,true,Rx,1,8,4C,00,00,00,F0,1E,00,00,
82510362,01E2402C,true,Rx,1,8,CF,50,00,0E,C2,10,00,00,
82510928,02620028,true,Rx,1,8,40,0C,00,41,F0,5F,45,3B,
82511948,0162402A,true,Rx,1,8,00,AD,52,04,80,00,80,00,
82515102,00C24000,true,Rx,1,8,40,00,80,00,C0,00,C0,00,
82521946,0162402A,true,Rx,1,8,00,9D,62,04,80,00,80,00,
82522506,00224024,true,Rx,1,8,A4,A1,00,00,C5,FF,B8,00,
82523082,00A24026,true,Rx,1,8,0A,BF,00,80,00,00,00,00,
82523658,00C24000,true,Rx,1,8,40,00,80,00,C0,00,C0,00,
82528650,01E2402C,true,Rx,1,8,0F,50,00,0E,C2,10,00,00,
82529231,00C24000,true,Rx,1,8,40,00,80,00,C0,00,C0,00,
82529807,01C24006,true,Rx,1,8,88,00,00,00,F0,1E,00,00,
82530390,02220002,true,Rx,1,8,40,FE,C0,00,00,00,00,00,
82531941,0162402A,true,Rx,1,8,00,8D,72,04,80,00,80,00,
82536102,00224024,true,Rx,1,8,AC,A1,00,00,C5,FF,B8,00,
82536675,00A24026,true,Rx,1,8,4E,BF,00,80,00,00,00,00,
82537259,00C24000,true,Rx,1,8,40,00,80,00,C0,00,C0,00,
82538673,02620028,true,Rx,1,8,88,0C,00,41,F0,5F,45,3B,
82541952,0162402A,true,Rx,1,8,00,7D,82,04,80,00,80,00,
82543115,00C24000,true,Rx,1,8,40,00,80,00,C0,00,C0,00,
82543711,00E00024,true,Rx,1,8,40,00,00,00,00,00,3F,60,
82548541,01E2402C,true,Rx,1,8,4F,50,00,0E,C2,10,00,00,
82550087,00224024,true,Rx,1,8,A4,A1,00,00,C5,FF,B8,00,
82550659,00A24026,true,Rx,1,8,8A,BF,00,80,00,00,00,00,
82551233,00C24000,true,Rx,1,8,40,00,80,00,C0,00,C0,00,
82551808,01C24006,true,Rx,1,8,CC,00,00,00,F0,21,00,00,
82552382,0162402A,true,Rx,1,8,00,6D,92,04,80,00,80,00,
82557159,00C24000,true,Rx,1,8,40,00,80,00,C0,00,C0,00,
82561952,0162402A,true,Rx,1,8,00,5D,A2,04,80,00,80,00,
82564122,00224024,true,Rx,1,8,AC,A1,00,00,C5,FF,B8,00,
82564695,00A24026,true,Rx,1,8,CA,BF,00,80,00,00,00,00,
82565269,00C24000,true,Rx,1,8,40,00,80,00,C0,00,C0,00,
82565855,02220002,true,Rx,1,8,40,FE,C0,00,00,00,00,00,
82568815,01E2402C,true,Rx,1,8,8F,50,00,0E,C2,11,00,00,
82569375,02620028,true,Rx,1,8,C8,0C,00,41,F0,5F,45,3B,
82571118,00C24000,true,Rx,1,8,40,00,80,00,C0,00,C0,00,
82571705,01C24006,true,Rx,1,8,0C,00,00,00,F0,1F,00,00,
82572279,0162402A,true,Rx,1,8,00,4D,B2,04,80,00,80,00,
82578111,00224024,true,Rx,1,8,A4,A1,00,00,C5,FF,B8,00,
82578681,00A24026,true,Rx,1,8,0A,BF,00,80,00,00,00,00,
82579256,00C24000,true,Rx,1,8,40,00,80,00,C0,00,C0,00,
82581936,0162402A,true,Rx,1,8,00,3D,C2,04,80,00,80,00,
82585135,00C24000,true,Rx,1,8,40,00,80,00,C0,00,C0,00,
82588550,01E2402C,true,Rx,1,8,CF,50,00,0E,C2,10,00,00,
82591943,0162402A,true,Rx,1,8,00,2D,D2,04,80,00,80,00,
82592512,00224024,true,Rx,1,8,AC,A1,00,00,C5,FF,B8,00,
82593087,00A24026,true,Rx,1,8,4E,BF,00,80,00,00,00,00,
82593663,00C24000,true,Rx,1,8,40,00,80,00,C0,00,C0,00,
82594238,01C24006,true,Rx,1,8,4C,00,00,00,F0,1F,00,00,
82598648,02620028,true,Rx,1,8,08,0C,00,41,F0,5F,45,3B,
82599218,00C24000,true,Rx,1,8,40,00,80,00,C0,00,C0,00,
82599794,02220002,true,Rx,1,8,40,FE,C0,00,00,00,00,00,
82600379,03200002,true,Rx,1,8,F0,00,00,00,00,00,00,00,
82600974,03400002,true,Rx,1,8,00,00,03,00,00,00,00,00,
82601945,0162402A,true,Rx,1,8,00,1D,E2,04,80,00,80,00,
82604374,0242C07C,true,Rx,1,8,01,0F,5E,74,0C,4C,FE,F8,
82606149,00224024,true,Rx,1,8,A4,A1,00,00,C5,FF,B8,00,
82606715,00A24026,true,Rx,1,8,8A,BF,00,80,00,00,00,00,
82607298,00C24000,true,Rx,1,8,40,00,80,00,C0,00,C0,00,
82608682,01E2402C,true,Rx,1,8,0F,50,00,0E,C2,10,00,00,
82611950,0162402A,true,Rx,1,8,00,0D,F2,04,80,00,80,00,
82613163,00C24000,true,Rx,1,8,40,00,80,00,C0,00,C0,00,
82613739,01C24006,true,Rx,1,8,88,00,00,00,F0,1E,00,00,
82618729,00E00024,true,Rx,1,8,80,00,00,00,00,00,3F,80,
82620109,00224024,true,Rx,1,8,AC,A1,00,00,C5,FF,B8,00,
82620685,00A24026,true,Rx,1,8,CA,BF,00,80,00,00,00,00,
82621257,00C24000,true,Rx,1,8,40,00,80,00,C0,00,C0,00,
82621947,0162402A,true,Rx,1,8,00,FD,02,04,80,00,80,00,
82627149,00C24000,true,Rx,1,8,40,00,80,00,C0,00,C0,00,
82628447,01E2402C,true,Rx,1,8,4F,50,00,0E,C2,10,00,00,
82629022,02620028,true,Rx,1,8,40,0C,00,41,F0,5F,45,3B,
82631941,0162402A,true,Rx,1,8,00,ED,12,04,80,00,80,00,
82634143,00224024,true,Rx,1,8,A4,A1,00,00,C5,FF,B8,00,
82634714,00A24026,true,Rx,1,8,0A,BF,00,80,00,00,00,00,
82635298,00C24000,true,Rx,1,8,40,00,80,00,C0,00,C0,00,
82635864,01C24006,true,Rx,1,8,CC,00,00,00,F0,1E,00,00,
82636449,02220002,true,Rx,1,8,C0,FE,C0,00,00,00,00,00,
82641143,00C24000,true,Rx,1,8,40,00,80,00,C0,00,C0,00,
82641942,0162402A,true,Rx,1,8,00,DD,22,04,80,00,80,00,
82648138,00224024,true,Rx,1,8,AC,A1,00,00,C5,FF,B8,00,
82648719,00A24026,true,Rx,1,8,4E,BF,00,80,00,00,00,00,
82649293,00C24000,true,Rx,1,8,40,00,80,00,C0,00,C0,00,
82649869,01E2402C,true,Rx,1,8,8F,50,00,0E,C2,10,00,00,
82651939,0162402A,true,Rx,1,8,00,CD,32,04,80,00,80,00,
82655170,00C24000,true,Rx,1,8,40,00,80,00,C0,00,C0,00,
82655753,01C24006,true,Rx,1,8,0C,00,00,00,F0,1D,00,00,
82658617,02620028,true,Rx,1,8,88,0C,00,41,F0,5F,45,3B,
82661938,0162402A,true,Rx,1,8,00,BD,42,04,80,00,80,00,
82662496,00224024,true,Rx,1,8,A4,A1,00,00,C5,FF,B8,00,
82663062,00A24026,true,Rx,1,8,8A,BF,00,80,00,00,00,00,
82663637,00C24000,true,Rx,1,8,40,00,80,00,C0,00,C0,00,
82668640,01E2402C,true,Rx,1,8,CF,50,00,0E,C2,10,00,00,
82669220,00C24000,true,Rx,1,8,40,00,80,00,C0,00,C0,00,
82669796,02220002,true,Rx,1,8,40,FE,C0,00,00,00,00,00,
82671936,0162402A,true,Rx,1,8,00,AD,52,04,80,00,80,00,
82676169,00224024,true,Rx,1,8,AC,A1,00,00,C5,FF,B8,00,
82676741,00A24026,true,Rx,1,8,CA,BF,00,80,00,00,00,00,
82677315,00C24000,true,Rx,1,8,40,00,80,00,C0,00,C0,00,
82677890,01C24006,true,Rx,1,8,4C,00,00,00,F0,1E,00,00,
82681937,0162402A,true,Rx,1,8,00,9D,62,04,80,00,80,00,
82683171,00C24000,true,Rx,1,8,40,00,80,00,C0,00,C0,00,
82688489,01E2402C,true,Rx,1,8,0F,50,00,0E,C2,10,00,00,
82689050,02620028,true,Rx,1,8,CA,0C,00,41,F0,5F,45,3B,
82690153,00224024,true,Rx,1,8,A4,A1,00,00,C5,FF,B8,00,
82690727,00A24026,true,Rx,1,8,0A,BF,00,80,00,00,00,00,
82691301,00C24000,true,Rx,1,8,40,00,80,00,C0,00,C0,00,
82691929,0162402A,true,Rx,1,8,00,8D,72,04,80,00,80,00,
82693821,00E00024,true,Rx,1,8,C0,00,00,00,00,00,3F,A0,
82697257,00C24000,true,Rx,1,8,40,00,80,00,C0,00,C0,00,
82697837,01C24006,true,Rx,1,8,88,00,00,00,F0,1E,00,00,
82698422,03200002,true,Rx,1,8,C0,00,00,00,00,00,00,00,
82699008,03400002,true,Rx,1,8,00,00,00,00,00,00,00,00,
82701949,0162402A,true,Rx,1,8,00,7D,82,04,80,00,80,00,
82704173,00224024,true,Rx,1,8,AC,A1,00,00,C5,FF,B8,00,
82704743,00A24026,true,Rx,1,8,4E,BF,00,80,00,00,00,00,
82705317,00C24000,true,Rx,1,8,40,00,80,00,C0,00,C0,00,
82705903,02220002,true,Rx,1,8,40,FE,C0,00,00,00,00,00,
82709021,01E2402C,true,Rx,1,8,4F,50,00,2E,C2,10,00,00,
82711171,00C24000,true,Rx,1,8,40,00,80,00,C0,00,C0,00,
82711939,0162402A,true,Rx,1,8,00,6D,92,04,80,00,80,00,
82718187,00224024,true,Rx,1,8,A4,A1,00,00,C5,FF,B8,00,
82718760,00A24026,true,Rx,1,8,8A,BF,00,80,00,00,00,00,
82719333,00C24000,true,Rx,1,8,40,00,80,00,C0,00,C0,00,
82719909,01C24006,true,Rx,1,8,CC,00,00,00,F0,1E,00,00,
82720483,02620028,true,Rx,1,8,08,0C,00,C5,F0,5F,45,3B,
82721931,0162402A,true,Rx,1,8,00,5D,A2,04,80,00,80,00,
82725204,00C24000,true,Rx,1,8,40,00,80,00,C0,00,C0,00,
82728565,01E2402C,true,Rx,1,8,8F,50,00,0E,C2,10,00,00,
82731937,0162402A,true,Rx,1,8,00,4D,B2,04,80,00,80,00,
82732497,00224024,true,Rx,1,8,AC,A1,00,00,C5,FF,B8,00,
82733071,00A24026,true,Rx,1,8,CA,BF,00,80,00,00,00,00,
82733647,00C24000,true,Rx,1,8,40,00,80,00,C0,00,C0,00,
82739207,00C24000,true,Rx,1,8,40,00,80,00,C0,00,C0,00,
82739789,01C24006,true,Rx,1,8,0C,00,00,00,F0,1D,00,00,
82740374,02220002,true,Rx,1,8,C0,FE,C0,00,00,00,00,00,
82741934,0162402A,true,Rx,1,8,00,3D,C2,04,80,00,80,00,
82746191,00224024,true,Rx,1,8,A4,A1,00,00,C5,FF,B8,00,
82746773,00A24026,true,Rx,1,8,0A,BF,00,80,00,00,00,00,
82747347,00C24000,true,Rx,1,8,40,00,80,00,C0,00,C0,00,
82748638,01E2402C,true,Rx,1,8,CF,50,00,0E,C2,10,00,00,
82749211,02620028,true,Rx,1,8,40,0C,00,41,F0,5F,45,3B,
82751935,0162402A,true,Rx,1,8,00,2D,D2,04,80,00,80,00,
82753243,00C24000,true,Rx,1,8,40,00,80,00,C0,00,C0,00,
82760190,00224024,true,Rx,1,8,AC,A1,00,00,C5,FF,B8,00,
82760770,00A24026,true,Rx,1,8,4E,BF,00,80,00,00,00,00,
82761345,00C24000,true,Rx,1,8,40,00,80,00,C0,00,C0,00,
82761931,01C24006,true,Rx,1,8,4C,00,00,00,F0,1F,00,00,
82762495,0162402A,true,Rx,1,8,00,1D,E2,04,80,00,80,00,
82763869,00E00024,true,Rx,1,8,00,00,00,00,00,00,3F,C0,
82767258,00C24000,true,Rx,1,8,40,00,80,00,C0,00,C0,00,
82768557,01E2402C,true,Rx,1,8,0F,50,00,0E,C2,11,00,00,
82771939,0162402A,true,Rx,1,8,00,0D,F2,04,80,00,80,00,
82774236,00224024,true,Rx,1,8,A4,A1,00,00,C5,FF,B8,00,
82774797,00A24026,true,Rx,1,8,8A,BF,00,80,00,00,00,00,
82775380,00C24000,true,Rx,1,8,40,00,80,00,C0,00,C0,00,
82775956,02220002,true,Rx,1,8,40,FE,C0,00,00,00,00,00,
82778811,02620028,true,Rx,1,8,88,0C,00,41,F0,5F,45,3B,
82781214,00C24000,true,Rx,1,8,40,00,80,00,C0,00,C0,00,
82781796,01C24006,true,Rx,1,8,88,00,00,00,F0,20,00,00,
82782381,0162402A,true,Rx,1,8,00,FD,02,04,80,00,80,00,
82788226,00224024,true,Rx,1,8,AC,A1,00,00,C5,FF,B8,00,
82788798,00A24026,true,Rx,1,8,CA,BF,00,80,00,00,00,00,
82789372,00C24000,true,Rx,1,8,40,00,80,00,C0,00,C0,00,
82789946,01E2402C,true,Rx,1,8,4F,50,00,0E,C2,10,00,00,
82791934,0162402A,true,Rx,1,8,00,ED,12,04,80,00,80,00,
82795320,00C24000,true,Rx,1,8,40,00,80,00,C0,00,C0,00,
82795912,03200002,true,Rx,1,8,D0,00,00,00,00,00,00,00,
82796497,03400002,true,Rx,1,8,00,00,01,00,00,00,00,00,
82801923,0162402A,true,Rx,1,8,00,DD,22,04,80,00,80,00,
82802494,00224024,true,Rx,1,8,A4,A1,00,00,C5,FF,B8,00,
82803068,00A24026,true,Rx,1,8,0A,BF,00,80,00,00,00,00,
82803644,00C24000,true,Rx,1,8,40,00,80,00,C0,00,C0,00,
82804219,01C24006,true,Rx,1,8,CC,00,00,00,F0,20,00,00,
82808682,01E2402C,true,Rx,1,8,8F,50,00,0E,C2,10,00,00,
82809262,00C24000,true,Rx,1,8,40,00,80,00,C0,00,C0,00,
82809837,02220002,true,Rx,1,8,40,FE,C0,00,00,00,00,00,
82810401,02620028,true,Rx,1,8,C8,0C,00,41,F0,5F,45,3B,
82811931,0162402A,true,Rx,1,8,00,CD,32,04,80,00,80,00,
82816249,00224024,true,Rx,1,8,AC,A1,00,00,C5,FF,B8,00,
82816830,00A24026,true,Rx,1,8,4E,BF,00,80,00,00,00,00,
82817405,00C24000,true,Rx,1,8,40,00,80,00,C0,00,C0,00,
82821924,0162402A,true,Rx,1,8,00,BD,42,04,80,00,80,00,
82823243,00C24000,true,Rx,1,8,40,00,80,00,C0,00,C0,00,
82823827,01C24006,true,Rx,1,8,0C,00,00,00,F0,1F,00,00,
82828558,01E2402C,true,Rx,1,8,CF,50,00,0E,C2,10,00,00,
82830250,00224024,true,Rx,1,8,A4,A1,00,00,C5,FF,B8,00,
82830821,00A24026,true,Rx,1,8,8A,BF,00,80,00,00,00,00,
82831394,00C24000,true,Rx,1,8,40,00,80,00,C0,00,C0,00,
82831960,0162402A,true,Rx,1,8,00,AD,52,04,80,00,80,00,
82834112,00E00024,true,Rx,1,8,40,00,00,00,00,00,3F,E0,
82837265,00C24000,true,Rx,1,8,40,00,80,00,C0,00,C0,00,
82838448,02620028,true,Rx,1,8,00,0C,00,41,F0,5F,45,3B,
82841924,0162402A,true,Rx,1,8,00,9D,62,04,80,00,80,00,
82844241,00224024,true,Rx,1,8,AC,A1,00,00,C5,FF,B8,00,
82844813,00A24026,true,Rx,1,8,CA,BF,00,80,00,00,00,00,
82845388,00C24000,true,Rx,1,8,40,00,80,00,C0,00,C0,00,
82845962,01C24006,true,Rx,1,8,4C,00,00,00,F0,1E,00,00,
82846548,02220002,true,Rx,1,8,C0,FE,C0,00,00,00,00,00,
82848935,01E2402C,true,Rx,1,8,0F,50,00,0E,C2,10,00,00,
82851239,00C24000,true,Rx,1,8,40,00,80,00,C0,00,C0,00,
82851929,0162402A,true,Rx,1,8,00,8D,72,04,80,00,80,00,
82858245,00224024,true,Rx,1,8,A4,A1,00,00,C5,FF,B8,00,
82858816,00A24026,true,Rx,1,8,0A,BF,00,80,00,00,00,00,
82859391,00C24000,true,Rx,1,8,40,00,80,00,C0,00,C0,00,
82861935,0162402A,true,Rx,1,8,00,7D,82,04,80,00,80,00,
82865271,00C24000,true,Rx,1,8,40,00,80,00,C0,00,C0,00,
82865853,01C24006,true,Rx,1,8,88,00,00,00,F0,20,00,00,
82868572,01E2402C,true,Rx,1,8,4F,50,00,0E,C2,10,00,00,
82869135,02620028,true,Rx,1,8,48,0C,00,41,F0,5F,45,3B,
82871928,0162402A,true,Rx,1,8,00,6D,92,04,80,00,80,00,
82872498,00224024,true,Rx,1,8,AC,A1,00,00,C5,FF,B8,00,
82873074,00A24026,true,Rx,1,8,4E,BF,00,80,00,00,00,00,
82873648,00C24000,true,Rx,1,8,40,00,80,00,C0,00,C0,00,
82879283,00C24000,true,Rx,1,8,40,00,80,00,C0,00,C0,00,
82879864,02220002,true,Rx,1,8,40,FE,C0,00,00,00,00,00,
82881919,0162402A,true,Rx,1,8,00,5D,A2,04,80,00,80,00,
82883662,0242C07C,true,Rx,1,8,02,51,5C,52,66,06,DC,BC,
82886267,00224024,true,Rx,1,8,A4,A1,00,00,C5,FF,B8,00,
82886832,00A24026,true,Rx,1,8,8A,BF,00,80,00,00,00,00,
82887414,00C24000,true,Rx,1,8,40,00,80,00,C0,00,C0,00,
82887979,01C24006,true,Rx,1,8,CC,00,00,00,F0,1E,00,00,
82888689,01E2402C,true,Rx,1,8,8F,50,00,0E,C2,10,00,00,
82891917,0162402A,true,Rx,1,8,00,4D,B2,04,80,00,80,00,
82893360,00C24000,true,Rx,1,8,40,00,80,00,C0,00,C0,00,
82893962,03200002,true,Rx,1,8,E0,00,00,00,00,00,00,00,
82894538,03400002,true,Rx,1,8,00,00,02,00,00,00,00,00,
82899047,02620028,true,Rx,1,8,88,0C,00,43,F0,5F,45,3B,
82900251,00224024,true,Rx,1,8,AC,A1,00,00,C5,FF,B8,00,
82900826,00A24026,true,Rx,1,8,CA,BF,00,80,00,00,00,00,
82901398,00C24000,true,Rx,1,8,40,00,80,00,C0,00,C0,00,
82901963,0162402A,true,Rx,1,8,00,3D,C2,04,80,00,80,00,
82903824,00E00024,true,Rx,1,8,80,00,00,00,00,00,3F,00,
82907281,00C24000,true,Rx,1,8,40,00,80,00,C0,00,C0,00,
82907862,01C24006,true,Rx,1,8,0C,00,00,00,F0,1E,00,00,
82908604,01E2402C,true,Rx,1,8,CF,50,00,0E,C2,10,00,00,
82911914,0162402A,true,Rx,1,8,00,2D,D2,04,80,00,80,00,
82914273,00224024,true,Rx,1,8,A4,A1,00,00,C5,FF,B8,00,
82914855,00A24026,true,Rx,1,8,0A,BF,00,80,00,00,00,00,
82915430,00C24000,true,Rx,1,8,40,00,80,00,C0,00,C0,00,
82916006,02220002,true,Rx,1,8,40,FE,C0,00,00,00,00,00,
82921282,00C24000,true,Rx,1,8,40,00,80,00,C0,00,C0,00,
82921926,0162402A,true,Rx,1,8,00,1D,E2,04,80,00,80,00,
82928276,00224024,true,Rx,1,8,AC,A1,00,00,C5,FF,B8,00,
82928858,00A24026,true,Rx,1,8,4E,BF,00,80,00,00,00,00,
82929433,00C24000,true,Rx,1,8,40,00,80,00,C0,00,C0,00,
82930008,01C24006,true,Rx,1,8,4C,00,00,00,F0,1F,00,00,
82930583,01E2402C,true,Rx,1,8,0F,50,00,0E,C2,10,00,00,
82931157,02620028,true,Rx,1,8,CA,0C,00,41,F0,5F,45,3B,
82931930,0162402A,true,Rx,1,8,00,0D,F2,04,80,00,80,00,
82935310,00C24000,true,Rx,1,8,40,00,80,00,C0,00,C0,00,
82941935,0162402A,true,Rx,1,8,00,FD,02,04,80,00,80,00,
82942495,00224024,true,Rx,1,8,A4,A1,00,00,C5,FF,B8,00,
82943060,00A24026,true,Rx,1,8,8A,BF,00,80,00,00,00,00,
82943634,00C24000,true,Rx,1,8,40,00,80,00,C0,00,C0,00,
82948786,01E2402C,true,Rx,1,8,4F,50,00,0E,C2,10,00,00,
82949367,00C24000,true,Rx,1,8,40,00,80,00,C0,00,C0,00,
82949942,01C24006,true,Rx,1,8,88,00,00,00,F0,1E,00,00,
82950526,02220002,true,Rx,1,8,C0,FE,C0,00,00,00,00,00,
82951922,0162402A,true,Rx,1,8,00,ED,12,04,80,00,80,00,
82956312,00224024,true,Rx,1,8,AC,A1,00,00,C5,FF,B8,00,
82956894,00A24026,true,Rx,1,8,CA,BF,00,80,00,00,00,00,
82957469,00C24000,true,Rx,1,8,40,00,80,00,C0,00,C0,00,
82958613,02620028,true,Rx,1,8,08,0C,00,41,F0,5F,45,3B,
82961922,0162402A,true,Rx,1,8,00,DD,22,04,80,00,80,00,
82963323,00C24000,true,Rx,1,8,40,00,80,00,C0,00,C0,00,
82968470,01E2402C,true,Rx,1,8,8F,50,00,0E,C2,11,00,00,
82970297,00224024,true,Rx,1,8,A4,A1,00,00,C5,FF,B8,00,
82970879,00A24026,true,Rx,1,8,0A,BF,00,80,00,00,00,00,
82971453,00C24000,true,Rx,1,8,40,00,80,00,C0,00,C0,00,
82972028,0162402A,true,Rx,1,8,00,CD,32,04,80,00,80,00,
82972593,01C24006,true,Rx,1,8,CC,00,00,00,F0,1E,00,00,
82977367,00C24000,true,Rx,1,8,40,00,80,00,C0,00,C0,00,
82978707,00E00024,true,Rx,1,8,C0,00,00,00,00,00,3F,20,
82981920,0162402A,true,Rx,1,8,00,BD,42,04,80,00,80,00,
82984334,00224024,true,Rx,1,8,AC,A1,00,00,C5,FF,B8,00,
82984916,00A24026,true,Rx,1,8,4E,BF,00,80,00,00,00,00,
82985490,00C24000,true,Rx,1,8,40,00,80,00,C0,00,C0,00,
82986066,02220002,true,Rx,1,8,40,FE,C0,00,00,00,00,00,
82988847,01E2402C,true,Rx,1,8,CF,50,00,0E,C2,10,00,00,
82989417,02620028,true,Rx,1,8,40,0C,00,41,F0,5F,45,3B,
82991401,00C24000,true,Rx,1,8,40,00,80,00,C0,00,C0,00,
82991965,0162402A,true,Rx,1,8,00,AD,52,04,80,00,80,00,
82992551,01C24006,true,Rx,1,8,0C,00,00,00,F0,1E,00,00,
82993136,03200002,true,Rx,1,8,F0,00,00,00,00,00,00,00,
82993722,03400002,true,Rx,1,8,00,00,03,00,00,00,00,00,
82998320,00224024,true,Rx,1,8,A4,A1,00,00,C5,FF,B8,00,
82998880,00A24026,true,Rx,1,8,8A,BF,00,80,00,00,00,00,
82999464,00C24000,true,Rx,1,8,40,00,80,00,C0,00,C0,00,
83001916,0162402A,true,Rx,1,8,00,9D,62,04,80,00,80,00,
83005354,00C24000,true,Rx,1,8,40,00,80,00,C0,00,C0,00,
83008589,01E2402C,true,Rx,1,8,0F,50,00,0E,C2,10,00,00,
83011908,0162402A,true,Rx,1,8,00,8D,72,04,80,00,80,00,
83012478,00224024,true,Rx,1,8,AC,A1,00,00,C5,FF,B8,00,
83013054,00A24026,true,Rx,1,8,CA,BF,00,80,00,00,00,00,
83013630,00C24000,true,Rx,1,8,40,00,80,00,C0,00,C0,00,
83014203,01C24006,true,Rx,1,8,4C,00,00,00,F0,21,00,00,
83018697,02620028,true,Rx,1,8,88,0C,00,41,F0,5F,45,3B,
83019351,00C24000,true,Rx,1,8,40,00,80,00,C0,00,C0,00,
83019926,02220002,true,Rx,1,8,40,FE,C0,00,00,00,00,00,
83021920,0162402A,true,Rx,1,8,00,7D,82,04,80,00,80,00,
83026333,00224024,true,Rx,1,8,A4,A1,00,00,C5,FF,B8,00,
83026915,00A24026,true,Rx,1,8,0A,BF,00,80,00,00,00,00,
83027490,00C24000,true,Rx,1,8,40,00,80,00,C0,00,C0,00,
83028644,01E2402C,true,Rx,1,8,4F,50,00,0E,C2,10,00,00,
83031913,0162402A,true,Rx,1,8,00,6D,92,04,80,00,80,00,
83033376,00C24000,true,Rx,1,8,40,00,80,00,C0,00,C0,00,
83033951,01C24006,true,Rx,1,8,88,00,00,00,F0,1E,00,00,
83040329,00224024,true,Rx,1,8,AC,A1,00,00,C5,FF,B8,00,
83040900,00A24026,true,Rx,1,8,4E,BF,00,80,00,00,00,00,
83041475,00C24000,true,Rx,1,8,40,00,80,00,C0,00,C0,00,
83042050,0162402A,true,Rx,1,8,00,5D,A2,04,80,00,80,00,
83047358,00C24000,true,Rx,1,8,40,00,80,00,C0,00,C0,00,
83048583,00E00024,true,Rx,1,8,00,00,00,00,00,00,3F,40,
83049147,01E2402C,true,Rx,1,8,8F,50,00,0E,C2,10,00,00,
83049711,02620028,true,Rx,1,8,C8,0C,00,41,F0,5F,45,3B,
83051910,0162402A,true,Rx,1,8,00,4D,B2,04,80,00,80,00,
83054370,00224024,true,Rx,1,8,A4,A1,00,00,C5,FF,B8,00,
83054934,00A24026,true,Rx,1,8,8A,BF,00,80,00,00,00,00,
83055507,00C24000,true,Rx,1,8,40,00,80,00,C0,00,C0,00,
83056082,01C24006,true,Rx,1,8,CC,00,00,00,F0,1E,00,00,
83056668,02220002,true,Rx,1,8,C0,FE,C0,00,00,00,00,00,
83061338,00C24000,true,Rx,1,8,40,00,80,00,C0,00,C0,00,
83061908,0162402A,true,Rx,1,8,00,3D,C2,04,80,00,80,00,
83068343,00224024,true,Rx,1,8,AC,A1,00,00,C5,FF,B8,00,
83068915,00A24026,true,Rx,1,8,CA,BF,00,80,00,00,00,00,
83069499,00C24000,true,Rx,1,8,40,00,80,00,C0,00,C0,00,
83070064,01E2402C,true,Rx,1,8,CF,50,00,0E,C2,10,00,00,
83071917,0162402A,true,Rx,1,8,00,2D,D2,04,80,00,80,00,
83075375,00C24000,true,Rx,1,8,40,00,80,00,C0,00,C0,00,
83075957,01C24006,true,Rx,1,8,0C,00,00,00,F0,1E,00,00,
83078551,02620028,true,Rx,1,8,08,0C,00,41,F0,5F,45,3B,
83081910,0162402A,true,Rx,1,8,00,1D,E2,04,80,00,80,00,
83082479,00224024,true,Rx,1,8,A4,A1,00,00,C5,FF,B8,00,
83083055,00A24026,true,Rx,1,8,0A,BF,00,80,00,00,00,00,
83083631,00C24000,true,Rx,1,8,40,00,80,00,C0,00,C0,00,
83088613,01E2402C,true,Rx,1,8,0F,50,00,2E,C2,10,00,00,
83089473,00C24000,true,Rx,1,8,40,00,80,00,C0,00,C0,00,
83090059,02220002,true,Rx,1,8,40,FE,C0,00,00,00,00,00,
83090645,03200002,true,Rx,1,8,C0,00,00,00,00,00,00,00,
83091230,03400002,true,Rx,1,8,00,00,00,00,00,00,00,00,
83091919,0162402A,true,Rx,1,8,00,0D,F2,04,80,00,80,00,
83096375,00224024,true,Rx,1,8,AC,A1,00,00,C5,FF,B8,00,
83096957,00A24026,true,Rx,1,8,4E,BF,00,80,00,00,00,00,
83097532,00C24000,true,Rx,1,8,40,00,80,00,C0,00,C0,00,
83098097,01C24006,true,Rx,1,8,4C,00,00,00,F0,1C,00,00,
83101921,0162402A,true,Rx,1,8,00,FD,02,04,80,00,80,00,
83103383,00C24000,true,Rx,1,8,40,00,80,00,C0,00,C0,00,
83108473,01E2402C,true,Rx,1,8,4F,50,00,0E,C2,10,00,00,
83109034,02620028,true,Rx,1,8,40,0C,00,C5,F0,5F,45,3B,
83110356,00224024,true,Rx,1,8,A4,A1,00,00,C5,FF,B8,00,
83110929,00A24026,true,Rx,1,8,8A,BF,00,80,00,00,00,00,
83111503,00C24000,true,Rx,1,8,40,00,80,00,C0,00,C0,00,
83112079,0162402A,true,Rx,1,8,00,ED,12,04,80,00,80,00,
83117385,00C24000,true,Rx,1,8,40,00,80,00,C0,00,C0,00,
83117966,01C24006,true,Rx,1,8,88,00,00,00,F0,1D,00,00,
83118760,00E00024,true,Rx,1,8,40,00,00,00,00,00,3F,60,
83121902,0162402A,true,Rx,1,8,00,DD,22,04,80,00,80,00,
83124356,00224024,true,Rx,1,8,AC,A1,00,00,C5,FF,B8,00,
83124929,00A24026,true,Rx,1,8,CA,BF,00,80,00,00,00,00,
83125502,00C24000,true,Rx,1,8,40,00,80,00,C0,00,C0,00,
83126088,02220002,true,Rx,1,8,40,FE,C0,00,00,00,00,00,
83128944,01E2402C,true,Rx,1,8,8F,50,00,0E,C2,10,00,00,
83131503,00C24000,true,Rx,1,8,40,00,80,00,C0,00,C0,00,
83132075,0162402A,true,Rx,1,8,00,CD,32,04,80,00,80,00,
83138446,02620028,true,Rx,1,8,88,0C,00,41,F0,5F,45,3B,
83139007,00224024,true,Rx,1,8,A4,A1,00,00,C5,FF,B8,00,
83139583,00A24026,true,Rx,1,8,0A,BF,00,80,00,00,00,00,
83140156,00C24000,true,Rx,1,8,40,00,80,00,C0,00,C0,00,
83140732,01C24006,true,Rx,1,8,CC,00,00,00,F0,21,00,00,
83141909,0162402A,true,Rx,1,8,00,BD,42,04,80,00,80,00,
83145525,00C24000,true,Rx,1,8,40,00,80,00,C0,00,C0,00,
83148582,01E2402C,true,Rx,1,8,CF,50,00,0E,C2,10,00,00,
83151901,0162402A,true,Rx,1,8,00,AD,52,04,80,00,80,00,
83152501,00224024,true,Rx,1,8,AC,A1,00,00,C5,FF,B8,00,
83153077,00A24026,true,Rx,1,8,4E,BF,00,80,00,00,00,00,
83153653,00C24000,true,Rx,1,8,40,00,80,00,C0,00,C0,00,
83159519,00C24000,true,Rx,1,8,40,00,80,00,C0,00,C0,00,
83160100,01C24006,true,Rx,1,8,0C,00,00,00,F0,1E,00,00,
83160686,02220002,true,Rx,1,8,40,FE,C0,00,00,00,00,00,
83161902,0162402A,true,Rx,1,8,00,9D,62,04,80,00,80,00,
83163687,0242C07C,true,Rx,1,8,13,01,01,01,01,02,01,04,
83166543,00224024,true,Rx,1,8,A4,A1,00,00,C5,FF,B8,00,
83167105,00A24026,true,Rx,1,8,8A,BF,00,80,00,00,00,00,
83167679,00C24000,true,Rx,1,8,40,00,80,00,C0,00,C0,00,
83168461,01E2402C,true,Rx,1,8,0F,50,00,0E,C2,11,00,00,
83169037,02620028,true,Rx,1,8,CA,0C,00,41,F0,5F,45,3B,
83171900,0162402A,true,Rx,1,8,00,8D,72,04,80,00,80,00,
83173561,00C24000,true,Rx,1,8,40,00,80,00,C0,00,C0,00,
83180505,00224024,true,Rx,1,8,AC,A1,00,00,C5,FF,B8,00,
83181076,00A24026,true,Rx,1,8,CA,BF,00,80,00,00,00,00,
83181651,00C24000,true,Rx,1,8,40,00,80,00,C0,00,C0,00,
83182236,0162402A,true,Rx,1,8,00,7D,82,04,80,00,80,00,
83182801,01C24006,true,Rx,1,8,4C,00,00,00,F0,1C,00,00,
83187644,00C24000,true,Rx,1,8,40,00,80,00,C0,00,C0,00,
83188235,03200002,true,Rx,1,8,D0,00,00,00,00,00,00,00,
83188821,00E00024,true,Rx,1,8,80,00,00,00,00,00,3F,80,
83189394,01E2402C,true,Rx,1,8,4F,50,00,0E,C2,10,00,00,
83189991,03400002,true,Rx,1,8,00,00,01,00,00,00,00,00,
83191911,0162402A,true,Rx,1,8,00,6D,92,04,80,00,80,00,
83194558,00224024,true,Rx,1,8,A4,A1,00,00,C5,FF,B8,00,
83195132,00A24026,true,Rx,1,8,0A,BF,00,80,00,00,00,00,
83195708,00C24000,true,Rx,1,8,40,00,80,00,C0,00,C0,00,
83196291,02220002,true,Rx,1,8,C0,FE,C0,00,00,00,00,00,
83198804,02620028,true,Rx,1,8,00,0C,00,41,F0,5F,45,3B,
83201544,00C24000,true,Rx,1,8,40,00,80,00,C0,00,C0,00,
83202114,0162402A,true,Rx,1,8,00,5D,A2,04,80,00,80,00,
83202700,01C24006,true,Rx,1,8,88,00,00,00,F0,1F,00,00,
83208552,00224024,true,Rx,1,8,AC,A1,00,00,C5,FF,B8,00,
83209123,00A24026,true,Rx,1,8,4E,BF,00,80,00,00,00,00,
83209698,00C24000,true,Rx,1,8,40,00,80,00,C0,00,C0,00,
83210272,01E2402C,true,Rx,1,8,8F,50,00,0E,C2,10,00,00,
83211896,0162402A,true,Rx,1,8,00,4D,B2,04,80,00,80,00,
83215574,00C24000,true,Rx,1,8,40,00,80,00,C0,00,C0,00,
83221903,0162402A,true,Rx,1,8,00,3D,C2,04,80,00,80,00,
83222525,00224024,true,Rx,1,8,A4,A1,00,00,C5,FF,B8,00,
83223089,00A24026,true,Rx,1,8,8A,BF,00,80,00,00,00,00,
83223665,00C24000,true,Rx,1,8,40,00,80,00,C0,00,C0,00,
83224250,01C24006,true,Rx,1,8,CC,00,00,00,F0,1F,00,00,
83228640,01E2402C,true,Rx,1,8,CF,50,00,0E,C2,10,00,00,
83229199,02620028,true,Rx,1,8,48,0C,00,41,F0,5F,45,3B,
83229774,00C24000,true,Rx,1,8,40,00,80,00,C0,00,C0,00,
83230359,02220002,true,Rx,1,8,40,FE,C0,00,00,00,00,00,
83231900,0162402A,true,Rx,1,8,00,2D,D2,04,80,00,80,00,
83236555,00224024,true,Rx,1,8,AC,A1,00,00,C5,FF,B8,00,
83237126,00A24026,true,Rx,1,8,CA,BF,00,80,00,00,00,00,
83237710,00C24000,true,Rx,1,8,40,00,80,00,C0,00,C0,00,
83241903,0162402A,true,Rx,1,8,00,1D,E2,04,80,00,80,00,
83243575,00C24000,true,Rx,1,8,40,00,80,00,C0,00,C0,00,
83244155,01C24006,true,Rx,1,8,0C,00,00,00,F0,1F,00,00,
83248545,01E2402C,true,Rx,1,8,0F,50,00,0E,C2,10,00,00,
83250547,00224024,true,Rx,1,8,A4,A1,00,00,C5,FF,B8,00,
83251127,00A24026,true,Rx,1,8,0A,BF,00,80,00,00,00,00,
83251703,00C24000,true,Rx,1,8,40,00,80,00,C0,00,C0,00,
83252276,0162402A,true,Rx,1,8,00,0D,F2,04,80,00,80,00,
83257587,00C24000,true,Rx,1,8,40,00,80,00,C0,00,C0,00,
83258615,00E00024,true,Rx,1,8,C0,00,00,00,00,00,3F,A0,
83259178,02620028,true,Rx,1,8,88,0C,00,41,F0,5F,45,3B,
83261914,0162402A,true,Rx,1,8,00,FD,02,04,80,00,80,00,
83264559,00224024,true,Rx,1,8,AC,A1,00,00,C5,FF,B8,00,
83265130,00A24026,true,Rx,1,8,4E,BF,00,80,00,00,00,00,
83265705,00C24000,true,Rx,1,8,40,00,80,00,C0,00,C0,00,
83266290,01C24006,true,Rx,1,8,4C,00,00,00,F0,1F,00,00,
83266865,02220002,true,Rx,1,8,40,FE,C0,00,00,00,00,00,
83268931,01E2402C,true,Rx,1,8,4F,50,00,0E,C2,30,00,00,
83271557,00C24000,true,Rx,1,8,40,00,80,00,C0,00,C0,00,
83272132,0162402A,true,Rx,1,8,00,ED,12,04,80,00,80,00,
83278585,00224024,true,Rx,1,8,A4,A1,00,00,C5,FF,B8,00,
83279154,00A24026,true,Rx,1,8,8A,BF,00,80,00,00,00,00,
83279729,00C24000,true,Rx,1,8,40,00,80,00,C0,00,C0,00,
83281900,0162402A,true,Rx,1,8,00,DD,22,04,80,00,80,00,
83285663,00C24000,true,Rx,1,8,40,00,80,00,C0,00,C0,00,
83286234,01C24006,true,Rx,1,8,88,00,00,00,F0,1B,00,00,
83286818,03200002,true,Rx,1,8,E0,00,00,00,00,00,00,00,
83287413,03400002,true,Rx,1,8,00,00,02,00,00,00,00,00,
83288882,01E2402C,true,Rx,1,8,8F,50,00,0E,C2,10,00,00,
83289446,02620028,true,Rx,1,8,C8,0C,00,41,F0,5F,45,3B,
83291901,0162402A,true,Rx,1,8,00,CD,32,04,80,00,80,00,
83292607,00224024,true,Rx,1,8,AC,A1,00,00,C5,FF,B8,00,
83293182,00A24026,true,Rx,1,8,CA,BF,00,80,00,00,00,00,
83293756,00C24000,true,Rx,1,8,40,00,80,00,C0,00,C0,00,
83299604,00C24000,true,Rx,1,8,40,00,80,00,C0,00,C0,00,
83300185,02220002,true,Rx,1,8,C0,FE,C0,00,00,00,00,00,
83301897,0162402A,true,Rx,1,8,00,BD,42,04,80,00,80,00,
83307065,00224024,true,Rx,1,8,A4,A1,00,00,C5,FF,B8,00,
83307646,00A24026,true,Rx,1,8,0A,BF,00,80,00,00,00,00,
83308220,00C24000,true,Rx,1,8,40,00,80,00,C0,00,C0,00,
83308786,01C24006,true,Rx,1,8,CC,00,B0,00,F0,1D,00,00,
83309360,01E2402C,true,Rx,1,8,CF,50,00,0E,C2,10,00,00,
83311893,0162402A,true,Rx,1,8,00,AD,52,04,80,00,80,00,
83314186,00C24000,true,Rx,1,8,40,00,80,00,C0,00,C0,00,
83318406,02620028,true,Rx,1,8,08,0C,00,43,F0,5F,45,3B,
83321127,00224024,true,Rx,1,8,AC,A1,00,00,C5,FF,B8,00,
83321709,00A24026,true,Rx,1,8,4E,BF,00,80,00,00,00,00,
83322283,00C24000,true,Rx,1,8,40,00,80,00,C0,00,C0,00,
83322847,0162402A,true,Rx,1,8,00,9D,62,04,80,00,80,00,
83328177,00C24000,true,Rx,1,8,40,00,80,00,C0,00,C0,00,
83328769,00E00024,true,Rx,1,8,00,00,00,00,00,00,3F,C0,
83329343,01C24006,true,Rx,1,8,0C,00,B0,00,F0,1E,00,00,
83329918,01E2402C,true,Rx,1,8,0F,50,00,0E,C2,10,00,00,
83331894,0162402A,true,Rx,1,8,00,8D,72,04,80,00,80,00,
83335156,00224024,true,Rx,1,8,A4,A1,00,00,C5,FF,B8,00,
83335717,00A24026,true,Rx,1,8,8A,BF,00,80,00,00,00,00,
83336292,00C24000,true,Rx,1,8,40,00,80,00,C0,00,C0,00,
83336878,02220002,true,Rx,1,8,40,FE,F0,00,00,00,00,00,
83341901,0162402A,true,Rx,1,8,00,7D,82,04,80,00,80,00,
83342482,00C24000,true,Rx,1,8,40,00,80,00,C0,00,C0,00,
83348475,01E2402C,true,Rx,1,8,4F,50,00,0E,C2,10,00,00,
83349046,02620028,true,Rx,1,8,40,0C,00,41,F0,5F,45,3B,
83349611,00224024,true,Rx,1,8,AC,A1,00,00,C5,FF,B8,00,
83350186,00A24026,true,Rx,1,8,CA,BF,00,80,00,00,00,00,
83350762,00C24000,true,Rx,1,8,40,00,80,00,C0,00,C0,00,
83351335,01C24006,true,Rx,1,8,4C,00,90,00,F0,1F,00,00,
83351910,0162402A,true,Rx,1,8,00,6D,92,04,80,00,80,00,
83356183,00C24000,true,Rx,1,8,40,00,80,00,C0,00,C0,00,
83361891,0162402A,true,Rx,1,8,00,5D,A2,04,80,00,80,00,
83363148,00224024,true,Rx,1,8,A4,A1,00,00,C5,FF,B8,00,
83363732,00A24026,true,Rx,1,8,0A,BF,00,80,00,00,00,00,
83364305,00C24000,true,Rx,1,8,40,00,80,00,C0,00,C0,00,
83368634,01E2402C,true,Rx,1,8,8F,50,00,0E,C2,11,00,00,
83370190,00C24000,true,Rx,1,8,40,00,80,00,C0,00,C0,00,
83370762,01C24006,true,Rx,1,8,88,00,90,00,F0,1F,00,00,
83371346,02220002,true,Rx,1,8,40,FE,F0,00,00,00,00,00,
83371911,0162402A,true,Rx,1,8,00,4D,B2,04,80,00,80,00,
83377171,00224024,true,Rx,1,8,AC,A1,00,00,C5,FF,B8,00,
83377753,00A24026,true,Rx,1,8,4E,BF,00,80,00,00,00,00,
83378326,00C24000,true,Rx,1,8,40,00,80,00,C0,00,C0,00,
83378891,02620028,true,Rx,1,8,88,0C,00,41,F0,5F,45,3B,
83381894,0162402A,true,Rx,1,8,00,3D,C2,04,80,00,80,00,
83384265,00C24000,true,Rx,1,8,40,00,80,00,C0,00,C0,00,
83384847,03200002,true,Rx,1,8,F0,00,00,00,00,00,00,00,
83385442,03400002,true,Rx,1,8,00,00,03,00,00,00,00,00,
83389046,01E2402C,true,Rx,1,8,CF,50,00,0E,C2,10,00,00,
83391185,00224024,true,Rx,1,8,A4,A1,00,00,C5,FF,B8,00,
83391757,00A24026,true,Rx,1,8,8A,BF,00,80,00,00,00,00,
83392331,00C24000,true,Rx,1,8,40,00,80,00,C0,00,C0,00,
83392895,0162402A,true,Rx,1,8,00,2D,D2,04,80,00,80,00,
83393470,01C24006,true,Rx,1,8,CC,00,90,00,F0,1F,00,00,
83398237,00C24000,true,Rx,1,8,40,00,80,00,C0,00,C0,00,
83398819,00E00024,true,Rx,1,8,40,00,00,00,00,00,3F,E0,
83401891,0162402A,true,Rx,1,8,00,1D,E2,04,80,00,80,00,
83405193,00224024,true,Rx,1,8,AC,A1,00,00,C5,FF,B8,00,
83405764,00A24026,true,Rx,1,8,CA,BF,00,80,00,00,00,00,
83406339,00C24000,true,Rx,1,8,40,00,80,00,C0,00,C0,00,
83406925,02220002,true,Rx,1,8,C0,FE,F0,00,00,00,00,00,
83408910,01E2402C,true,Rx,1,8,0F,50,00,0E,C2,10,00,00,
83409481,02620028,true,Rx,1,8,CA,0C,00,41,F0,5F,45,3B,
83411900,0162402A,true,Rx,1,8,00,0D,F2,04,80,00,80,00,
83412474,00C24000,true,Rx,1,8,40,00,80,00,C0,00,C0,00,
83413060,01C24006,true,Rx,1,8,0C,00,90,00,F0,1F,00,00,
83419118,00224024,true,Rx,1,8,A4,A1,00,00,C5,FF,B8,00,
83419688,00A24026,true,Rx,1,8,0A,BF,00,80,00,00,00,00,
83420273,00C24000,true,Rx,1,8,40,00,80,00,C0,00,C0,00,
83421905,0162402A,true,Rx,1,8,00,FD,02,04,80,00,80,00,
83426153,00C24000,true,Rx,1,8,40,00,80,00,C0,00,C0,00,
83428577,01E2402C,true,Rx,1,8,4F,50,00,0E,C2,10,00,00,
83431894,0162402A,true,Rx,1,8,00,ED,12,04,80,00,80,00,
83433140,00224024,true,Rx,1,8,AC,A1,00,00,C5,FF,B8,00,
83433716,00A24026,true,Rx,1,8,4E,BF,00,80,00,00,00,00,
83434298,00C24000,true,Rx,1,8,40,00,80,00,C0,00,C0,00,
83434873,01C24006,true,Rx,1,8,4C,00,90,00,F0,1F,00,00,
83438674,02620028,true,Rx,1,8,08,0C,00,41,F0,5F,45,3B,
83440126,00C24000,true,Rx,1,8,40,00,80,00,C0,00,C0,00,
83440712,02220002,true,Rx,1,8,40,FE,F0,00,00,00,00,00,
83441886,0162402A,true,Rx,1,8,00,DD,22,04,80,00,80,00,
83443765,0242C07C,true,Rx,1,8,18,01,01,03,02,12,06,01,
83447132,00224024,true,Rx,1,8,A4,A1,00,00,C5,FF,B8,00,
83447703,00A24026,true,Rx,1,8,8A,BF,00,80,00,00,00,00,
83448278,00C24000,true,Rx,1,8,40,00,80,00,C0,00,C0,00,
83448852,01E2402C,true,Rx,1,8,8F,50,00,0E,C2,10,00,00,
83451886,0162402A,true,Rx,1,8,00,CD,32,04,80,00,80,00,
83454162,00C24000,true,Rx,1,8,40,00,80,00,C0,00,C0,00,
83454744,01C24006,true,Rx,1,8,88,00,90,00,F0,1F,00,00,
83461127,00224024,true,Rx,1,8,AC,A1,00,00,C5,FF,B8,00,
83461698,00A24026,true,Rx,1,8,CA,BF,00,80,00,00,00,00,
83462273,00C24000,true,Rx,1,8,40,00,80,00,C0,00,C0,00,
83462838,0162402A,true,Rx,1,8,00,BD,42,04,80,00,80,00,
83468166,00C24000,true,Rx,1,8,40,00,80,00,C0,00,C0,00,
83468800,00E00024,true,Rx,1,8,80,00,00,00,00,00,3F,00,
83469364,01E2402C,true,Rx,1,8,CF,50,00,2E,C2,10,00,00,
83469929,02620028,true,Rx,1,8,40,0C,00,C5,F0,5F,45,3B,
83471884,0162402A,true,Rx,1,8,00,AD,52,04,80,00,80,00,
83475146,00224024,true,Rx,1,8,A4,A1,00,00,C5,FF,B8,00,
83475727,00A24026,true,Rx,1,8,0A,BF,00,80,00,00,00,00,
83476301,00C24000,true,Rx,1,8,40,00,80,00,C0,00,C0,00,
83476877,01C24006,true,Rx,1,8,CC,00,90,00,F0,1F,00,00,
83477452,02220002,true,Rx,1,8,40,FE,F0,00,00,00,00,00,
83481882,0162402A,true,Rx,1,8,00,9D,62,04,80,00,80,00,
83482463,00C24000,true,Rx,1,8,40,00,80,00,C0,00,C0,00,
83483049,03200002,true,Rx,1,8,C0,00,00,00,00,00,00,00,
83483635,03400002,true,Rx,1,8,00,00,00,00,00,00,00,00,
83489154,01E2402C,true,Rx,1,8,0F,50,00,0E,C2,10,00,00,
83489716,00224024,true,Rx,1,8,AC,A1,00,00,C5,FF,B8,00,
83490300,00A24026,true,Rx,1,8,4E,BF,00,80,00,00,00,00,
83490875,00C24000,true,Rx,1,8,40,00,80,00,C0,00,C0,00,
83491886,0162402A,true,Rx,1,8,00,8D,72,04,80,00,80,00,
83496175,00C24000,true,Rx,1,8,40,00,80,00,C0,00,C0,00,
83496747,01C24006,true,Rx,1,8,0C,00,90,00,F0,1F,00,00,
83498573,02620028,true,Rx,1,8,88,0C,00,41,F0,5F,45,3B,
83501893,0162402A,true,Rx,1,8,00,7D,82,04,80,00,80,00,
83503211,00224024,true,Rx,1,8,A4,A1,00,00,C5,FF,B8,00,
83503787,00A24026,true,Rx,1,8,8A,BF,00,80,00,00,00,00,
83504360,00C24000,true,Rx,1,8,40,00,80,00,C0,00,C0,00,
83508672,01E2402C,true,Rx,1,8,4F,50,00,0E,C2,10,00,00,
83510176,00C24000,true,Rx,1,8,40,00,80,00,C0,00,C0,00,
83510768,02220002,true,Rx,1,8,C0,FE,F0,00,00,00,00,00,
83511892,0162402A,true,Rx,1,8,00,6D,92,04,80,00,80,00,
83517159,00224024,true,Rx,1,8,AC,A1,00,00,C5,FF,B8,00,
83517731,00A24026,true,Rx,1,8,CA,BF,00,80,00,00,00,00,
83518305,00C24000,true,Rx,1,8,40,00,80,00,C0,00,C0,00,
83518891,01C24006,true,Rx,1,8,4C,00,90,00,F0,1F,00,00,
83521893,0162402A,true,Rx,1,8,00,5D,A2,04,80,00,80,00,
83524179,00C24000,true,Rx,1,8,40,00,80,00,C0,00,C0,00,
83528436,01E2402C,true,Rx,1,8,8F,50,00,0E,C2,10,00,00,
83529007,02620028,true,Rx,1,8,C8,0C,00,41,F0,5F,45,3B,
83531177,00224024,true,Rx,1,8,A4,A1,00,00,C5,FF,B8,00,
83531751,00A24026,true,Rx,1,8,0A,BF,00,80,00,00,00,00,
83532326,00C24000,true,Rx,1,8,40,00,80,00,C0,00,C0,00,
83532891,0162402A,true,Rx,1,8,00,4D,B2,04,80,00,80,00,
83538208,00C24000,true,Rx,1,8,40,00,80,00,C0,00,C0,00,
83538799,00E00024,true,Rx,1,8,C0,00,00,00,00,00,3F,20,
83539363,01C24006,true,Rx,1,8,88,00,B0,00,F0,1F,00,00,
83541887,0162402A,true,Rx,1,8,00,3D,C2,04,80,00,80,00,
83545191,00224024,true,Rx,1,8,AC,A1,00,00,C5,FF,B8,00,
83545773,00A24026,true,Rx,1,8,4E,BF,00,80,00,00,00,00,
83546347,00C24000,true,Rx,1,8,40,00,80,00,C0,00,C0,00,
83546932,02220002,true,Rx,1,8,40,FE,F0,00,00,00,00,00,
83549033,01E2402C,true,Rx,1,8,CF,50,00,0E,C2,10,00,00,
83551875,0162402A,true,Rx,1,8,00,2D,D2,04,80,00,80,00,
83552456,00C24000,true,Rx,1,8,40,00,80,00,C0,00,C0,00,
83558439,02620028,true,Rx,1,8,08,0C,00,41,F0,5F,45,3B,
83559197,00224024,true,Rx,1,8,A4,A1,00,00,C5,FF,B8,00,
83559763,00A24026,true,Rx,1,8,8A,BF,00,80,00,00,00,00,
83560348,00C24000,true,Rx,1,8,40,00,80,00,C0,00,C0,00,
83560922,01C24006,true,Rx,1,8,CC,00,B0,00,F0,1F,00,00,
83561892,0162402A,true,Rx,1,8,00,1D,E2,04,80,00,80,00,
83566225,00C24000,true,Rx,1,8,40,00,80,00,C0,00,C0,00,
83568555,01E2402C,true,Rx,1,8,0F,50,00,0E,C2,11,00,00,
83571895,0162402A,true,Rx,1,8,00,0D,F2,04,80,00,80,00,
83573232,00224024,true,Rx,1,8,AC,A1,00,00,C5,FF,B8,00,
83573798,00A24026,true,Rx,1,8,CA,BF,00,80,00,00,00,00,
83574370,00C24000,true,Rx,1,8,40,00,80,00,C0,00,C0,00,
83580287,00C24000,true,Rx,1,8,40,00,80,00,C0,00,C0,00,
83580859,01C24006,true,Rx,1,8,0C,00,B0,00,F0,1F,00,00,
83581443,02220002,true,Rx,1,8,40,FE,F0,00,00,00,00,00,
83582019,0162402A,true,Rx,1,8,00,FD,02,04,80,00,80,00,
83582614,03200002,true,Rx,1,8,D0,00,00,00,00,00,00,00,
83583199,03400002,true,Rx,1,8,00,00,01,00,00,00,00,00,
83587219,00224024,true,Rx,1,8,A4,A1,00,00,C5,FF,B8,00,
83587791,00A24026,true,Rx,1,8,0A,BF,00,80,00,00,00,00,
83588365,00C24000,true,Rx,1,8,40,00,80,00,C0,00,C0,00,
83589034,01E2402C,true,Rx,1,8,4F,50,00,0E,C2,10,00,00,
83589610,02620028,true,Rx,1,8,40,0C,00,41,F0,5F,45,3B,
83591892,0162402A,true,Rx,1,8,00,ED,12,04,80,00,80,00,
83594268,00C24000,true,Rx,1,8,40,00,80,00,C0,00,C0,00,
83601214,00224024,true,Rx,1,8,AC,A1,00,00,C5,FF,B8,00,
83601795,00A24026,true,Rx,1,8,4E,BF,00,80,00,00,00,00,
83602370,00C24000,true,Rx,1,8,40,00,80,00,C0,00,C0,00,
83602935,0162402A,true,Rx,1,8,00,DD,22,04,80,00,80,00,
83603510,01C24006,true,Rx,1,8,4C,00,B0,00,F0,1F,00,00,
83608278,00C24000,true,Rx,1,8,40,00,80,00,C0,00,C0,00,
83608849,01E2402C,true,Rx,1,8,8F,50,00,0E,C2,10,00,00,
83611901,0162402A,true,Rx,1,8,00,CD,32,04,80,00,80,00,
83613551,00E00024,true,Rx,1,8,00,00,00,00,00,00,3F,40,
83615272,00224024,true,Rx,1,8,A4,A1,00,00,C5,FF,B8,00,
83615838,00A24026,true,Rx,1,8,8A,BF,00,80,00,00,00,00,
83616421,00C24000,true,Rx,1,8,40,00,80,00,C0,00,C0,00,
83617005,02220002,true,Rx,1,8,C0,FE,F0,00,00,00,00,00,
83618628,02620028,true,Rx,1,8,88,0C,00,41,F0,5F,45,3B,
83621897,0162402A,true,Rx,1,8,00,BD,42,04,80,00,80,00,
83622467,00C24000,true,Rx,1,8,40,00,80,00,C0,00,C0,00,
83623042,01C24006,true,Rx,1,8,88,00,B0,00,F0,1F,00,00,
83628511,01E2402C,true,Rx,1,8,CF,50,00,0E,C2,10,00,00,
83629250,00224024,true,Rx,1,8,AC,A1,00,00,C5,FF,B8,00,
83629825,00A24026,true,Rx,1,8,CA,BF,00,80,00,00,00,00,
83630400,00C24000,true,Rx,1,8,40,00,80,00,C0,00,C0,00,
83631899,0162402A,true,Rx,1,8,00,AD,52,04,80,00,80,00,
83636270,00C24000,true,Rx,1,8,40,00,80,00,C0,00,C0,00,
83641895,0162402A,true,Rx,1,8,00,9D,62,04,80,00,80,00,
83643253,00224024,true,Rx,1,8,A4,A1,00,00,C5,FF,B8,00,
83643829,00A24026,true,Rx,1,8,0A,BF,00,80,00,00,00,00,
83644401,00C24000,true,Rx,1,8,40,00,80,00,C0,00,C0,00,
83644977,01C24006,true,Rx,1,8,CC,00,B0,00,F0,1F,00,00,
83648695,01E2402C,true,Rx,1,8,0F,50,00,0E,C2,10,00,00,
83649264,02620028,true,Rx,1,8,C8,0C,00,41,F0,5F,45,3B,
83650276,00C24000,true,Rx,1,8,40,00,80,00,C0,00,C0,00,
83650858,02220002,true,Rx,1,8,40,FE,F0,00,00,00,00,00,
83651901,0162402A,true,Rx,1,8,00,8D,72,04,80,00,80,00,
83657262,00224024,true,Rx,1,8,AC,A1,00,00,C5,FF,B8,00,
83657832,00A24026,true,Rx,1,8,4E,BF,00,80,00,00,00,00,
83658407,00C24000,true,Rx,1,8,40,00,80,00,C0,00,C0,00,
83661905,0162402A,true,Rx,1,8,00,7D,82,04,80,00,80,00,
83664276,00C24000,true,Rx,1,8,40,00,80,00,C0,00,C0,00,
83664847,01C24006,true,Rx,1,8,0C,00,B0,00,F0,1F,00,00,
83668533,01E2402C,true,Rx,1,8,4F,50,00,0E,C2,10,00,00,
83671252,00224024,true,Rx,1,8,A4,A1,00,00,C5,FF,B8,00,
83671824,00A24026,true,Rx,1,8,8A,BF,00,80,00,00,00,00,
83672397,00C24000,true,Rx,1,8,40,00,80,00,C0,00,C0,00,
83672972,0162402A,true,Rx,1,8,00,6D,92,04,80,00,80,00,
83678355,00C24000,true,Rx,1,8,40,00,80,00,C0,00,C0,00,
83678927,02620028,true,Rx,1,8,0A,0C,00,41,F0,5F,45,3B,
83679511,03200002,true,Rx,1,8,E0,00,00,00,00,00,00,00,
83680096,03400002,true,Rx,1,8,00,00,02,00,00,00,00,00,
83681898,0162402A,true,Rx,1,8,00,5D,A2,04,80,00,80,00,
83684232,00E00024,true,Rx,1,8,40,00,00,00,00,00,3F,60,
83685260,00224024,true,Rx,1,8,AC,A1,00,00,C5,FF,B8,00,
83685836,00A24026,true,Rx,1,8,CA,BF,00,80,00,00,00,00,
83686410,00C24000,true,Rx,1,8,40,00,80,00,C0,00,C0,00,
83686985,01C24006,true,Rx,1,8,4C,00,B0,00,F0,1F,00,00,
83687571,02220002,true,Rx,1,8,40,FE,F0,00,00,00,00,00,
83688705,01E2402C,true,Rx,1,8,8F,50,00,0E,C2,10,00,00,
83691890,0162402A,true,Rx,1,8,00,4D,B2,04,80,00,80,00,
83692475,00C24000,true,Rx,1,8,40,00,80,00,C0,00,C0,00,
83699259,00224024,true,Rx,1,8,A4,A1,00,00,C5,FF,B8,00,
83699831,00A24026,true,Rx,1,8,0A,BF,00,80,00,00,00,00,
83700416,00C24000,true,Rx,1,8,40,00,80,00,C0,00,C0,00,
83701892,0162402A,true,Rx,1,8,00,3D,C2,04,80,00,80,00,
83706297,00C24000,true,Rx,1,8,40,00,80,00,C0,00,C0,00,
83706867,01C24006,true,Rx,1,8,88,00,B0,00,F0,1F,00,00,
83708632,01E2402C,true,Rx,1,8,CF,50,00,0E,C2,10,00,00,
83709195,02620028,true,Rx,1,8,40,0C,00,43,F0,5F,45,3B,
83711896,0162402A,true,Rx,1,8,00,2D,D2,04,80,00,80,00,
83713338,00224024,true,Rx,1,8,AC,A1,00,00,C5,FF,B8,00,
83713913,00A24026,true,Rx,1,8,4E,BF,00,80,00,00,00,00,
83714496,00C24000,true,Rx,1,8,40,00,80,00,C0,00,C0,00,
83720284,00C24000,true,Rx,1,8,40,00,80,00,C0,00,C0,00,
83720877,02220002,true,Rx,1,8,40,FE,F0,00,00,00,00,00,
83721897,0162402A,true,Rx,1,8,00,1D,E2,04,80,00,80,00,
83723653,0242C07C,true,Rx,1,8,01,0F,5E,74,0C,58,01,07,
83727309,00224024,true,Rx,1,8,A4,A1,00,00,C5,FF,B8,00,
83727870,00A24026,true,Rx,1,8,8A,BF,00,80,00,00,00,00,
83728454,00C24000,true,Rx,1,8,40,00,80,00,C0,00,C0,00,
83729029,01C24006,true,Rx,1,8,CC,00,B0,00,F0,1F,00,00,
83729605,01E2402C,true,Rx,1,8,0F,50,00,0E,C2,10,00,00,
83731909,0162402A,true,Rx,1,8,00,0D,F2,04,80,00,80,00,
83734317,00C24000,true,Rx,1,8,40,00,80,00,C0,00,C0,00,
83738430,02620028,true,Rx,1,8,88,0C,00,41,F0,5F,45,3B,
83741276,00224024,true,Rx,1,8,AC,A1,00,00,C5,FF,B8,00,
83741847,00A24026,true,Rx,1,8,CA,BF,00,80,00,00,00,00,
83742422,00C24000,true,Rx,1,8,40,00,80,00,C0,00,C0,00,
83743006,0162402A,true,Rx,1,8,00,FD,02,04,80,00,80,00,
83748304,00C24000,true,Rx,1,8,40,00,80,00,C0,00,C0,00,
83748886,01C24006,true,Rx,1,8,0C,00,B0,00,F0,1F,00,00,
83749450,01E2402C,true,Rx,1,8,4F,50,00,0E,C2,10,00,00,
83751894,0162402A,true,Rx,1,8,00,ED,12,04,80,00,80,00,
83755311,00224024,true,Rx,1,8,A4,A1,00,00,C5,FF,B8,00,
83755882,00A24026,true,Rx,1,8,0A,BF,00,80,00,00,00,00,
83756457,00C24000,true,Rx,1,8,40,00,80,00,C0,00,C0,00,
83757043,02220002,true,Rx,1,8,C0,FE,F0,00,00,00,00,00,
83758852,00E00024,true,Rx,1,8,80,00,00,00,00,00,3F,80,
83761890,0162402A,true,Rx,1,8,00,DD,22,04,80,00,80,00,
83762461,00C24000,true,Rx,1,8,40,00,80,00,C0,00,C0,00,
83768432,01E2402C,true,Rx,1,8,8F,50,00,0E,C2,11,00,00,
83768994,02620028,true,Rx,1,8,C8,0C,00,41,F0,5F,45,3B,
83769570,00224024,true,Rx,1,8,AC,A1,00,00,C5,FF,B8,00,
83770144,00A24026,true,Rx,1,8,4E,BF,00,80,00,00,00,00,
83770719,00C24000,true,Rx,1,8,40,00,80,00,C0,00,C0,00,
83771293,01C24006,true,Rx,1,8,4C,00,B0,00,F0,1F,00,00,
83771890,0162402A,true,Rx,1,8,00,CD,32,04,80,00,80,00,
83776404,00C24000,true,Rx,1,8,40,00,80,00,C0,00,C0,00,
83776996,03200002,true,Rx,1,8,F0,00,00,00,00,00,00,00,
83777581,03400002,true,Rx,1,8,00,00,03,00,00,00,00,00,
83781890,0162402A,true,Rx,1,8,00,BD,42,04,80,00,80,00,
83783301,00224024,true,Rx,1,8,A4,A1,00,00,C5,FF,B8,00,
83783877,00A24026,true,Rx,1,8,8A,BF,00,80,00,00,00,00,
83784448,00C24000,true,Rx,1,8,40,00,80,00,C0,00,C0,00,
83788642,01E2402C,true,Rx,1,8,CF,50,00,0E,C2,10,00,00,
83790322,00C24000,true,Rx,1,8,40,00,80,00,C0,00,C0,00,
83790894,01C24006,true,Rx,1,8,88,00,B0,00,F0,1F,00,00,
83791478,02220002,true,Rx,1,8,40,FE,F0,00,00,00,00,00,
83792053,0162402A,true,Rx,1,8,00,AD,52,04,80,00,80,00,
83797327,00224024,true,Rx,1,8,AC,A1,00,00,C5,FF,B8,00,
83797899,00A24026,true,Rx,1,8,CA,BF,00,80,00,00,00,00,
83798473,00C24000,true,Rx,1,8,40,00,80,00,C0,00,C0,00,
83799048,02620028,true,Rx,1,8,08,0C,00,41,F0,5F,45,3B,
83801893,0162402A,true,Rx,1,8,00,9D,62,04,80,00,80,00,
83804347,00C24000,true,Rx,1,8,40,00,80,00,C0,00,C0,00,
83808508,01E2402C,true,Rx,1,8,0F,50,00,0E,C2,10,00,00,
83811321,00224024,true,Rx,1,8,A4,A1,00,00,C5,FF,B8,00,
83811892,00A24026,true,Rx,1,8,0A,BF,00,80,00,00,00,00,
83812477,00C24000,true,Rx,1,8,40,00,80,00,C0,00,C0,00,
83813043,0162402A,true,Rx,1,8,00,8D,72,04,80,00,80,00,
83813617,01C24006,true,Rx,1,8,CC,00,B0,00,F0,1F,00,00,
83818406,00C24000,true,Rx,1,8,40,00,80,00,C0,00,C0,00,
83821903,0162402A,true,Rx,1,8,00,7D,82,04,80,00,80,00,
83825369,00224024,true,Rx,1,8,AC,A1,00,00,C5,FF,B8,00,
83825939,00A24026,true,Rx,1,8,4E,BF,30,80,00,00,00,00,
83826514,00C24000,true,Rx,1,8,40,00,80,00,C0,00,C0,00,
83827100,02220002,true,Rx,1,8,40,FE,F0,00,00,00,00,00,
83828775,00E00024,true,Rx,1,8,C0,00,00,00,00,00,3F,A0,
83829349,01E2402C,true,Rx,1,8,4F,50,00,0E,C2,10,00,00,
83829923,02620028,true,Rx,1,8,40,0C,00,41,F0,5F,45,3B,
83831894,0162402A,true,Rx,1,8,00,6D,92,04,80,00,80,00,
83832469,00C24000,true,Rx,1,8,40,00,80,00,C0,00,C0,00,
83833044,01C24006,true,Rx,1,8,0C,00,B0,00,F0,1F,00,00,
83839299,00224024,true,Rx,1,8,A4,A1,00,00,C5,FF,B8,00,
83839870,00A24026,true,Rx,1,8,8A,BF,30,80,00,00,00,00,
83840444,00C24000,true,Rx,1,8,40,00,80,00,C0,00,C0,00,
83841891,0162402A,true,Rx,1,8,00,5D,A2,04,80,00,80,00,
83846305,00C24000,true,Rx,1,8,40,00,80,00,C0,00,C0,00,
83848561,01E2402C,true,Rx,1,8,8F,50,00,0E,C2,10,00,00,
83851889,0162402A,true,Rx,1,8,00,4D,B2,04,80,00,80,00,
83853310,00224024,true,Rx,1,8,AC,A1,00,00,C5,FF,B8,00,
83853876,00A24026,true,Rx,1,8,CA,BF,30,80,00,00,00,00,
83854447,00C24000,true,Rx,1,8,40,00,80,00,C0,00,C0,00,
83855022,01C24006,true,Rx,1,8,4C,00,B0,00,F0,1F,00,00,
83858667,02620028,true,Rx,1,8,88,0C,00,C5,F0,5F,45,3B,
83860295,00C24000,true,Rx,1,8,40,00,80,00,C0,00,C0,00,
83860877,02220002,true,Rx,1,8,C0,FE,F0,00,00,00,00,00,
83861888,0162402A,true,Rx,1,8,00,3D,C2,04,80,00,80,00,
83867302,00224024,true,Rx,1,8,A4,A1,00,00,C5,FF,B8,00,
83867884,00A24026,true,Rx,1,8,0A,BF,30,80,00,00,00,00,
83868458,00C24000,true,Rx,1,8,40,00,80,00,C0,00,C0,00,
83869023,01E2402C,true,Rx,1,8,CF,50,00,2E,C2,10,00,00,
83871879,0162402A,true,Rx,1,8,00,2D,D2,04,80,00,80,00,
83874417,00C24000,true,Rx,1,8,40,00,80,00,C0,00,C0,00,
83874990,01C24006,true,Rx,1,8,88,00,B0,00,F0,1F,00,00,
83875576,03200002,true,Rx,1,8,C0,00,00,00,00,00,00,00,
83876160,03400002,true,Rx,1,8,00,00,00,00,00,00,00,00,
83881290,00224024,true,Rx,1,8,AC,A1,00,00,C5,FF,B8,00,
83881862,00A24026,true,Rx,1,8,4E,BF,30,80,00,00,00,00,
83882437,00C24000,true,Rx,1,8,40,00,80,00,C0,00,C0,00,
83883012,0162402A,true,Rx,1,8,00,1D,E2,04,80,00,80,00,
83888331,00C24000,true,Rx,1,8,40,00,80,00,C0,00,C0,00,
83888911,01E2402C,true,Rx,1,8,0F,50,00,0E,C2,10,00,00,
83889475,02620028,true,Rx,1,8,C8,0C,00,41,F0,5F,45,3B,
83891896,0162402A,true,Rx,1,8,00,0D,F2,04,80,00,80,00,
83895313,00224024,true,Rx,1,8,A4,A1,00,00,C5,FF,B8,00,
83895883,00A24026,true,Rx,1,8,8A,BF,30,80,00,00,00,00,
83896458,00C24000,true,Rx,1,8,40,00,80,00,C0,00,C0,00,
83897044,01C24006,true,Rx,1,8,CC,00,B0,00,F0,1F,00,00,
83897620,02220002,true,Rx,1,8,40,FE,F0,00,00,00,00,00,
83901891,0162402A,true,Rx,1,8,00,FD,02,04,80,00,80,00,
83902472,00C24000,true,Rx,1,8,40,00,80,00,C0,00,C0,00,
83903774,00E00024,true,Rx,1,8,00,00,00,00,00,00,3F,C0,
83908513,01E2402C,true,Rx,1,8,4F,50,00,0E,C2,10,00,00,
83909312,00224024,true,Rx,1,8,AC,A1,00,00,C5,FF,B8,00,
83909878,00A24026,true,Rx,1,8,CA,BF,30,80,00,00,00,00,
83910451,00C24000,true,Rx,1,8,40,00,80,00,C0,00,C0,00,
83911888,0162402A,true,Rx,1,8,00,ED,12,04,80,00,80,00,
83916335,00C24000,true,Rx,1,8,40,00,80,00,C0,00,C0,00,
83916916,01C24006,true,Rx,1,8,0C,00,B0,00,F0,1F,00,00,
83918557,02620028,true,Rx,1,8,0A,0C,00,41,F0,5F,45,3B,
83921878,0162402A,true,Rx,1,8,00,DD,22,04,80,00,80,00,
83923362,00224024,true,Rx,1,8,A4,A1,00,00,C5,FF,B8,00,
83923937,00A24026,true,Rx,1,8,0A,BF,30,80,00,00,00,00,
83924520,00C24000,true,Rx,1,8,40,00,80,00,C0,00,C0,00,
83928623,01E2402C,true,Rx,1,8,8F,50,00,0E,C2,10,00,00,
83930355,00C24000,true,Rx,1,8,40,00,80,00,C0,00,C0,00,
83930937,02220002,true,Rx,1,8,40,FE,F0,00,00,00,00,00,
83931886,0162402A,true,Rx,1,8,00,CD,32,04,80,00,80,00,
83937333,00224024,true,Rx,1,8,AC,A1,00,00,C5,FF,B8,00,
83937894,00A24026,true,Rx,1,8,4E,BF,30,80,00,00,00,00,
83938468,00C24000,true,Rx,1,8,40,00,80,00,C0,00,C0,00,
83939044,01C24006,true,Rx,1,8,4C,00,B0,00,F0,1F,00,00,
83941878,0162402A,true,Rx,1,8,00,BD,42,04,80,00,80,00,
83944344,00C24000,true,Rx,1,8,40,00,80,00,C0,00,C0,00,
83948453,01E2402C,true,Rx,1,8,CF,50,00,0E,C2,10,00,00,
83949025,02620028,true,Rx,1,8,40,0C,00,41,F0,5F,45,3B,
83951349,00224024,true,Rx,1,8,A4,A1,00,00,C5,FF,B8,00,
83951913,00A24026,true,Rx,1,8,8A,BF,30,80,00,00,00,00,
83952488,00C24000,true,Rx,1,8,40,00,80,00,C0,00,C0,00,
83953053,0162402A,true,Rx,1,8,00,AD,52,04,80,00,80,00,
83958340,00C24000,true,Rx,1,8,40,00,80,00,C0,00,C0,00,
83958912,01C24006,true,Rx,1,8,88,00,B0,00,F0,1F,00,00,
83961881,0162402A,true,Rx,1,8,00,9D,62,04,80,00,80,00,
83965329,00224024,true,Rx,1,8,AC,A1,00,00,C5,FF,B8,00,
83965900,00A24026,true,Rx,1,8,CA,BF,30,80,00,00,00,00,
83966474,00C24000,true,Rx,1,8,40,00,80,00,C0,00,C0,00,
83967060,02220002,true,Rx,1,8,C0,FE,F0,00,00,00,00,00,
83968798,01E2402C,true,Rx,1,8,0F,50,00,0E,C2,11,00,00,
83971877,0162402A,true,Rx,1,8,00,8D,72,04,80,00,80,00,
83972457,00C24000,true,Rx,1,8,40,00,80,00,C0,00,C0,00,
83973043,03200002,true,Rx,1,8,D0,00,00,00,00,00,00,00,
83973629,03400002,true,Rx,1,8,00,00,01,00,00,00,00,00,
83974213,00E00024,true,Rx,1,8,40,00,00,00,00,00,3F,E0,
83978983,02620028,true,Rx,1,8,88,0C,00,41,F0,5F,45,3B,
83979553,00224024,true,Rx,1,8,A4,A1,00,00,C5,FF,B8,00,
83980127,00A24026,true,Rx,1,8,0A,BF,30,80,00,00,00,00,
83980703,00C24000,true,Rx,1,8,40,00,80,00,C0,00,C0,00,
83981278,01C24006,true,Rx,1,8,CC,00,B0,00,F0,1F,00,00,
83981893,0162402A,true,Rx,1,8,00,7D,82,04,80,00,80,00,
83986376,00C24000,true,Rx,1,8,40,00,80,00,C0,00,C0,00,
83988505,01E2402C,true,Rx,1,8,4F,50,00,0E,C2,10,00,00,
83991877,0162402A,true,Rx,1,8,00,6D,92,04,80,00,80,00,
83993361,00224024,true,Rx,1,8,AC,A1,00,00,C5,FF,B8,00,
83993933,00A24026,true,Rx,1,8,4E,BF,30,80,00,00,00,00,
83994507,00C24000,true,Rx,1,8,40,00,80,00,C0,00,C0,00,
84000355,00C24000,true,Rx,1,8,40,00,80,00,C0,00,C0,00,
84000938,01C24006,true,Rx,1,8,0C,00,B0,00,F0,1F,00,00,
84001522,02220002,true,Rx,1,8,40,FE,F0,00,00,00,00,00,
84002088,0162402A,true,Rx,1,8,00,5D,A2,04,80,00,80,00,
84003680,0242C07C,true,Rx,1,8,FF,00,00,00,00,00,00,00,
84007367,00224024,true,Rx,1,8,A4,A1,00,00,C5,FF,B8,00,
84007927,00A24026,true,Rx,1,8,8A,BF,30,80,00,00,00,00,
84008512,00C24000,true,Rx,1,8,40,00,80,00,C0,00,C0,00,
84009077,01E2402C,true,Rx,1,8,8F,50,00,0E,C2,10,00,00,
84009643,02620028,true,Rx,1,8,C8,0C,00,41,F0,5F,45,3B,
84011873,0162402A,true,Rx,1,8,00,4D,B2,04,80,00,80,00,
84014395,00C24000,true,Rx,1,8,40,00,80,00,C0,00,C0,00,
84021351,00224024,true,Rx,1,8,AC,A1,00,00,C5,FF,B8,00,
84021912,00A24026,true,Rx,1,8,CA,BF,30,80,00,00,00,00,
84022486,00C24000,true,Rx,1,8,40,00,80,00,C0,00,C0,00,
84023051,0162402A,true,Rx,1,8,00,3D,C2,04,80,00,80,00,
84023627,01C24006,true,Rx,1,8,4C,00,B0,00,F0,1F,00,00,
84028425,00C24000,true,Rx,1,8,40,00,80,00,C0,00,C0,00,
84028987,01E2402C,true,Rx,1,8,CF,50,00,0E,C2,10,00,00,
84031871,0162402A,true,Rx,1,8,00,2D,D2,04,80,00,80,00,
84035403,00224024,true,Rx,1,8,A4,A1,00,00,C5,FF,B8,00,
84035975,00A24026,true,Rx,1,8,0A,BF,30,80,00,00,00,00,
84036550,00C24000,true,Rx,1,8,40,00,80,00,C0,00,C0,00,
84037134,02220002,true,Rx,1,8,40,FE,F0,00,00,00,00,00,
84038592,02620028,true,Rx,1,8,08,0C,00,41,F0,5F,45,3B,
84041877,0162402A,true,Rx,1,8,00,1D,E2,04,80,00,80,00,
84042458,00C24000,true,Rx,1,8,40,00,80,00,C0,00,C0,00,
84043023,01C24006,true,Rx,1,8,88,00,B0,00,F0,1F,00,00,
84043858,00E00024,true,Rx,1,8,80,00,00,00,00,00,3F,00,
84048538,01E2402C,true,Rx,1,8,0F,50,00,0E,C2,10,00,00,
84049388,00224024,true,Rx,1,8,AC,A1,00,00,C5,FF,B8,00,
84049955,00A24026,true,Rx,1,8,4E,BF,30,80,00,00,00,00,
84050529,00C24000,true,Rx,1,8,40,00,80,00,C0,00,C0,00,
84051883,0162402A,true,Rx,1,8,00,0D,F2,04,80,00,80,00,
84056422,00C24000,true,Rx,1,8,40,00,80,00,C0,00,C0,00,
84061891,0162402A,true,Rx,1,8,00,FD,02,04,80,00,80,00,
84063406,00224024,true,Rx,1,8,A4,A1,00,00,C5,FF,B8,00,
84063966,00A24026,true,Rx,1,8,8A,BF,30,80,00,00,00,00,
84064542,00C24000,true,Rx,1,8,40,00,80,00,C0,00,C0,00,
84065126,01C24006,true,Rx,1,8,CC,00,B0,00,F0,1F,00,00,
84068639,01E2402C,true,Rx,1,8,4F,50,00,0E,C2,10,00,00,
84069209,02620028,true,Rx,1,8,40,0C,00,41,F0,5F,45,3B,
84070480,00C24000,true,Rx,1,8,40,00,80,00,C0,00,C0,00,
84071062,02220002,true,Rx,1,8,C0,FE,F0,00,00,00,00,00,
84071648,03200002,true,Rx,1,8,E0,00,00,00,00,00,00,00,
84072223,0162402A,true,Rx,1,8,00,ED,12,04,80,00,80,00,
84072810,03400002,true,Rx,1,8,00,00,02,00,00,00,00,00,
84077395,00224024,true,Rx,1,8,AC,A1,00,00,C5,FF,B8,00,
84077966,00A24026,true,Rx,1,8,CA,BF,30,80,00,00,00,00,
84078541,00C24000,true,Rx,1,8,40,00,80,00,C0,00,C0,00,
84081871,0162402A,true,Rx,1,8,00,DD,22,04,80,00,80,00,
84084409,00C24000,true,Rx,1,8,40,00,80,00,C0,00,C0,00,
84084991,01C24006,true,Rx,1,8,0C,00,B0,00,F0,1F,00,00,
84088499,01E2402C,true,Rx,1,8,8F,50,00,0E,C2,10,00,00,
84091397,00224024,true,Rx,1,8,A4,A1,00,00,C5,FF,B8,00,
84091979,00A24026,true,Rx,1,8,0A,BF,30,80,00,00,00,00,
84092553,00C24000,true,Rx,1,8,40,00,80,00,C0,00,C0,00,
84093128,0162402A,true,Rx,1,8,00,CD,32,04,80,00,80,00,
84098446,00C24000,true,Rx,1,8,40,00,80,00,C0,00,C0,00,
84099007,02620028,true,Rx,1,8,88,0C,00,41,F0,5F,45,3B,
84101873,0162402A,true,Rx,1,8,00,BD,42,04,80,00,80,00,
84105424,00224024,true,Rx,1,8,AC,A1,00,00,C5,FF,B8,00,
84105985,00A24026,true,Rx,1,8,4E,BF,30,80,00,00,00,00,
84106561,00C24000,true,Rx,1,8,40,00,80,00,C0,00,C0,00,
84107134,01C24006,true,Rx,1,8,4C,00,B0,00,F0,1F,00,00,
84107720,02220002,true,Rx,1,8,40,FE,F0,00,00,00,00,00,
84108753,01E2402C,true,Rx,1,8,CF,50,00,0E,C2,10,00,00,
84111843,0162402A,true,Rx,1,8,00,AD,52,04,80,00,80,00,
84112432,00C24000,true,Rx,1,8,40,00,80,00,C0,00,C0,00,
84113756,00E00024,true,Rx,1,8,C0,00,00,00,00,00,3F,20,
84119422,00224024,true,Rx,1,8,A4,A1,00,00,C5,FF,B8,00,
84119984,00A24026,true,Rx,1,8,8A,BF,30,80,00,00,00,00,
84120560,00C24000,true,Rx,1,8,40,00,80,00,C0,00,C0,00,
84121849,0162402A,true,Rx,1,8,00,9D,62,04,80,00,80,00,
84126439,00C24000,true,Rx,1,8,40,00,80,00,C0,00,C0,00,
84127021,01C24006,true,Rx,1,8,88,00,B0,00,F0,1F,00,00,
84128514,01E2402C,true,Rx,1,8,0F,50,00,0E,C2,10,00,00,
84129080,02620028,true,Rx,1,8,C8,0C,00,43,F0,5F,45,3B,
84131843,0162402A,true,Rx,1,8,00,8D,72,04,80,00,80,00,
84133492,00224024,true,Rx,1,8,AC,A1,00,00,C5,FF,B8,00,
84134058,00A24026,true,Rx,1,8,CA,BF,30,80,00,00,00,00,
84134641,00C24000,true,Rx,1,8,40,00,80,00,C0,00,C0,00,
84140448,00C24000,true,Rx,1,8,40,00,80,00,C0,00,C0,00,
84141030,02220002,true,Rx,1,8,40,FE,F0,00,00,00,00,00,
84141854,0162402A,true,Rx,1,8,00,7D,82,04,80,00,80,00,
84147439,00224024,true,Rx,1,8,A4,A1,00,00,C5,FF,B8,00,
84148011,00A24026,true,Rx,1,8,0A,BF,30,80,00,00,00,00,
84148586,00C24000,true,Rx,1,8,40,00,80,00,C0,00,C0,00,
84149170,01C24006,true,Rx,1,8,CC,00,B0,00,F0,1F,00,00,
84149736,01E2402C,true,Rx,1,8,4F,50,00,0E,C2,10,00,00,
84151843,0162402A,true,Rx,1,8,00,6D,92,04,80,00,80,00,
84154477,00C24000,true,Rx,1,8,40,00,80,00,C0,00,C0,00,
84158433,02620028,true,Rx,1,8,08,0C,00,41,F0,5F,45,3B,
84161427,00224024,true,Rx,1,8,AC,A1,00,00,C5,FF,B8,00,
84161999,00A24026,true,Rx,1,8,4E,BF,30,80,00,00,00,00,
84162574,00C24000,true,Rx,1,8,40,00,80,00,C0,00,C0,00,
84163148,0162402A,true,Rx,1,8,00,5D,A2,04,80,00,80,00,
84168508,01E2402C,true,Rx,1,8,8F,50,00,0E,C2,11,00,00,
84169080,00C24000,true,Rx,1,8,40,00,80,00,C0,00,C0,00,
84169656,01C24006,true,Rx,1,8,0C,00,B0,00,F0,1F,00,00,
84170241,03200002,true,Rx,1,8,F0,00,00,00,00,00,00,00,
84170836,03400002,true,Rx,1,8,00,00,03,00,00,00,00,00,
84171847,0162402A,true,Rx,1,8,00,4D,B2,04,80,00,80,00,
84175483,00224024,true,Rx,1,8,A4,A1,00,00,C5,FF,B8,00,
84176044,00A24026,true,Rx,1,8,8A,BF,30,80,00,00,00,00,
84176619,00C24000,true,Rx,1,8,40,00,80,00,C0,00,C0,00,
84177204,02220002,true,Rx,1,8,C0,FE,F0,00,00,00,00,00,
84181839,0162402A,true,Rx,1,8,00,3D,C2,04,80,00,80,00,
84182461,00C24000,true,Rx,1,8,40,00,80,00,C0,00,C0,00,
84183762,00E00024,true,Rx,1,8,00,00,00,00,00,00,3F,40,
84188439,01E2402C,true,Rx,1,8,CF,50,00,0E,C2,10,00,00,
84189001,02620028,true,Rx,1,8,42,0C,00,41,F0,5F,45,3B,
84189566,00224024,true,Rx,1,8,AC,A1,00,00,C5,FF,B8,00,
84190130,00A24026,true,Rx,1,8,CA,BF,30,80,00,00,00,00,
84190705,00C24000,true,Rx,1,8,40,00,80,00,C0,00,C0,00,
84191280,01C24006,true,Rx,1,8,4C,00,B0,00,F0,1F,00,00,
84191845,0162402A,true,Rx,1,8,00,2D,D2,04,80,00,80,00,
84196474,00C24000,true,Rx,1,8,40,00,80,00,C0,00,C0,00,
84201847,0162402A,true,Rx,1,8,00,1D,E2,04,80,00,80,00,
84203475,00224024,true,Rx,1,8,A4,A1,00,00,C5,FF,B8,00,
84204047,00A24026,true,Rx,1,8,0A,BF,30,80,00,00,00,00,
84204622,00C24000,true,Rx,1,8,40,00,80,00,C0,00,C0,00,
84208673,01E2402C,true,Rx,1,8,0F,50,00,0E,C2,10,00,00,
84210498,00C24000,true,Rx,1,8,40,00,80,00,C0,00,C0,00,
84211069,01C24006,true,Rx,1,8,88,00,B0,00,F0,1F,00,00,
84211655,02220002,true,Rx,1,8,40,FE,F0,00,00,00,00,00,
84212239,0162402A,true,Rx,1,8,00,0D,F2,04,80,00,80,00,
84217492,00224024,true,Rx,1,8,AC,A1,00,00,C5,FF,B8,00,
84218053,00A24026,true,Rx,1,8,4E,BF,30,80,00,00,00,00,
84218630,00C24000,true,Rx,1,8,40,00,80,00,C0,00,C0,00,
84219203,02620028,true,Rx,1,8,88,0C,00,41,F0,5F,45,3B,
84221849,0162402A,true,Rx,1,8,00,FD,02,04,80,00,80,00,
84224503,00C24000,true,Rx,1,8,40,00,80,00,C0,00,C0,00,
84228464,01E2402C,true,Rx,1,8,4F,50,00,0E,C2,10,00,00,
84231477,00224024,true,Rx,1,8,A4,A1,00,00,C5,FF,B8,00,
84232049,00A24026,true,Rx,1,8,8A,BF,30,80,00,00,00,00,
84232624,00C24000,true,Rx,1,8,40,00,80,00,C0,00,C0,00,
84233199,0162402A,true,Rx,1,8,00,ED,12,04,80,00,80,00,
84233773,01C24006,true,Rx,1,8,CC,00,B0,00,F0,1F,00,00,
84238552,00C24000,true,Rx,1,8,40,00,80,00,C0,00,C0,00,
84241839,0162402A,true,Rx,1,8,00,DD,22,04,80,00,80,00,
84245514,00224024,true,Rx,1,8,AC,A1,00,00,C5,FF,B8,00,
84246074,00A24026,true,Rx,1,8,CA,BF,30,80,00,00,00,00,
84246650,00C24000,true,Rx,1,8,40,00,80,00,C0,00,C0,00,
84247235,02220002,true,Rx,1,8,40,FE,F0,00,00,00,00,00,
84248652,01E2402C,true,Rx,1,8,8F,50,00,2E,C2,10,00,00,
84249214,02620028,true,Rx,1,8,C8,0C,00,C5,F0,5F,45,3B,
84251847,0162402A,true,Rx,1,8,00,CD,32,04,80,00,80,00,
84252510,00C24000,true,Rx,1,8,40,00,80,00,C0,00,C0,00,
84253086,01C24006,true,Rx,1,8,0C,00,B0,00,F0,1F,00,00,
84253764,00E00024,true,Rx,1,8,40,00,00,00,00,00,3F,60,
84259496,00224024,true,Rx,1,8,A4,A1,00,00,C5,FF,B8,00,
84260078,00A24026,true,Rx,1,8,0A,BF,30,80,00,00,00,00,
84260653,00C24000,true,Rx,1,8,40,00,80,00,C0,00,C0,00,
84261839,0162402A,true,Rx,1,8,00,BD,42,04,80,00,80,00,
84266607,00C24000,true,Rx,1,8,40,00,80,00,C0,00,C0,00,
84267198,03200002,true,Rx,1,8,C0,00,00,00,00,00,00,00,
84267784,03400002,true,Rx,1,8,00,00,00,00,00,00,00,00,
84268639,01E2402C,true,Rx,1,8,CF,50,00,0E,C2,30,00,00,
84271835,0162402A,true,Rx,1,8,00,AD,52,04,80,00,80,00,
84273526,00224024,true,Rx,1,8,AC,A1,00,00,C5,FF,B8,00,
84274097,00A24026,true,Rx,1,8,4E,BF,30,80,00,00,00,00,
84274673,00C24000,true,Rx,1,8,40,00,80,00,C0,00,C0,00,
84275246,01C24006,true,Rx,1,8,4C,00,B0,00,F0,1F,00,00,
84278636,02620028,true,Rx,1,8,00,0C,00,41,F0,5F,45,3B,
84280513,00C24000,true,Rx,1,8,40,00,80,00,C0,00,C0,00,
84281095,02220002,true,Rx,1,8,40,FE,F0,00,00,00,00,00,
84281836,0162402A,true,Rx,1,8,00,9D,62,04,80,00,80,00,
84287534,00224024,true,Rx,1,8,A4,A1,00,00,C5,FF,B8,00,
84288105,00A24026,true,Rx,1,8,8A,BF,30,80,00,00,00,00,
84288681,00C24000,true,Rx,1,8,40,00,80,00,C0,00,C0,00,
84289255,01E2402C,true,Rx,1,8,0F,50,00,0E,C2,10,00,00,
84289819,0242C07C,true,Rx,1,8,14,04,01,01,02,02,02,06,
84291833,0162402A,true,Rx,1,8,00,8D,72,04,80,00,80,00,
84294563,00C24000,true,Rx,1,8,40,00,80,00,C0,00,C0,00,
84295136,01C24006,true,Rx,1,8,88,00,B0,00,F0,1F,00,00,
84301504,00224024,true,Rx,1,8,AC,A1,00,00,C5,FF,B8,00,
84302074,00A24026,true,Rx,1,8,CA,BF,30,80,00,00,00,00,
84302650,00C24000,true,Rx,1,8,40,00,80,00,C0,00,C0,00,
84303224,0162402A,true,Rx,1,8,00,7D,82,04,80,00,80,00,
84308545,00C24000,true,Rx,1,8,40,00,80,00,C0,00,C0,00,
84309114,01E2402C,true,Rx,1,8,4F,50,00,0E,C2,10,00,00,
84309680,02620028,true,Rx,1,8,48,0C,00,41,F0,5F,45,3B,
84311840,0162402A,true,Rx,1,8,00,6D,92,04,80,00,80,00,
84315538,00224024,true,Rx,1,8,A4,A1,00,00,C5,FF,B8,00,
84316119,00A24026,true,Rx,1,8,0A,BF,30,80,00,00,00,00,
84316694,00C24000,true,Rx,1,8,40,00,80,00,C0,00,C0,00,
84317269,01C24006,true,Rx,1,8,CC,00,B0,00,F0,1F,00,00,
84317855,02220002,true,Rx,1,8,C0,FE,F0,00,00,00,00,00,
84321833,0162402A,true,Rx,1,8,00,5D,A2,04,80,00,80,00,
84322527,00C24000,true,Rx,1,8,40,00,80,00,C0,00,C0,00,
84323830,00E00024,true,Rx,1,8,80,00,00,00,00,00,3F,80,
84328477,01E2402C,true,Rx,1,8,8F,50,00,0E,C2,10,00,00,
84329535,00224024,true,Rx,1,8,AC,A1,00,00,C5,FF,B8,00,
84330110,00A24026,true,Rx,1,8,4E,BF,30,80,00,00,00,00,
84330684,00C24000,true,Rx,1,8,40,00,80,00,C0,00,C0,00,
84331829,0162402A,true,Rx,1,8,00,4D,B2,04,80,00,80,00,
84336540,00C24000,true,Rx,1,8,40,00,80,00,C0,00,C0,00,
84337121,01C24006,true,Rx,1,8,0C,00,B0,00,F0,1F,00,00,
84338515,02620028,true,Rx,1,8,88,0C,00,41,F0,5F,45,3B,
84341836,0162402A,true,Rx,1,8,00,3D,C2,04,80,00,80,00,
84343579,00224024,true,Rx,1,8,A4,A1,00,00,C5,FF,B8,00,
84344150,00A24026,true,Rx,1,8,8A,BF,30,80,00,00,00,00,
84344725,00C24000,true,Rx,1,8,40,00,80,00,C0,00,C0,00,
84348650,01E2402C,true,Rx,1,8,CF,50,00,0E,C2,10,00,00,
84350570,00C24000,true,Rx,1,8,40,00,80,00,C0,00,C0,00,
84351151,02220002,true,Rx,1,8,40,FE,F0,00,00,00,00,00,
84351830,0162402A,true,Rx,1,8,00,2D,D2,04,80,00,80,00,
84357550,00224024,true,Rx,1,8,AC,A1,00,00,C5,FF,B8,00,
84358109,00A24026,true,Rx,1,8,CA,BF,30,80,00,00,00,00,
84358684,00C24000,true,Rx,1,8,40,00,80,00,C0,00,C0,00,
84359259,01C24006,true,Rx,1,8,4C,00,B0,00,F0,1F,00,00,
84361831,0162402A,true,Rx,1,8,00,1D,E2,04,80,00,80,00,
84364634,00C24000,true,Rx,1,8,40,00,80,00,C0,00,C0,00,
84365226,03200002,true,Rx,1,8,D0,00,00,00,00,00,00,00,
84365810,03400002,true,Rx,1,8,00,00,01,00,00,00,00,00,
84369056,01E2402C,true,Rx,1,8,0F,50,00,0E,C2,11,00,00,
84369617,02620028,true,Rx,1,8,C8,0C,00,41,F0,5F,45,3B,
84371559,00224024,true,Rx,1,8,A4,A1,00,00,C5,FF,B8,00,
84372133,00A24026,true,Rx,1,8,0A,BF,30,80,00,00,00,00,
84372708,00C24000,true,Rx,1,8,40,00,80,00,C0,00,C0,00,
84373282,0162402A,true,Rx,1,8,00,0D,F2,04,80,00,80,00,
84378586,00C24000,true,Rx,1,8,40,00,80,00,C0,00,C0,00,
84379157,01C24006,true,Rx,1,8,88,00,B0,00,F0,1D,00,00,
84381844,0162402A,true,Rx,1,8,00,FD,02,04,80,00,80,00,
84385574,00224024,true,Rx,1,8,AC,A1,00,00,C5,FF,B8,00,
84386134,00A24026,true,Rx,1,8,4E,BF,30,80,00,00,00,00,
84386709,00C24000,true,Rx,1,8,40,00,80,00,C0,00,C0,00,
84387294,02220002,true,Rx,1,8,40,FE,F0,00,00,00,00,00,
84388804,01E2402C,true,Rx,1,8,4F,50,00,0E,C2,10,00,00,
84391838,0162402A,true,Rx,1,8,00,ED,12,04,80,00,80,00,
84392586,00C24000,true,Rx,1,8,40,00,80,00,C0,00,C0,00,
84393732,00E00024,true,Rx,1,8,C0,00,00,00,00,00,3F,A0,
84398419,02620028,true,Rx,1,8,08,0C,00,41,F0,5F,45,3B,
84399592,00224024,true,Rx,1,8,A4,A1,00,00,C5,FF,B8,00,
84400157,00A24026,true,Rx,1,8,8A,BF,30,80,00,00,00,00,
84400730,00C24000,true,Rx,1,8,40,00,80,00,C0,00,C0,00,
84401315,01C24006,true,Rx,1,8,CC,00,B0,00,F0,1E,00,00,
84401879,0162402A,true,Rx,1,8,00,DD,22,04,80,00,80,00,
84406594,00C24000,true,Rx,1,8,40,00,80,00,C0,00,C0,00,
84408587,01E2402C,true,Rx,1,8,8F,50,00,0E,C2,10,00,00,
84411831,0162402A,true,Rx,1,8,00,CD,32,04,80,00,80,00,
84413598,00224024,true,Rx,1,8,AC,A1,00,00,C5,FF,B8,00,
84414167,00A24026,true,Rx,1,8,CA,BF,30,80,00,00,00,00,
84414742,00C24000,true,Rx,1,8,40,00,80,00,C0,00,C0,00,
84420585,00C24000,true,Rx,1,8,40,00,80,00,C0,00,C0,00,
84421164,01C24006,true,Rx,1,8,0C,00,B0,00,F0,1F,00,00,
84421740,02220002,true,Rx,1,8,C0,FE,F0,00,00,00,00,00,
84422314,0162402A,true,Rx,1,8,00,BD,42,04,80,00,80,00,
84427592,00224024,true,Rx,1,8,A4,A1,00,00,C5,FF,B8,00,
84428172,00A24026,true,Rx,1,8,0A,BF,30,80,00,00,00,00,
84428748,00C24000,true,Rx,1,8,40,00,80,00,C0,00,C0,00,
84429312,01E2402C,true,Rx,1,8,CF,50,00,0E,C2,10,00,00,
84429877,02620028,true,Rx,1,8,42,0C,00,41,F0,5F,45,3B,
84431828,0162402A,true,Rx,1,8,00,AD,52,04,80,00,80,00,
84434652,00C24000,true,Rx,1,8,40,00,80,00,C0,00,C0,00,
84441588,00224024,true,Rx,1,8,AC,A1,00,00,C5,FF,B8,00,
84442158,00A24026,true,Rx,1,8,4E,BF,30,80,00,00,00,00,
84442732,00C24000,true,Rx,1,8,40,00,80,00,C0,00,C0,00,
84443296,0162402A,true,Rx,1,8,00,9D,62,04,80,00,80,00,
84443872,01C24006,true,Rx,1,8,4C,00,B0,00,F0,1D,00,00,
84448671,00C24000,true,Rx,1,8,40,00,80,00,C0,00,C0,00,
84449241,01E2402C,true,Rx,1,8,0F,50,00,0E,C2,10,00,00,
84451826,0162402A,true,Rx,1,8,00,8D,72,04,80,00,80,00,
84455637,00224024,true,Rx,1,8,A4,A1,00,00,C5,FF,B8,00,
84456208,00A24026,true,Rx,1,8,8A,BF,30,80,00,00,00,00,
84456783,00C24000,true,Rx,1,8,40,00,80,00,C0,00,C0,00,
84457367,02220002,true,Rx,1,8,40,FE,F0,00,00,00,00,00,
84458659,02620028,true,Rx,1,8,88,0C,00,41,F0,5F,45,3B,
84461837,0162402A,true,Rx,1,8,00,7D,82,04,80,00,80,00,
84462688,00C24000,true,Rx,1,8,40,00,80,00,C0,00,C0,00,
84463262,01C24006,true,Rx,1,8,88,00,B0,00,F0,1E,00,00,
84463848,03200002,true,Rx,1,8,E0,00,00,00,00,00,00,00,
84464433,03400002,true,Rx,1,8,00,00,02,00,00,00,00,00,
84469185,00E00024,true,Rx,1,8,00,00,00,00,00,00,3F,C0,
84469746,00224024,true,Rx,1,8,AC,A1,00,00,C5,FF,B8,00,
84470319,00A24026,true,Rx,1,8,CA,BF,30,80,00,00,00,00,
84470895,00C24000,true,Rx,1,8,40,00,80,00,C0,00,C0,00,
84471459,01E2402C,true,Rx,1,8,4F,50,00,0E,C2,10,00,00,
84472035,0162402A,true,Rx,1,8,00,6D,92,04,80,00,80,00,
84476656,00C24000,true,Rx,1,8,40,00,80,00,C0,00,C0,00,
84481827,0162402A,true,Rx,1,8,00,5D,A2,04,80,00,80,00,
84483623,00224024,true,Rx,1,8,A4,A1,00,00,C5,FF,B8,00,
84484192,00A24026,true,Rx,1,8,0A,BF,30,80,00,00,00,00,
84484768,00C24000,true,Rx,1,8,40,00,80,00,C0,00,C0,00,
84485353,01C24006,true,Rx,1,8,CC,00,B0,00,F0,1F,00,00,
84488658,01E2402C,true,Rx,1,8,8F,50,00,0E,C2,10,00,00,
84489218,02620028,true,Rx,1,8,C8,0C,00,41,F0,5F,45,3B,
84490645,00C24000,true,Rx,1,8,40,00,80,00,C0,00,C0,00,
84491238,02220002,true,Rx,1,8,40,FE,F0,00,00,00,00,00,
84491824,0162402A,true,Rx,1,8,00,4D,B2,04,80,00,80,00,
84497639,00224024,true,Rx,1,8,AC,A1,00,00,C5,FF,B8,00,
84498209,00A24026,true,Rx,1,8,4E,BF,30,80,00,00,00,00,
84498784,00C24000,true,Rx,1,8,40,00,80,00,C0,00,C0,00,
84501818,0162402A,true,Rx,1,8,00,3D,C2,04,80,00,80,00,
84504653,00C24000,true,Rx,1,8,40,00,80,00,C0,00,C0,00,
84505233,01C24006,true,Rx,1,8,0C,00,B0,00,F0,1D,00,00,
84508554,01E2402C,true,Rx,1,8,CF,50,00,0E,C2,10,00,00,
84511650,00224024,true,Rx,1,8,A4,A1,00,00,C5,FF,B8,00,
84512220,00A24026,true,Rx,1,8,8A,BF,30,80,00,00,00,00,
84512796,00C24000,true,Rx,1,8,40,00,80,00,C0,00,C0,00,
84513369,0162402A,true,Rx,1,8,00,2D,D2,04,80,00,80,00,
84518626,02620028,true,Rx,1,8,08,0C,00,41,F0,5F,45,3B,
84519206,00C24000,true,Rx,1,8,40,00,80,00,C0,00,C0,00,
84521821,0162402A,true,Rx,1,8,00,1D,E2,04,80,00,80,00,
84525644,00224024,true,Rx,1,8,AC,A1,00,00,C5,FF,B8,00,
84526214,00A24026,true,Rx,1,8,CA,BF,30,80,00,00,00,00,
84526790,00C24000,true,Rx,1,8,40,00,80,00,C0,00,C0,00,
84527354,01C24006,true,Rx,1,8,4C,00,B0,00,F0,1E,00,00,
84527939,02220002,true,Rx,1,8,C0,FE,F0,00,00,00,00,00,
84528701,01E2402C,true,Rx,1,8,0F,50,00,0E,C2,10,00,00,
84531828,0162402A,true,Rx,1,8,00,0D,F2,04,80,00,80,00,
84532649,00C24000,true,Rx,1,8,40,00,80,00,C0,00,C0,00,
84538592,00E00024,true,Rx,1,8,40,00,00,00,00,00,3F,E0,
84539641,00224024,true,Rx,1,8,A4,A1,00,00,C5,FF,B8,00,
84540215,00A24026,true,Rx,1,8,0A,BF,30,80,00,00,00,00,
84540788,00C24000,true,Rx,1,8,40,00,80,00,C0,00,C0,00,
84541830,0162402A,true,Rx,1,8,00,FD,02,04,80,00,80,00,
84546677,00C24000,true,Rx,1,8,40,00,80,00,C0,00,C0,00,
84547258,01C24006,true,Rx,1,8,88,00,B0,00,F0,1F,00,00,
84548549,01E2402C,true,Rx,1,8,4F,50,00,0E,C2,10,00,00,
84549111,02620028,true,Rx,1,8,40,0C,00,43,F0,5F,45,3B,
84551819,0162402A,true,Rx,1,8,00,ED,12,04,80,00,80,00,
84553719,00224024,true,Rx,1,8,AC,A1,00,00,C5,FF,B8,00,
84554293,00A24026,true,Rx,1,8,4E,BF,30,80,00,00,00,00,
84554866,00C24000,true,Rx,1,8,40,00,80,00,C0,00,C0,00,
84560738,00C24000,true,Rx,1,8,40,00,80,00,C0,00,C0,00,
84561329,02220002,true,Rx,1,8,40,FE,F0,00,00,00,00,00,
84561894,0162402A,true,Rx,1,8,00,DD,22,04,80,00,80,00,
84562478,03200002,true,Rx,1,8,F0,00,00,00,00,00,00,00,
84563064,03400002,true,Rx,1,8,00,00,03,00,00,00,00,00,
84563723,0242C07C,true,Rx,1,8,19,04,01,06,01,02,01,01,
84567670,00224024,true,Rx,1,8,A4,A1,00,00,C5,FF,B8,00,
84568241,00A24026,true,Rx,1,8,8A,BF,30,80,00,00,00,00,
84568816,00C24000,true,Rx,1,8,40,00,80,00,C0,00,C0,00,
84569379,01C24006,true,Rx,1,8,CC,00,B0,00,F0,1D,00,00,
84569944,01E2402C,true,Rx,1,8,8F,50,00,0E,C2,11,00,00,
84571824,0162402A,true,Rx,1,8,00,CD,32,04,80,00,80,00,
84574708,00C24000,true,Rx,1,8,40,00,80,00,C0,00,C0,00,
84578432,02620028,true,Rx,1,8,88,0C,00,41,F0,5F,45,3B,
84581656,00224024,true,Rx,1,8,AC,A1,00,00,C5,FF,B8,00,
84582227,00A24026,true,Rx,1,8,CA,BF,30,80,00,00,00,00,
84582802,00C24000,true,Rx,1,8,40,00,80,00,C0,00,C0,00,
84583366,0162402A,true,Rx,1,8,00,BD,42,04,80,00,80,00,
84588686,00C24000,true,Rx,1,8,40,00,80,00,C0,00,C0,00,
84589266,01C24006,true,Rx,1,8,0C,00,B0,00,F0,1E,00,00,
84589832,01E2402C,true,Rx,1,8,CF,50,00,0E,C2,10,00,00,
84591816,0162402A,true,Rx,1,8,00,AD,52,04,80,00,80,00,
84595679,00224024,true,Rx,1,8,A4,A1,00,00,C5,FF,B8,00,
84596259,00A24026,true,Rx,1,8,0A,BF,30,80,00,00,00,00,
84596835,00C24000,true,Rx,1,8,40,00,80,00,C0,00,C0,00,
84597419,02220002,true,Rx,1,8,40,FE,F0,00,00,00,00,00,
84601814,0162402A,true,Rx,1,8,00,9D,62,04,80,00,80,00,
84602675,00C24000,true,Rx,1,8,40,00,80,00,C0,00,C0,00,
84608566,00E00024,true,Rx,1,8,80,00,00,00,00,00,3F,00,
84609147,01E2402C,true,Rx,1,8,0F,50,00,0E,C2,10,00,00,
84609712,00224024,true,Rx,1,8,AC,A1,00,00,C5,FF,B8,00,
84610287,00A24026,true,Rx,1,8,4E,BF,30,80,00,00,00,00,
84610862,00C24000,true,Rx,1,8,40,00,80,00,C0,00,C0,00,
84611425,01C24006,true,Rx,1,8,4C,00,B0,00,F0,1E,00,00,
84611991,0162402A,true,Rx,1,8,00,8D,72,04,80,00,80,00,
84612556,02620028,true,Rx,1,8,C8,0C,00,41,F0,5F,45,3B,
84616722,00C24000,true,Rx,1,8,40,00,80,00,C0,00,C0,00,
84621832,0162402A,true,Rx,1,8,00,7D,82,04,80,00,80,00,
84623699,00224024,true,Rx,1,8,A4,A1,00,00,C5,FF,B8,00,
84624270,00A24026,true,Rx,1,8,8A,BF,30,80,00,00,00,00,
84624846,00C24000,true,Rx,1,8,40,00,80,00,C0,00,C0,00,
84628636,01E2402C,true,Rx,1,8,4F,50,00,2E,C2,10,00,00,
84630711,00C24000,true,Rx,1,8,40,00,80,00,C0,00,C0,00,
84631282,01C24006,true,Rx,1,8,88,00,B0,00,F0,1D,00,00,
84631847,0162402A,true,Rx,1,8,00,6D,92,04,80,00,80,00,
84632441,02220002,true,Rx,1,8,C0,FE,F0,00,00,00,00,00,
84637708,00224024,true,Rx,1,8,AC,A1,00,00,C5,FF,B8,00,
84638268,00A24026,true,Rx,1,8,CA,BF,30,80,00,00,00,00,
84638844,00C24000,true,Rx,1,8,40,00,80,00,C0,00,C0,00,
84639418,02620028,true,Rx,1,8,08,0C,00,C5,F0,5F,45,3B,
84641810,0162402A,true,Rx,1,8,00,5D,A2,04,80,00,80,00,
84644728,00C24000,true,Rx,1,8,40,00,80,00,C0,00,C0,00,
84648509,01E2402C,true,Rx,1,8,8F,50,00,0E,C2,10,00,00,
84651704,00224024,true,Rx,1,8,A4,A1,00,00,C5,FF,B8,00,
84652283,00A24026,true,Rx,1,8,0A,BF,30,80,00,00,00,00,
84652859,00C24000,true,Rx,1,8,40,00,80,00,C0,00,C0,00,
84653423,0162402A,true,Rx,1,8,00,4D,B2,04,80,00,80,00,
84653988,01C24006,true,Rx,1,8,CC,00,B0,00,F0,1B,00,00,
84658861,00C24000,true,Rx,1,8,40,00,80,00,C0,00,C0,00,
84659442,03200002,true,Rx,1,8,C0,00,00,00,00,00,00,00,
84660037,03400002,true,Rx,1,8,00,00,00,00,00,00,00,00,
84661814,0162402A,true,Rx,1,8,00,3D,C2,04,80,00,80,00,
84665740,00224024,true,Rx,1,8,AC,A1,00,00,C5,FF,B8,00,
84666310,00A24026,true,Rx,1,8,4E,BF,30,80,00,00,00,00,
84666884,00C24000,true,Rx,1,8,40,00,80,00,C0,00,C0,00,
84667469,02220002,true,Rx,1,8,40,FE,F0,00,00,00,00,00,
84668658,01E2402C,true,Rx,1,8,CF,50,00,0E,C2,10,00,00,
84669231,02620028,true,Rx,1,8,42,0C,00,41,F0,5F,45,3B,
84671808,0162402A,true,Rx,1,8,00,2D,D2,04,80,00,80,00,
84672753,00C24000,true,Rx,1,8,40,00,80,00,C0,00,C0,00,
84673327,01C24006,true,Rx,1,8,0C,00,B0,00,F0,1C,00,00,
84678601,00E00024,true,Rx,1,8,C0,00,00,00,00,00,3F,20,
84679711,00224024,true,Rx,1,8,A4,A1,00,00,C5,FF,B8,00,
