Time Stamp,ID,Extended,Dir,Bus,LEN,D1,D2,D3,D4,D5,D6,D7,D8
8492041,00E00024,true,Rx,1,8,60,00,00,00,00,00,3F,00,
8507056,01E2402C,true,Rx,1,8,60,50,00,0D,C2,10,00,00,
8507608,02620028,true,Rx,1,8,60,08,00,CC,F0,50,45,3B,
8521898,0242C07C,true,Rx,1,8,16,01,46,02,02,02,01,01,
8526995,01E2402C,true,Rx,1,8,80,50,00,0D,C2,10,00,00,
8536946,02620028,true,Rx,1,8,88,08,00,48,F0,50,45,3B,
8547139,01E2402C,true,Rx,1,8,C0,50,00,0D,C2,10,00,00,
8562007,00E00024,true,Rx,1,8,80,00,00,00,00,00,3F,20,
8566990,01E2402C,true,Rx,1,8,00,50,00,0D,C2,10,00,00,
8567551,02620028,true,Rx,1,8,C8,08,00,48,F0,50,45,3B,
8587124,01E2402C,true,Rx,1,8,40,50,00,0D,C2,10,00,00,
8596971,02620028,true,Rx,1,8,08,08,00,48,F0,50,45,3B,
8606998,01E2402C,true,Rx,1,8,80,50,00,0D,C2,10,00,00,
8627046,01E2402C,true,Rx,1,8,CF,50,00,0D,C2,10,00,00,
8627607,02620028,true,Rx,1,8,40,0C,00,48,F0,5F,45,3B,
8637062,00E00024,true,Rx,1,8,C0,00,00,00,00,00,3F,40,
8647128,01E2402C,true,Rx,1,8,0F,50,00,0D,C2,10,00,00,
8656944,02620028,true,Rx,1,8,88,0C,00,40,F0,5F,45,3B,
8667084,01E2402C,true,Rx,1,8,4F,50,00,0E,C2,10,00,00,
8686943,01E2402C,true,Rx,1,8,8F,50,00,0E,C2,11,00,00,
8687503,02620028,true,Rx,1,8,C8,0C,00,50,F0,5F,45,3B,
8707172,01E2402C,true,Rx,1,8,CF,50,00,0E,C2,10,00,00,
8717018,02620028,true,Rx,1,8,08,0C,00,40,F0,5F,45,3B,
8727096,01E2402C,true,Rx,1,8,0F,50,00,0E,C2,10,00,00,
8742093,00224024,true,Rx,1,8,AC,A1,00,00,C1,FF,98,00,
8742664,00A24026,true,Rx,1,8,6E,9F,00,80,00,00,00,00,
8743258,00C24000,true,Rx,1,8,40,00,80,00,40,00,40,00,
8743824,01C24006,true,Rx,1,8,6C,02,00,00,F0,00,00,00,
8744409,02220002,true,Rx,1,8,40,0E,C0,00,00,00,00,00,
8744995,03200002,true,Rx,1,8,40,00,00,00,00,00,00,00,
8745580,03400002,true,Rx,1,8,00,00,00,00,00,00,00,00,
8747888,01E2402C,true,Rx,1,8,4F,50,00,0E,C2,10,00,00,
8748448,02620028,true,Rx,1,8,42,0C,00,40,F0,5F,45,3B,
8749148,00C24000,true,Rx,1,8,40,00,80,00,40,00,40,00,
8756149,00224024,true,Rx,1,8,A4,A1,00,00,C1,FF,98,00,
8756711,00A24026,true,Rx,1,8,8A,9F,00,80,00,00,00,00,
8757295,00C24000,true,Rx,1,8,40,00,80,00,40,00,40,00,
8763150,00C24000,true,Rx,1,8,40,00,80,00,40,00,40,00,
8763732,01C24006,true,Rx,1,8,88,02,00,00,F0,00,00,00,
8767063,01E2402C,true,Rx,1,8,8F,50,00,0E,C2,10,00,00,
8770179,00224024,true,Rx,1,8,AC,A1,00,00,C1,FF,98,00,
8770752,00A24026,true,Rx,1,8,CA,9F,00,80,00,00,00,00,
8771336,00C24000,true,Rx,1,8,40,00,80,00,C0,00,C0,00,
8777236,00C24000,true,Rx,1,8,40,00,80,00,C0,00,C0,00,
8777806,02220002,true,Rx,1,8,C0,5E,C0,00,00,00,00,00,
8778370,02620028,true,Rx,1,8,88,0C,00,40,F0,5F,45,3B,
8778956,03200002,true,Rx,1,8,D0,00,00,00,00,00,00,00,
8779552,03400002,true,Rx,1,8,00,00,01,00,00,00,00,00,
8784140,00224024,true,Rx,1,8,A4,A1,00,00,C1,FF,98,00,
8784721,00A24026,true,Rx,1,8,0A,BF,00,80,00,00,00,00,
8785295,00C24000,true,Rx,1,8,40,00,80,00,C0,00,C0,00,
8785872,01C24006,true,Rx,1,8,CC,02,00,00,F0,00,00,00,
8787401,01E2402C,true,Rx,1,8,CF,50,00,0E,C2,10,00,00,
8791182,00C24000,true,Rx,1,8,40,00,80,00,C0,00,C0,00,
8798153,00224024,true,Rx,1,8,AC,A1,00,00,C1,FF,98,00,
8798725,00A24026,true,Rx,1,8,4E,BF,00,80,00,00,00,00,
8799298,00C24000,true,Rx,1,8,40,00,80,00,C0,00,C0,00,
8802082,0242C07C,true,Rx,1,8,01,0F,5E,73,FC,74,01,07,
8805167,00C24000,true,Rx,1,8,40,00,80,00,C0,00,C0,00,
8805749,01C24006,true,Rx,1,8,0C,02,00,00,F0,00,00,00,
8806997,01E2402C,true,Rx,1,8,0F,50,00,0E,C2,10,00,00,
8807560,02620028,true,Rx,1,8,C8,0C,00,40,F0,5F,45,3B,
8812160,00224024,true,Rx,1,8,A4,A1,00,00,C1,FF,98,00,
8812731,00A24026,true,Rx,1,8,8A,BF,00,80,00,00,00,00,
8813306,00C24000,true,Rx,1,8,40,00,80,00,C0,00,C0,00,
8813881,02220002,true,Rx,1,8,40,5E,C0,00,00,00,00,00,
8819377,00C24000,true,Rx,1,8,40,00,80,00,C0,00,C0,00,
8820759,0162402A,true,Rx,1,8,00,FD,02,04,80,00,80,00,
8826288,00224024,true,Rx,1,8,AC,A1,00,00,C1,FF,98,00,
8826860,00A24026,true,Rx,1,8,CA,BF,00,80,00,00,00,00,
8827434,00C24000,true,Rx,1,8,40,00,80,00,C0,00,C0,00,
8828010,01C24006,true,Rx,1,8,4C,02,00,00,F0,00,00,00,
8828585,01E2402C,true,Rx,1,8,4F,50,00,0E,C2,10,00,00,
8830744,0162402A,true,Rx,1,8,00,ED,12,04,80,00,80,00,
8833328,00C24000,true,Rx,1,8,40,00,80,00,C0,00,C0,00,
8836957,02620028,true,Rx,1,8,08,0C,00,43,F0,5F,45,3B,
8840297,00224024,true,Rx,1,8,A4,A1,00,00,C1,FF,98,00,
8840878,00A24026,true,Rx,1,8,0A,BF,00,80,00,00,00,00,
8841452,00C24000,true,Rx,1,8,40,00,80,00,C0,00,C0,00,
8842017,0162402A,true,Rx,1,8,00,DD,22,04,80,00,80,00,
8847199,01E2402C,true,Rx,1,8,8F,50,00,0E,C2,10,00,00,
8847770,00C24000,true,Rx,1,8,40,00,80,00,C0,00,C0,00,
8848344,01C24006,true,Rx,1,8,88,02,00,00,F0,00,00,00,
8848920,02220002,true,Rx,1,8,40,5E,C0,00,00,00,00,00,
8850740,0162402A,true,Rx,1,8,00,CD,32,04,80,00,80,00,
8854325,00224024,true,Rx,1,8,AC,A1,00,00,C1,FF,98,00,
8854896,00A24026,true,Rx,1,8,4E,BF,00,80,00,00,00,00,
8855469,00C24000,true,Rx,1,8,40,00,80,00,C0,00,C0,00,
8860738,0162402A,true,Rx,1,8,00,BD,42,04,80,00,80,00,
8861319,00C24000,true,Rx,1,8,40,00,80,00,C0,00,C0,00,
8867124,01E2402C,true,Rx,1,8,CF,50,00,0F,42,10,00,00,
8867694,02620028,true,Rx,1,8,40,0C,00,41,F0,5F,45,3B,
8868341,00224024,true,Rx,1,8,A4,A1,00,00,C1,FF,98,00,
8868907,00A24026,true,Rx,1,8,8A,BF,00,80,00,00,00,00,
8869492,00C24000,true,Rx,1,8,40,00,80,00,C0,00,C0,00,
8870068,01C24006,true,Rx,1,8,CC,02,00,00,F0,00,00,00,
8870736,0162402A,true,Rx,1,8,00,AD,52,04,80,00,80,00,
8875410,00C24000,true,Rx,1,8,40,00,80,00,C0,00,C0,00,
8875992,03200002,true,Rx,1,8,E0,00,00,00,00,00,00,00,
8876588,03400002,true,Rx,1,8,00,00,02,00,00,00,00,00,
8880738,0162402A,true,Rx,1,8,00,9D,62,04,80,00,80,00,
8882315,00224024,true,Rx,1,8,AC,A1,00,00,C1,FF,98,00,
8882887,00A24026,true,Rx,1,8,CA,BF,00,80,00,00,00,00,
8883472,00C24000,true,Rx,1,8,40,00,80,00,C0,00,C0,00,
8884048,02220002,true,Rx,1,8,C0,FE,C0,00,00,00,00,00,
8887527,01E2402C,true,Rx,1,8,0F,50,00,2F,C2,11,00,00,
8889323,00C24000,true,Rx,1,8,40,00,80,00,C0,00,C0,00,
8889904,01C24006,true,Rx,1,8,0C,02,00,00,F0,00,00,00,
8890738,0162402A,true,Rx,1,8,00,8D,72,04,80,00,80,00,
8896321,00224024,true,Rx,1,8,A4,A1,00,00,C1,FF,98,00,
8896902,00A24026,true,Rx,1,8,0A,BF,00,80,00,00,00,00,
8897477,00C24000,true,Rx,1,8,40,00,80,00,C0,00,C0,00,
8898042,02620028,true,Rx,1,8,88,0C,00,C5,F0,5F,45,3B,
8899282,0042401E,true,Rx,1,8,64,00,40,00,4C,00,80,00,
8899846,0062401E,true,Rx,1,8,60,00,5C,00,24,00,20,00,
8900439,01400002,true,Rx,1,8,60,00,A0,00,00,00,00,00,
8901015,0162402A,true,Rx,1,8,00,7D,82,04,80,00,80,00,
8901601,02000014,true,Rx,1,8,60,00,00,00,00,20,00,00,
8902174,02800006,true,Rx,1,8,61,2B,AA,0D,00,3C,00,00,
8903395,00C24000,true,Rx,1,8,40,00,80,00,C0,00,C0,00,
8907394,01E2402C,true,Rx,1,8,4F,50,00,0F,C2,10,00,00,
8909273,0042401E,true,Rx,1,8,87,BE,43,BE,4C,00,80,00,
8909844,0062401E,true,Rx,1,8,80,00,5C,00,34,00,60,00,
8910408,00224024,true,Rx,1,8,AC,A1,00,00,C1,FF,98,00,
8910983,00A24026,true,Rx,1,8,4E,BF,00,80,00,00,00,00,
8911559,00C24000,true,Rx,1,8,40,00,80,00,C0,00,C0,00,
8912132,0162402A,true,Rx,1,8,00,6D,92,04,80,00,80,00,
8912708,01C24006,true,Rx,1,8,4C,02,00,00,F0,00,00,00,
8917378,00C24000,true,Rx,1,8,40,00,80,00,C0,00,C0,00,
8917981,00E00024,true,Rx,1,8,00,00,00,00,00,00,3F,00,
8918557,02220002,true,Rx,1,8,40,FE,C0,00,00,00,00,00,
8919308,0042401E,true,Rx,1,8,C7,BE,43,BE,4C,00,80,00,
8919872,0062401E,true,Rx,1,8,C0,00,5C,00,34,00,60,00,
8920426,01400002,true,Rx,1,8,80,00,E6,CD,91,57,CD,0A,
8921001,0162402A,true,Rx,1,8,00,5D,A2,04,80,00,80,00,
8921588,02000014,true,Rx,1,8,80,00,00,00,00,20,00,00,
8924429,00224024,true,Rx,1,8,A4,A1,00,00,C1,FF,98,00,
8924995,00A24026,true,Rx,1,8,8A,BF,00,80,00,00,00,00,
8925568,00C24000,true,Rx,1,8,40,00,80,00,C0,00,C0,00,
8927190,01E2402C,true,Rx,1,8,8F,50,00,0F,C2,10,00,00,
8927754,02620028,true,Rx,1,8,C8,0C,00,41,F0,5F,45,3B,
8930743,0162402A,true,Rx,1,8,00,4D,B2,04,80,00,80,00,
8931306,0042401E,true,Rx,1,8,07,CA,43,CA,4C,00,80,00,
8931879,0062401E,true,Rx,1,8,00,00,5C,00,34,00,60,00,
8932454,00C24000,true,Rx,1,8,40,00,80,00,C0,00,C0,00,
8933028,01C24006,true,Rx,1,8,88,02,00,00,FF,E8,00,00,
8938440,00224024,true,Rx,1,8,AC,A1,00,00,C5,FF,98,00,
8939010,00A24026,true,Rx,1,8,CA,BF,00,80,00,00,00,00,
8939565,0042401E,true,Rx,1,8,47,CA,43,CA,4C,00,80,00,
8940140,0062401E,true,Rx,1,8,40,00,5C,00,74,00,60,00,
8940715,00C24000,true,Rx,1,8,40,00,80,00,C0,00,C0,00,
8941269,01400002,true,Rx,1,8,C0,00,A6,CD,91,57,CD,0A,
8941834,0162402A,true,Rx,1,8,00,3D,C2,04,80,00,80,00,
8942419,02000014,true,Rx,1,8,C0,00,00,00,00,20,00,00,
8945459,00C24000,true,Rx,1,8,40,00,80,00,C0,00,C0,00,
8947182,01E2402C,true,Rx,1,8,CF,50,00,0F,C2,10,A9,10,
8949206,0042401E,true,Rx,1,8,87,CA,40,96,4C,00,80,00,
8949777,0062401E,true,Rx,1,8,80,00,5C,00,74,00,60,00,
8950341,02800006,true,Rx,1,8,81,2B,BB,0D,00,4C,00,00,
8950907,0162402A,true,Rx,1,8,00,2D,D2,04,80,00,80,00,
8952468,00224024,true,Rx,1,8,A4,A1,00,00,C5,FF,98,00,
8953044,00A24026,true,Rx,1,8,0A,BF,00,80,00,00,00,00,
8953617,00C24000,true,Rx,1,8,40,00,80,00,C0,00,C0,00,
8954191,01C24006,true,Rx,1,8,CC,00,00,00,FF,E3,00,00,
8954777,02220002,true,Rx,1,8,40,FE,C0,00,00,00,00,00,
8957395,02620028,true,Rx,1,8,08,0C,00,41,F0,5F,45,3B,
8959265,0042401E,true,Rx,1,8,C7,CA,40,96,4C,00,80,00,
8959845,0062401E,true,Rx,1,8,C0,00,5C,00,74,00,60,00,
8960420,00C24000,true,Rx,1,8,40,00,80,00,C0,00,C0,00,
8960975,01400002,true,Rx,1,8,00,00,A6,CD,91,57,CD,0A,
8961550,0162402A,true,Rx,1,8,00,1D,E2,04,80,00,80,00,
8962147,02000014,true,Rx,1,8,00,00,00,00,00,20,00,00,
8966466,00224024,true,Rx,1,8,AC,A1,00,00,C5,FF,98,00,
8967037,00A24026,true,Rx,1,8,4E,BF,00,80,00,00,00,00,
8967613,00C24000,true,Rx,1,8,40,00,80,00,C0,00,C0,00,
8968176,01E2402C,true,Rx,1,8,0F,50,00,0F,C2,10,29,10,
8969177,0042401E,true,Rx,1,8,07,CA,40,96,4C,00,80,00,
8969751,0062401E,true,Rx,1,8,00,00,5C,00,74,00,60,00,
8970740,0162402A,true,Rx,1,8,00,0D,F2,04,80,00,80,00,
8973564,00C24000,true,Rx,1,8,40,00,80,00,C0,00,C0,00,
8974148,01C24006,true,Rx,1,8,0C,00,00,00,FF,EF,00,00,
8974722,03200002,true,Rx,1,8,FC,96,60,00,00,00,00,00,
8975307,03400002,true,Rx,1,8,00,00,03,10,00,00,00,00,
8979283,0042401E,true,Rx,1,8,47,CA,40,96,4C,00,80,00,
8979853,0062401E,true,Rx,1,8,40,00,5C,00,74,00,60,00,
8980397,01400002,true,Rx,1,8,42,00,A6,CD,91,57,CD,0A,
8980962,00224024,true,Rx,1,8,A4,A1,00,00,C5,FF,98,00,
8981526,00A24026,true,Rx,1,8,8A,BF,00,80,00,00,00,00,
8982101,00C24000,true,Rx,1,8,40,00,80,00,C0,00,C0,00,
8982687,0162402A,true,Rx,1,8,00,FD,02,04,80,00,80,00,
8983272,02000014,true,Rx,1,8,40,00,00,00,00,20,00,00,
8987249,01E2402C,true,Rx,1,8,4F,50,00,0F,C2,10,29,10,
8987821,00C24000,true,Rx,1,8,40,00,80,00,C0,00,C0,00,
8988405,02220002,true,Rx,1,8,C0,FE,C0,00,00,00,00,00,
8988980,02620028,true,Rx,1,8,40,0C,00,41,F0,5F,45,3B,
8989545,0042401E,true,Rx,1,8,87,CA,40,96,4C,00,80,00,
8990109,0062401E,true,Rx,1,8,80,00,5C,00,74,00,60,00,
8990737,0162402A,true,Rx,1,8,00,ED,12,04,80,00,80,00,
8992442,00E00024,true,Rx,1,8,40,00,00,00,00,00,3F,20,
8994497,00224024,true,Rx,1,8,AC,A1,00,00,C5,FF,98,00,
8995061,00A24026,true,Rx,1,8,CA,BF,00,80,00,00,00,00,
8995645,00C24000,true,Rx,1,8,40,00,80,00,C0,00,C0,00,
8996229,01C24006,true,Rx,1,8,4C,00,00,00,FF,FF,00,00,
8999272,0042401E,true,Rx,1,8,C7,CA,40,96,4C,00,80,00,
8999843,0062401E,true,Rx,1,8,C0,00,5C,00,74,00,60,00,
9000396,01400002,true,Rx,1,8,80,00,A6,CD,91,57,CD,0A,
9000961,0162402A,true,Rx,1,8,00,DD,22,04,80,00,80,00,
9001548,00C24000,true,Rx,1,8,40,00,80,00,C0,00,C0,00,
9002131,02000014,true,Rx,1,8,80,00,00,00,00,20,00,00,
9002697,02800006,true,Rx,1,8,C1,2B,BF,0D,00,4C,00,00,
9007398,01E2402C,true,Rx,1,8,8F,50,00,0F,C2,10,29,10,
9008468,00224024,true,Rx,1,8,A4,A1,00,00,C1,FF,98,00,
9009042,00A24026,true,Rx,1,8,0A,BF,00,80,00,00,00,00,
9009607,0042401E,true,Rx,1,8,07,CA,40,96,4C,00,80,00,
9010192,0062401E,true,Rx,1,8,00,00,5C,00,74,00,60,00,
9010768,00C24000,true,Rx,1,8,40,00,80,00,C0,00,C0,00,
9011341,0162402A,true,Rx,1,8,00,CD,32,04,80,00,80,00,
9015518,00C24000,true,Rx,1,8,40,00,80,00,C0,00,C0,00,
9016090,01C24006,true,Rx,1,8,88,00,00,00,F0,0C,00,00,
9016986,02620028,true,Rx,1,8,88,0C,00,41,F0,5F,45,3B,
9019261,0042401E,true,Rx,1,8,47,CA,40,96,4C,00,80,00,
9019832,0062401E,true,Rx,1,8,40,00,5C,00,74,00,60,00,
9020385,01400002,true,Rx,1,8,C0,00,A6,CD,91,57,CD,0A,
9020950,0162402A,true,Rx,1,8,00,BD,42,04,80,00,80,00,
9021546,02000014,true,Rx,1,8,C0,00,00,00,00,20,00,00,
9022506,00224024,true,Rx,1,8,AC,A1,00,00,C1,FF,98,00,
9023082,00A24026,true,Rx,1,8,4E,BF,00,80,00,00,00,00,
9023654,00C24000,true,Rx,1,8,40,00,80,00,C0,00,C0,00,
9024229,02220002,true,Rx,1,8,40,FE,C0,00,00,00,00,00,
9027543,01E2402C,true,Rx,1,8,CF,50,00,0F,C2,10,29,10,
9029203,0042401E,true,Rx,1,8,87,CA,40,96,4C,00,80,00,
9029773,0062401E,true,Rx,1,8,80,00,5C,00,74,00,60,00,
9030347,00C24000,true,Rx,1,8,40,00,80,00,C0,00,C0,00,
9030913,0162402A,true,Rx,1,8,00,AD,52,04,80,00,80,00,
9036509,00224024,true,Rx,1,8,A4,A1,00,00,C5,FF,98,00,
9037070,00A24026,true,Rx,1,8,8A,BF,00,80,00,00,00,00,
9037645,00C24000,true,Rx,1,8,40,00,80,00,C0,00,C0,00,
9038218,01C24006,true,Rx,1,8,CC,00,00,00,F0,15,00,00,
9039272,0042401E,true,Rx,1,8,C7,CA,40,96,4C,00,80,00,
9039847,0062401E,true,Rx,1,8,C0,00,5C,00,74,00,60,00,
9040400,01400002,true,Rx,1,8,00,00,A6,CD,91,57,CD,0A,
9040976,0162402A,true,Rx,1,8,00,9D,62,04,80,00,80,00,
9041572,02000014,true,Rx,1,8,00,00,00,00,00,20,00,00,
9043534,00C24000,true,Rx,1,8,40,00,80,00,C0,00,C0,00,
9046997,01E2402C,true,Rx,1,8,0F,50,00,0F,C2,10,29,10,
9047559,02620028,true,Rx,1,8,C8,0C,00,41,F0,5F,45,3B,
9049228,0042401E,true,Rx,1,8,07,CA,40,96,4C,00,80,00,
9049805,0062401E,true,Rx,1,8,00,00,5C,00,7C,00,60,00,
9050367,02800006,true,Rx,1,8,01,2B,BF,0D,00,4C,00,00,
9050934,00224024,true,Rx,1,8,AC,A1,00,00,C5,FF,98,00,
9051511,00A24026,true,Rx,1,8,CA,BF,00,80,00,00,00,00,
9052086,00C24000,true,Rx,1,8,40,00,80,00,C0,00,C0,00,
9052650,0162402A,true,Rx,1,8,00,8D,72,04,80,00,80,00,
9057504,00C24000,true,Rx,1,8,40,00,80,00,C0,00,C0,00,
9058085,01C24006,true,Rx,1,8,0C,00,00,00,F0,17,00,00,
9058661,02220002,true,Rx,1,8,40,FE,C0,00,00,00,00,00,
9059276,0042401E,true,Rx,1,8,47,CA,40,96,4C,00,80,00,
9059852,0062401E,true,Rx,1,8,40,00,5C,00,7C,00,60,00,
9060405,01400002,true,Rx,1,8,40,00,A6,CD,91,57,CD,0A,
9060980,0162402A,true,Rx,1,8,00,7D,82,04,80,00,80,00,
9061577,02000014,true,Rx,1,8,40,00,00,00,00,20,00,00,
9062462,00E00024,true,Rx,1,8,80,00,00,00,00,00,3F,40,
9064509,00224024,true,Rx,1,8,A4,A1,00,00,C5,FF,98,00,
9065083,00A24026,true,Rx,1,8,0A,BF,00,80,00,00,00,00,
9065657,00C24000,true,Rx,1,8,40,00,80,00,C0,00,C0,00,
9067403,01E2402C,true,Rx,1,8,4F,50,00,0F,C2,10,29,10,
9069213,0042401E,true,Rx,1,8,87,CA,40,96,4C,00,80,00,
9069784,0062401E,true,Rx,1,8,80,00,5C,00,7C,00,60,00,
9070733,0162402A,true,Rx,1,8,00,6D,92,04,80,00,80,00,
9071608,00C24000,true,Rx,1,8,40,00,80,00,C0,00,C0,00,
9072183,03200002,true,Rx,1,8,CC,96,60,00,00,00,00,00,
9072768,03400002,true,Rx,1,8,00,00,00,18,00,00,00,00,
9077541,02620028,true,Rx,1,8,08,0C,00,41,F0,5F,45,3B,
9078494,00224024,true,Rx,1,8,AC,A1,00,00,C5,FF,98,00,
9079080,00A24026,true,Rx,1,8,4E,BF,00,80,00,00,00,00,
9079632,0042401E,true,Rx,1,8,C7,CA,40,96,4C,00,80,00,
9080206,0062401E,true,Rx,1,8,C0,00,5C,00,7C,00,60,00,
9080782,00C24000,true,Rx,1,8,40,00,80,00,C0,00,C0,00,
9081336,01400002,true,Rx,1,8,80,00,A6,CD,91,57,CD,0A,
9081913,0162402A,true,Rx,1,8,00,5D,A2,04,80,00,80,00,
9082487,01C24006,true,Rx,1,8,4C,00,00,00,F0,1C,00,00,
9083073,02000014,true,Rx,1,8,80,00,00,00,00,20,00,00,
9085548,00C24000,true,Rx,1,8,40,00,80,00,C0,00,C0,00,
9087084,01E2402C,true,Rx,1,8,8F,50,00,0F,C2,11,29,10,
9087666,0242C07C,true,Rx,1,8,05,00,3F,9E,00,6A,07,A8,
9090727,0162402A,true,Rx,1,8,00,4D,B2,04,80,00,80,00,
9091292,0042401E,true,Rx,1,8,07,CA,40,96,4C,00,80,00,
9091875,0062401E,true,Rx,1,8,00,00,5C,00,7C,00,60,00,
9092574,00224024,true,Rx,1,8,A4,A1,00,00,C5,FF,98,00,
9093139,00A24026,true,Rx,1,8,8A,BF,00,80,00,00,00,00,
9093714,00C24000,true,Rx,1,8,40,00,80,00,C0,00,C0,00,
9094298,02220002,true,Rx,1,8,C0,FE,C0,00,00,00,00,00,
9099275,0042401E,true,Rx,1,8,47,CA,40,96,4C,00,80,00,
9099847,0062401E,true,Rx,1,8,40,00,5C,00,7C,00,60,00,
9100420,00C24000,true,Rx,1,8,40,00,80,00,C0,00,C0,00,
9100975,01400002,true,Rx,1,8,C0,00,A6,CD,91,57,CD,0A,
9101540,0162402A,true,Rx,1,8,00,3D,C2,04,80,00,80,00,
9102115,01C24006,true,Rx,1,8,88,00,00,00,F0,1D,00,00,
9102699,02000014,true,Rx,1,8,C0,00,00,00,00,20,00,00,
9103263,02800006,true,Rx,1,8,41,2B,BF,0D,00,4C,00,00,
9106524,00224024,true,Rx,1,8,AC,A1,00,00,C5,FF,98,00,
9107095,00A24026,true,Rx,1,8,CA,BF,00,80,00,00,00,00,
9107671,00C24000,true,Rx,1,8,40,00,80,00,C0,00,C0,00,
9108235,01E2402C,true,Rx,1,8,CF,50,00,0F,C2,10,29,10,
9108810,02620028,true,Rx,1,8,40,0C,00,41,F0,5F,45,3B,
9109374,0042401E,true,Rx,1,8,87,CA,40,96,4C,00,80,00,
9109939,0062401E,true,Rx,1,8,80,00,5C,00,7C,00,60,00,
9110722,0162402A,true,Rx,1,8,00,2D,D2,04,80,00,80,00,
9113566,00C24000,true,Rx,1,8,40,00,80,00,C0,00,C0,00,
9119270,0042401E,true,Rx,1,8,C7,CA,40,96,4C,00,80,00,
9119841,0062401E,true,Rx,1,8,C0,00,5C,00,7C,00,60,00,
9120394,01400002,true,Rx,1,8,00,00,A6,CD,91,57,CD,0A,
9120959,00224024,true,Rx,1,8,A4,A1,00,00,C5,FF,98,00,
9121534,00A24026,true,Rx,1,8,0A,BF,00,80,00,00,00,00,
9122120,00C24000,true,Rx,1,8,40,00,80,00,C0,00,C0,00,
9122684,0162402A,true,Rx,1,8,00,1D,E2,04,80,00,80,00,
9123258,01C24006,true,Rx,1,8,CC,00,00,00,F0,1E,00,00,
9123857,02000014,true,Rx,1,8,00,00,00,00,00,20,00,00,
9127292,01E2402C,true,Rx,1,8,0F,50,00,0F,C2,10,29,10,
9127873,00C24000,true,Rx,1,8,40,00,80,00,C0,00,C0,00,
9128448,02220002,true,Rx,1,8,40,FE,C0,00,00,00,00,00,
9129148,0042401E,true,Rx,1,8,07,CA,40,96,4C,00,80,00,
9129723,0062401E,true,Rx,1,8,00,00,5C,00,7C,00,60,00,
9130734,0162402A,true,Rx,1,8,00,0D,F2,04,80,00,80,00,
9132468,00E00024,true,Rx,1,8,C0,00,00,00,00,00,3F,60,
9134556,00224024,true,Rx,1,8,AC,A1,00,00,C5,FF,98,00,
9135130,00A24026,true,Rx,1,8,4E,BF,00,80,00,00,00,00,
9135702,00C24000,true,Rx,1,8,40,00,80,00,C0,00,C0,00,
9137242,02620028,true,Rx,1,8,88,0C,00,41,F0,5F,45,3B,
9139268,0042401E,true,Rx,1,8,47,CA,40,96,4C,00,80,00,
9139841,0062401E,true,Rx,1,8,40,00,5C,00,7C,00,60,00,
9140393,01400002,true,Rx,1,8,40,00,A6,CD,91,57,CD,0A,
9140969,0162402A,true,Rx,1,8,00,FD,02,04,80,00,80,00,
9141545,00C24000,true,Rx,1,8,40,00,80,00,C0,00,C0,00,
9142129,01C24006,true,Rx,1,8,0C,00,00,00,F0,1F,00,00,
9142726,02000014,true,Rx,1,8,40,00,00,00,00,20,00,00,
9147184,01E2402C,true,Rx,1,8,4F,50,00,0F,C2,10,29,10,
9148576,00224024,true,Rx,1,8,A4,A1,00,00,C5,FF,98,00,
9149140,00A24026,true,Rx,1,8,8A,BF,00,80,00,00,00,00,
9149704,0042401E,true,Rx,1,8,87,CA,40,96,4C,00,80,00,
9150277,0062401E,true,Rx,1,8,80,00,5C,00,7C,00,60,00,
9150853,00C24000,true,Rx,1,8,40,00,80,00,C0,00,C0,00,
9151427,0162402A,true,Rx,1,8,00,ED,12,04,80,00,80,00,
9151992,02800006,true,Rx,1,8,81,2B,BF,0D,00,4C,00,00,
9155569,00C24000,true,Rx,1,8,40,00,80,00,C0,00,C0,00,
9159265,0042401E,true,Rx,1,8,C7,CA,40,96,4C,00,80,00,
9159837,0062401E,true,Rx,1,8,C0,00,5C,00,7C,00,60,00,
9160391,01400002,true,Rx,1,8,80,00,A6,CD,91,57,CD,0A,
9160955,0162402A,true,Rx,1,8,00,DD,22,04,80,00,80,00,
9161551,02000014,true,Rx,1,8,80,00,00,00,00,20,00,00,
9162562,00224024,true,Rx,1,8,AC,A1,00,00,C5,FF,98,00,
9163136,00A24026,true,Rx,1,8,CA,BF,00,80,00,00,00,00,
9163712,00C24000,true,Rx,1,8,40,00,80,00,C0,00,C0,00,
9164286,01C24006,true,Rx,1,8,4C,00,00,00,F0,1D,00,00,
9164861,02220002,true,Rx,1,8,40,FE,C0,00,00,00,00,00,
9167388,01E2402C,true,Rx,1,8,8F,50,00,0F,C2,10,29,10,
9167948,02620028,true,Rx,1,8,C8,0C,00,41,F0,5F,45,3B,
9169208,0042401E,true,Rx,1,8,07,CA,40,96,4C,00,80,00,
9169782,0062401E,true,Rx,1,8,00,00,5C,00,7C,00,60,00,
9170366,00C24000,true,Rx,1,8,40,00,80,00,C0,00,C0,00,
9170931,0162402A,true,Rx,1,8,00,CD,32,04,80,00,80,00,
9171505,03200002,true,Rx,1,8,DC,96,60,00,00,00,00,00,
9172091,03400002,true,Rx,1,8,00,00,01,18,00,00,00,00,
9176562,00224024,true,Rx,1,8,A4,A1,00,00,C5,FF,B8,00,
9177141,00A24026,true,Rx,1,8,0A,BF,00,80,00,00,00,00,
9177717,00C24000,true,Rx,1,8,40,00,80,00,C0,00,C0,00,
9179264,0042401E,true,Rx,1,8,47,CA,40,96,4C,00,80,00,
9179830,0062401E,true,Rx,1,8,40,00,5C,00,7C,00,60,00,
9180384,01400002,true,Rx,1,8,C0,00,A6,CD,91,57,CD,0A,
9180958,0162402A,true,Rx,1,8,00,BD,42,04,80,00,80,00,
9181544,02000014,true,Rx,1,8,C0,00,00,00,00,20,00,00,
9183612,00C24000,true,Rx,1,8,40,00,80,00,C0,00,C0,00,
9184197,01C24006,true,Rx,1,8,88,00,00,00,F0,1F,00,00,
9187131,01E2402C,true,Rx,1,8,CF,50,00,0F,C2,10,29,10,
9189186,0042401E,true,Rx,1,8,87,CA,40,96,4C,00,80,00,
9189768,0062401E,true,Rx,1,8,80,00,5C,00,7C,00,60,00,
9190572,00224024,true,Rx,1,8,AC,A1,00,00,C5,FF,B8,00,
9191156,00A24026,true,Rx,1,8,4E,BF,00,80,00,00,00,00,
9191731,00C24000,true,Rx,1,8,40,00,80,00,C0,00,C0,00,
9192295,0162402A,true,Rx,1,8,00,AD,52,04,80,00,80,00,
9197182,02620028,true,Rx,1,8,08,0C,00,41,F0,5F,45,3B,
9197754,00C24000,true,Rx,1,8,40,00,80,00,C0,00,C0,00,
9198338,02220002,true,Rx,1,8,40,FE,C0,00,00,00,00,00,
9199264,0042401E,true,Rx,1,8,C7,CA,40,96,4C,00,80,00,
9199841,0062401E,true,Rx,1,8,C0,00,5C,00,7C,00,60,00,
9200394,01400002,true,Rx,1,8,00,00,A6,CD,91,57,CD,0A,
9200969,0162402A,true,Rx,1,8,00,9D,62,04,80,00,80,00,
9201568,02000014,true,Rx,1,8,00,00,00,00,00,20,00,00,
9202122,02800006,true,Rx,1,8,C1,2B,BF,0D,00,4C,00,00,
9202719,00E00024,true,Rx,1,8,00,00,00,00,00,00,3F,80,
9204612,00224024,true,Rx,1,8,A4,A1,00,00,C5,FF,B8,00,
9205186,00A24026,true,Rx,1,8,8A,BF,00,80,00,00,00,00,
9205760,00C24000,true,Rx,1,8,40,00,80,00,C0,00,C0,00,
9206343,01C24006,true,Rx,1,8,CC,00,00,00,F0,1F,00,00,
9207529,01E2402C,true,Rx,1,8,0F,50,00,0F,C2,10,29,10,
9209225,0042401E,true,Rx,1,8,07,CA,40,96,4C,00,80,00,
9209798,0062401E,true,Rx,1,8,00,00,5C,00,7C,00,60,00,
9210715,0162402A,true,Rx,1,8,00,8D,72,04,80,00,80,00,
9211620,00C24000,true,Rx,1,8,40,00,80,00,C0,00,C0,00,
9218537,00224024,true,Rx,1,8,AC,A1,00,00,C5,FF,B8,00,
9219108,00A24026,true,Rx,1,8,CA,BF,00,80,00,00,00,00,
9219674,0042401E,true,Rx,1,8,47,CA,40,96,4C,00,80,00,
9220247,0062401E,true,Rx,1,8,40,00,5C,00,7C,00,60,00,
9220823,00C24000,true,Rx,1,8,40,00,80,00,C0,00,C0,00,
9221366,01400002,true,Rx,1,8,40,00,A6,CD,91,57,CD,0A,
9221952,0162402A,true,Rx,1,8,00,7D,82,04,80,00,80,00,
9222537,02000014,true,Rx,1,8,40,00,00,00,00,20,00,00,
9225598,00C24000,true,Rx,1,8,40,00,80,00,C0,00,C0,00,
9226189,01C24006,true,Rx,1,8,0C,00,00,00,F0,1F,00,00,
9227148,01E2402C,true,Rx,1,8,4F,50,00,0F,C2,10,29,10,
9227711,02620028,true,Rx,1,8,40,0C,00,43,F0,5F,45,3B,
9229219,0042401E,true,Rx,1,8,87,CA,40,96,4C,00,80,00,
9229793,0062401E,true,Rx,1,8,80,00,5C,00,7C,00,60,00,
9230721,0162402A,true,Rx,1,8,00,6D,92,04,80,00,80,00,
9232612,00224024,true,Rx,1,8,A4,A1,00,00,C5,FF,B8,00,
9233185,00A24026,true,Rx,1,8,0A,BF,00,80,00,00,00,00,
9233760,00C24000,true,Rx,1,8,40,00,80,00,C0,00,C0,00,
9234345,02220002,true,Rx,1,8,C0,FE,C0,00,00,00,00,00,
9239268,0042401E,true,Rx,1,8,C7,CA,40,96,4C,00,80,00,
9239839,0062401E,true,Rx,1,8,C0,00,5C,00,7C,00,60,00,
9240414,00C24000,true,Rx,1,8,40,00,80,00,C0,00,C0,00,
9240967,01400002,true,Rx,1,8,80,00,A6,CD,91,57,CD,0A,
9241543,0162402A,true,Rx,1,8,00,5D,A2,04,80,00,80,00,
9242128,02000014,true,Rx,1,8,80,00,00,00,00,20,00,00,
9246603,00224024,true,Rx,1,8,AC,A1,00,00,C5,FF,B8,00,
9247183,00A24026,true,Rx,1,8,4E,BF,00,80,00,00,00,00,
9247758,00C24000,true,Rx,1,8,40,00,80,00,C0,00,C0,00,
9248332,01C24006,true,Rx,1,8,4C,00,00,00,F0,20,00,00,
9248898,01E2402C,true,Rx,1,8,8F,50,00,0F,C2,10,29,10,
9250714,0162402A,true,Rx,1,8,00,4D,B2,04,80,00,80,00,
9251288,0042401E,true,Rx,1,8,07,CA,40,96,4C,00,80,00,
9251864,0062401E,true,Rx,1,8,00,00,5C,00,7C,00,60,00,
9252427,02800006,true,Rx,1,8,01,2B,BF,0D,00,4C,00,00,
9253638,00C24000,true,Rx,1,8,40,00,80,00,C0,00,C0,00,
9257615,02620028,true,Rx,1,8,88,0C,00,C5,F0,5F,45,3B,
9259254,0042401E,true,Rx,1,8,47,CA,40,96,4C,00,80,00,
9259826,0062401E,true,Rx,1,8,40,00,5C,00,7C,00,60,00,
9260379,01400002,true,Rx,1,8,C0,00,A6,CD,91,57,CD,0A,
9260943,00224024,true,Rx,1,8,A4,A1,00,00,C5,FF,B8,00,
9261518,00A24026,true,Rx,1,8,8A,BF,00,80,00,00,00,00,
9262086,00C24000,true,Rx,1,8,40,00,80,00,C0,00,C0,00,
9262662,0162402A,true,Rx,1,8,00,3D,C2,04,80,00,80,00,
9263245,02000014,true,Rx,1,8,C0,00,00,00,00,20,00,00,
9267270,01E2402C,true,Rx,1,8,CF,50,00,2F,C2,10,29,10,
9267840,00C24000,true,Rx,1,8,40,00,80,00,C0,00,C0,00,
9268425,01C24006,true,Rx,1,8,88,00,00,00,F0,20,00,00,
9269001,02220002,true,Rx,1,8,40,FE,C0,00,00,00,00,00,
9269566,0042401E,true,Rx,1,8,87,CA,40,96,4C,00,80,00,
9270139,0062401E,true,Rx,1,8,80,00,5C,00,7C,00,60,00,
9270705,0162402A,true,Rx,1,8,00,2D,D2,04,80,00,80,00,
9271279,03200002,true,Rx,1,8,EC,96,60,00,00,00,00,00,
9271867,03400002,true,Rx,1,8,00,00,02,18,00,00,00,00,
9274649,00224024,true,Rx,1,8,AC,A1,00,00,C5,FF,B8,00,
9275223,00A24026,true,Rx,1,8,CA,BF,00,80,00,00,00,00,
9275797,00C24000,true,Rx,1,8,40,00,80,00,C0,00,C0,00,
9277998,00E00024,true,Rx,1,8,40,00,00,00,00,00,3F,A0,
9279257,0042401E,true,Rx,1,8,C7,CA,40,96,4C,00,80,00,
9279831,0062401E,true,Rx,1,8,C0,00,5C,00,7C,00,60,00,
9280395,01400002,true,Rx,1,8,00,00,A6,CD,91,57,CD,0A,
9280960,0162402A,true,Rx,1,8,00,1D,E2,04,80,00,80,00,
9281555,02000014,true,Rx,1,8,00,00,00,00,00,20,00,00,
9282130,00C24000,true,Rx,1,8,40,00,80,00,C0,00,C0,00,
9286980,01E2402C,true,Rx,1,8,0F,50,00,0F,C2,11,29,10,
9287551,02620028,true,Rx,1,8,C8,0C,00,41,F0,5F,45,3B,
9288613,00224024,true,Rx,1,8,A4,A1,00,00,C5,FF,B8,00,
9289186,0042401E,true,Rx,1,8,07,CA,40,96,4C,00,80,00,
9289761,0062401E,true,Rx,1,8,00,00,5C,00,7C,00,60,00,
9290336,00A24026,true,Rx,1,8,0A,BF,00,80,00,00,00,00,
9290910,00C24000,true,Rx,1,8,40,00,80,00,C0,00,C0,00,
9291498,0162402A,true,Rx,1,8,00,0D,F2,04,80,00,80,00,
9292073,01C24006,true,Rx,1,8,CC,00,00,00,F0,20,00,00,
9295696,00C24000,true,Rx,1,8,40,00,80,00,C0,00,C0,00,
9299266,0042401E,true,Rx,1,8,47,CA,40,96,4C,00,80,00,
9299838,0062401E,true,Rx,1,8,40,00,5C,00,7C,00,60,00,
9300381,01400002,true,Rx,1,8,40,00,A6,CD,91,57,CD,0A,
9300967,0162402A,true,Rx,1,8,00,FD,02,04,80,00,80,00,
9301552,02000014,true,Rx,1,8,40,00,00,00,00,20,00,00,
9302116,02800006,true,Rx,1,8,41,2B,BF,0D,00,4C,00,00,
9302681,00224024,true,Rx,1,8,AC,A1,00,00,C5,FF,B8,00,
9303266,00A24026,true,Rx,1,8,4E,BF,00,80,00,00,00,00,
9303843,00C24000,true,Rx,1,8,40,00,80,00,C0,00,C0,00,
9304417,02220002,true,Rx,1,8,40,FE,C0,00,00,00,00,00,
9307905,01E2402C,true,Rx,1,8,4F,50,00,0F,C2,10,29,10,
9309139,0042401E,true,Rx,1,8,87,CA,40,96,4C,00,80,00,
9309715,0062401E,true,Rx,1,8,80,00,5C,00,7C,00,60,00,
9310287,00C24000,true,Rx,1,8,40,00,80,00,C0,00,C0,00,
9310862,0162402A,true,Rx,1,8,00,ED,12,04,80,00,80,00,
9311436,01C24006,true,Rx,1,8,0C,00,00,00,F0,21,00,00,
9316660,00224024,true,Rx,1,8,A4,A1,00,00,C5,FF,B8,00,
9317230,00A24026,true,Rx,1,8,8A,BF,00,80,00,00,00,00,
9317805,00C24000,true,Rx,1,8,40,00,80,00,C0,00,C0,00,
9318379,02620028,true,Rx,1,8,00,0C,00,41,F0,5F,45,3B,
9319265,0042401E,true,Rx,1,8,C7,CA,40,96,4C,00,80,00,
9319831,0062401E,true,Rx,1,8,C0,00,5C,00,7C,00,60,00,
9320384,01400002,true,Rx,1,8,80,00,A6,CD,91,57,CD,0A,
9320960,0162402A,true,Rx,1,8,00,DD,22,04,80,00,80,00,
9321545,02000014,true,Rx,1,8,80,00,00,00,00,20,00,00,
9323674,00C24000,true,Rx,1,8,40,00,80,00,C0,00,C0,00,
9326987,01E2402C,true,Rx,1,8,8F,50,00,0F,C2,10,29,10,
9329190,0042401E,true,Rx,1,8,07,CA,40,96,4C,00,80,00,
9329762,0062401E,true,Rx,1,8,00,00,5C,00,7C,00,60,00,
9330658,00224024,true,Rx,1,8,AC,A1,00,00,C5,FF,B8,00,
9331241,00A24026,true,Rx,1,8,CA,BF,00,80,00,00,00,00,
9331807,00C24000,true,Rx,1,8,40,00,80,00,C0,00,C0,00,
9332380,0162402A,true,Rx,1,8,00,CD,32,04,80,00,80,00,
9332955,01C24006,true,Rx,1,8,4C,00,00,00,F0,1F,00,00,
9337646,00C24000,true,Rx,1,8,40,00,80,00,C0,00,C0,00,
9338227,02220002,true,Rx,1,8,C0,FE,C0,00,00,00,00,00,
9339258,0042401E,true,Rx,1,8,47,CA,40,96,4C,00,80,00,
9339833,0062401E,true,Rx,1,8,40,00,5C,00,7C,00,60,00,
9340386,01400002,true,Rx,1,8,C0,00,A6,CD,91,57,CD,0A,
9340952,0162402A,true,Rx,1,8,00,BD,42,04,80,00,80,00,
9341547,02000014,true,Rx,1,8,C0,00,00,00,00,20,00,00,
9344670,00224024,true,Rx,1,8,A4,A1,00,00,C5,FF,B8,00,
9345241,00A24026,true,Rx,1,8,0A,BF,00,80,00,00,00,00,
9345816,00C24000,true,Rx,1,8,40,00,80,00,C0,00,C0,00,
9347354,00E00024,true,Rx,1,8,80,00,00,00,00,00,3F,C0,
9347919,01E2402C,true,Rx,1,8,CF,50,00,0F,C2,10,29,10,
9348482,02620028,true,Rx,1,8,48,0C,00,41,F0,5F,45,3B,
9349192,0042401E,true,Rx,1,8,87,CA,40,96,4C,00,80,00,
9349758,0062401E,true,Rx,1,8,80,00,5C,00,7C,00,60,00,
9350322,02800006,true,Rx,1,8,81,2B,BF,0D,00,4C,00,00,
9350898,0162402A,true,Rx,1,8,00,AD,52,04,80,00,80,00,
9351701,00C24000,true,Rx,1,8,40,00,80,00,C0,00,C0,00,
9352274,01C24006,true,Rx,1,8,88,00,00,00,F0,20,00,00,
9358645,00224024,true,Rx,1,8,AC,A1,00,00,C5,FF,B8,00,
9359224,00A24026,true,Rx,1,8,4E,BF,00,80,00,00,00,00,
9359779,0042401E,true,Rx,1,8,C7,CA,40,96,4C,00,80,00,
9360354,0062401E,true,Rx,1,8,C0,00,5C,00,7C,00,60,00,
9360930,00C24000,true,Rx,1,8,40,00,80,00,C0,00,C0,00,
9361492,01400002,true,Rx,1,8,00,00,A6,CD,91,57,CD,0A,
9362058,0162402A,true,Rx,1,8,00,9D,62,04,80,00,80,00,
9362654,02000014,true,Rx,1,8,00,00,00,00,00,20,00,00,
9363220,0242C07C,true,Rx,1,8,12,04,02,02,02,02,05,01,
9365773,00C24000,true,Rx,1,8,40,00,80,00,C0,00,C0,00,
9366348,03200002,true,Rx,1,8,FC,96,60,00,00,00,00,00,
9366931,03400002,true,Rx,1,8,00,00,03,18,00,00,00,00,
9367651,01E2402C,true,Rx,1,8,0F,50,00,0F,C2,10,29,10,
9369220,0042401E,true,Rx,1,8,07,CA,40,96,4C,00,80,00,
9369796,0062401E,true,Rx,1,8,00,00,5C,00,7C,00,60,00,
9370682,0162402A,true,Rx,1,8,00,8D,72,04,80,00,80,00,
9372669,00224024,true,Rx,1,8,A4,A1,00,00,C5,FF,B8,00,
9373240,00A24026,true,Rx,1,8,8A,BF,00,80,00,00,00,00,
9373814,00C24000,true,Rx,1,8,40,00,80,00,C0,00,C0,00,
9374399,01C24006,true,Rx,1,8,CC,00,00,00,F0,20,00,00,
9374975,02220002,true,Rx,1,8,40,FE,C0,00,00,00,00,00,
9377361,02620028,true,Rx,1,8,88,0C,00,41,F0,5F,45,3B,
9379261,0042401E,true,Rx,1,8,47,CA,40,96,4C,00,80,00,
9379825,0062401E,true,Rx,1,8,40,00,5C,00,7C,00,60,00,
9380400,00C24000,true,Rx,1,8,40,00,80,00,C0,00,C0,00,
9380955,01400002,true,Rx,1,8,40,00,A6,CD,91,57,CD,0A,
9381540,0162402A,true,Rx,1,8,00,7D,82,04,80,00,80,00,
9382125,02000014,true,Rx,1,8,40,00,00,00,00,20,00,00,
9386681,00224024,true,Rx,1,8,AC,A1,00,00,C5,FF,B8,00,
9387251,00A24026,true,Rx,1,8,CA,BF,00,80,00,00,00,00,
9387827,00C24000,true,Rx,1,8,40,00,80,00,C0,00,C0,00,
9388400,01E2402C,true,Rx,1,8,4F,50,00,0F,C2,10,29,10,
9389214,0042401E,true,Rx,1,8,87,CA,40,96,4C,00,80,00,
9389789,0062401E,true,Rx,1,8,80,00,5C,00,7C,00,60,00,
9390686,0162402A,true,Rx,1,8,00,6D,92,04,80,00,80,00,
9393703,00C24000,true,Rx,1,8,40,00,80,00,C0,00,C0,00,
9394284,01C24006,true,Rx,1,8,0C,00,00,00,F0,20,00,00,
9399256,0042401E,true,Rx,1,8,C7,CA,40,96,4C,00,80,00,
9399837,0062401E,true,Rx,1,8,C0,00,5C,00,7C,00,60,00,
9400390,01400002,true,Rx,1,8,80,00,A6,CD,91,57,CD,0A,
9400956,00224024,true,Rx,1,8,A4,A1,00,00,C5,FF,B8,00,
9401530,00A24026,true,Rx,1,8,0A,BF,00,80,00,00,00,00,
9402105,00C24000,true,Rx,1,8,40,00,80,00,C0,00,C0,00,
9402680,0162402A,true,Rx,1,8,00,5D,A2,04,80,00,80,00,
9403265,02000014,true,Rx,1,8,80,00,00,00,00,20,00,00,
9403833,02800006,true,Rx,1,8,C1,2B,BF,0D,00,4C,00,00,
9407413,01E2402C,true,Rx,1,8,8F,50,00,0F,C2,10,29,10,
9407985,00C24000,true,Rx,1,8,40,00,80,00,C0,00,C0,00,
9408561,02220002,true,Rx,1,8,40,FE,C0,00,00,00,00,00,
9409124,02620028,true,Rx,1,8,C8,0C,00,41,F0,5F,45,3B,
9410686,0162402A,true,Rx,1,8,00,4D,B2,04,80,00,80,00,
9411250,0042401E,true,Rx,1,8,07,CA,40,96,4C,00,80,00,
9411824,0062401E,true,Rx,1,8,00,00,5C,00,7C,00,60,00,
9414709,00224024,true,Rx,1,8,AC,A1,00,00,C5,FF,B8,00,
9415283,00A24026,true,Rx,1,8,4E,BF,00,80,00,00,00,00,
9415856,00C24000,true,Rx,1,8,40,00,80,00,C0,00,C0,00,
9416431,01C24006,true,Rx,1,8,4C,00,00,00,F0,23,00,00,
9417617,00E00024,true,Rx,1,8,C0,00,00,00,00,00,3F,E0,
9419261,0042401E,true,Rx,1,8,47,CA,40,96,4C,00,80,00,
9419824,0062401E,true,Rx,1,8,40,00,5C,00,7C,00,60,00,
9420378,01400002,true,Rx,1,8,C0,00,A6,CD,91,57,CD,0A,
9420954,0162402A,true,Rx,1,8,00,3D,C2,04,80,00,80,00,
9421540,02000014,true,Rx,1,8,C0,00,00,00,00,20,00,00,
9422116,00C24000,true,Rx,1,8,40,00,80,00,C0,00,C0,00,
9427119,01E2402C,true,Rx,1,8,CF,50,00,0F,C2,10,29,10,
9428697,00224024,true,Rx,1,8,A4,A1,00,00,C5,FF,B8,00,
9429257,0042401E,true,Rx,1,8,87,CA,40,96,4C,00,80,00,
9429832,0062401E,true,Rx,1,8,80,00,5C,00,7C,00,60,00,
9430396,00A24026,true,Rx,1,8,8A,BF,00,80,00,00,00,00,
9430972,00C24000,true,Rx,1,8,40,00,80,00,C0,00,C0,00,
9431550,0162402A,true,Rx,1,8,00,2D,D2,04,80,00,80,00,
9435718,00C24000,true,Rx,1,8,40,00,80,00,C0,00,C0,00,
9436299,01C24006,true,Rx,1,8,88,00,00,00,F0,24,00,00,
9436988,02620028,true,Rx,1,8,08,0C,00,41,F0,5F,45,3B,
9439263,0042401E,true,Rx,1,8,C7,CA,40,96,4C,00,80,00,
9439833,0062401E,true,Rx,1,8,C0,00,5C,00,7C,00,60,00,
9440397,01400002,true,Rx,1,8,00,00,A6,CD,91,57,CD,0A,
9440973,0162402A,true,Rx,1,8,00,1D,E2,04,80,00,80,00,
9441560,02000014,true,Rx,1,8,00,00,00,00,00,20,00,00,
9442707,00224024,true,Rx,1,8,AC,A1,00,00,C5,FF,B8,00,
9443282,00A24026,true,Rx,1,8,CA,BF,00,80,00,00,00,00,
9443856,00C24000,true,Rx,1,8,40,00,80,00,C0,00,C0,00,
9444439,02220002,true,Rx,1,8,C0,FE,C0,00,00,00,00,00,
9447420,01E2402C,true,Rx,1,8,0F,50,00,0F,C2,10,29,10,
9449144,0042401E,true,Rx,1,8,07,CA,40,96,4C,00,80,00,
9449718,0062401E,true,Rx,1,8,00,00,5C,00,7C,00,60,00,
9450301,00C24000,true,Rx,1,8,40,00,80,00,C0,00,C0,00,
9450877,0162402A,true,Rx,1,8,00,0D,F2,04,80,00,80,00,
9451453,02800006,true,Rx,1,8,01,2B,BF,0D,00,4C,00,00,
9456707,00224024,true,Rx,1,8,A4,A1,00,00,C5,FF,B8,00,
9457287,00A24026,true,Rx,1,8,0A,BF,00,80,00,00,00,00,
9457863,00C24000,true,Rx,1,8,40,00,80,00,C0,00,C0,00,
9458438,01C24006,true,Rx,1,8,CC,00,00,00,F0,1F,00,00,
9459252,0042401E,true,Rx,1,8,47,CA,40,96,4C,00,80,00,
9459826,0062401E,true,Rx,1,8,40,00,5C,00,7C,00,60,00,
9460380,01400002,true,Rx,1,8,40,00,A6,CD,91,57,CD,0A,
9460956,0162402A,true,Rx,1,8,00,FD,02,04,80,00,80,00,
9461542,02000014,true,Rx,1,8,40,00,00,00,00,20,00,00,
9463816,00C24000,true,Rx,1,8,40,00,80,00,C0,00,C0,00,
9464399,03200002,true,Rx,1,8,CC,96,60,00,00,00,00,00,
9464984,03400002,true,Rx,1,8,00,00,00,18,00,00,00,00,
9467704,01E2402C,true,Rx,1,8,4F,50,00,0F,C2,10,29,10,
9468277,02620028,true,Rx,1,8,40,0C,00,41,F0,5F,45,3B,
9469132,0042401E,true,Rx,1,8,87,CA,40,96,4C,00,80,00,
9469706,0062401E,true,Rx,1,8,80,00,5C,00,7C,00,60,00,
9470687,0162402A,true,Rx,1,8,00,ED,12,04,80,00,80,00,
9471250,00224024,true,Rx,1,8,AC,A1,00,00,C5,FF,B8,00,
9471825,00A24026,true,Rx,1,8,4E,BF,00,80,00,00,00,00,
9472400,00C24000,true,Rx,1,8,40,00,80,00,C0,00,C0,00,
9477708,00C24000,true,Rx,1,8,40,00,80,00,C0,00,C0,00,
9478288,01C24006,true,Rx,1,8,0C,00,00,00,F0,23,00,00,
9478863,02220002,true,Rx,1,8,40,FE,C0,00,00,00,00,00,
9479427,0042401E,true,Rx,1,8,C7,CA,40,96,4C,00,80,00,
9480003,0062401E,true,Rx,1,8,C0,00,5C,00,7C,00,60,00,
9480557,01400002,true,Rx,1,8,80,00,A6,CD,91,57,CD,0A,
9481121,0162402A,true,Rx,1,8,00,DD,22,04,80,00,80,00,
9481707,02000014,true,Rx,1,8,80,00,00,00,00,20,00,00,
9484728,00224024,true,Rx,1,8,A4,A1,00,00,C5,FF,B8,00,
9485298,00A24026,true,Rx,1,8,8A,BF,00,80,00,00,00,00,
9485873,00C24000,true,Rx,1,8,40,00,80,00,C0,00,C0,00,
9487420,00E00024,true,Rx,1,8,00,00,00,00,00,00,3F,00,
9487986,01E2402C,true,Rx,1,8,8F,50,00,0F,C2,11,29,10,
9489181,0042401E,true,Rx,1,8,07,CA,40,96,4C,00,80,00,
9489756,0062401E,true,Rx,1,8,00,00,5C,00,7C,00,60,00,
9490685,0162402A,true,Rx,1,8,00,CD,32,04,80,00,80,00,
9491778,00C24000,true,Rx,1,8,40,00,80,00,C0,00,C0,00,
9497009,02620028,true,Rx,1,8,88,0C,00,41,F0,5F,45,3B,
9498700,00224024,true,Rx,1,8,AC,A1,00,00,C5,FF,B8,00,
9499271,00A24026,true,Rx,1,8,CA,BF,00,80,00,00,00,00,
9499824,0042401E,true,Rx,1,8,47,CA,40,96,4C,00,80,00,
9500399,0062401E,true,Rx,1,8,40,00,5C,00,7C,00,60,00,
9500975,00C24000,true,Rx,1,8,40,00,80,00,C0,00,C0,00,
9501531,01400002,true,Rx,1,8,C0,00,A6,CD,91,57,CD,0A,
9502095,0162402A,true,Rx,1,8,00,BD,42,04,80,00,80,00,
9502671,01C24006,true,Rx,1,8,4C,00,00,00,F0,21,00,00,
9503256,02000014,true,Rx,1,8,C0,00,00,00,00,20,00,00,
9503821,02800006,true,Rx,1,8,41,2B,BF,0D,00,4C,00,00,
9505784,00C24000,true,Rx,1,8,40,00,80,00,C0,00,C0,00,
9507464,01E2402C,true,Rx,1,8,CF,50,00,0F,C2,10,29,10,
9509178,0042401E,true,Rx,1,8,87,CA,40,96,4C,00,80,00,
9509752,0062401E,true,Rx,1,8,80,00,5C,00,7C,00,60,00,
9510681,0162402A,true,Rx,1,8,00,AD,52,04,80,00,80,00,
9512770,00224024,true,Rx,1,8,A4,A1,00,00,C5,FF,B8,00,
9513341,00A24026,true,Rx,1,8,0A,BF,00,80,00,00,00,00,
9513916,00C24000,true,Rx,1,8,40,00,80,00,C0,00,C0,00,
9514501,02220002,true,Rx,1,8,40,FE,C0,00,00,00,00,00,
9519268,0042401E,true,Rx,1,8,C7,CA,40,96,4C,00,80,00,
9519840,0062401E,true,Rx,1,8,C0,00,5C,00,7C,00,60,00,
9520413,00C24000,true,Rx,1,8,40,00,80,00,C0,00,C0,00,
9520968,01400002,true,Rx,1,8,00,00,A6,CD,91,57,CD,0A,
9521544,0162402A,true,Rx,1,8,00,9D,62,04,80,00,80,00,
9522119,01C24006,true,Rx,1,8,88,00,00,00,F0,1E,00,00,
9522714,02000014,true,Rx,1,8,00,00,00,00,00,20,00,00,
9526755,00224024,true,Rx,1,8,AC,A1,00,00,C5,FF,B8,00,
9527335,00A24026,true,Rx,1,8,4E,BF,00,80,00,00,00,00,
9527910,00C24000,true,Rx,1,8,40,00,80,00,C0,00,C0,00,
9528474,01E2402C,true,Rx,1,8,0F,50,00,0F,C2,10,29,10,
9529040,02620028,true,Rx,1,8,C8,0C,00,41,F0,5F,45,3B,
9529604,0042401E,true,Rx,1,8,07,CA,40,96,4C,00,80,00,
9530178,0062401E,true,Rx,1,8,00,00,5C,00,7C,00,60,00,
9530754,0162402A,true,Rx,1,8,00,8D,72,04,80,00,80,00,
9533784,00C24000,true,Rx,1,8,40,00,80,00,C0,00,C0,00,
9539249,0042401E,true,Rx,1,8,47,CA,40,96,4C,00,80,00,
9539821,0062401E,true,Rx,1,8,40,00,5C,00,7C,00,60,00,
9540374,01400002,true,Rx,1,8,40,00,A6,CD,91,57,CD,0A,
9540939,00224024,true,Rx,1,8,A4,A1,00,00,C5,FF,B8,00,
9541503,00A24026,true,Rx,1,8,8A,BF,00,80,00,00,00,00,
9542089,00C24000,true,Rx,1,8,40,00,80,00,C0,00,C0,00,
9542663,0162402A,true,Rx,1,8,00,7D,82,04,80,00,80,00,
9543238,01C24006,true,Rx,1,8,CC,00,00,00,F0,1C,00,00,
9543826,02000014,true,Rx,1,8,40,00,00,00,00,20,00,00,
9547460,01E2402C,true,Rx,1,8,4F,50,00,0F,C2,30,29,10,
9548031,00C24000,true,Rx,1,8,40,00,80,00,C0,00,C0,00,
9548617,02220002,true,Rx,1,8,C0,FE,C0,00,00,00,00,00,
9549212,0042401E,true,Rx,1,8,87,CA,40,96,4C,00,80,00,
9549779,0062401E,true,Rx,1,8,80,00,5C,00,7C,00,60,00,
9550341,02800006,true,Rx,1,8,81,2B,BF,0D,00,4C,00,00,
9550917,0162402A,true,Rx,1,8,00,6D,92,04,80,00,80,00,
9554789,00224024,true,Rx,1,8,AC,A1,00,00,C5,FF,B8,00,
9555360,00A24026,true,Rx,1,8,CA,BF,00,80,00,00,00,00,
9555935,00C24000,true,Rx,1,8,40,00,80,00,C0,00,C0,00,
9557295,00E00024,true,Rx,1,8,40,00,00,00,00,00,3F,20,
9557871,02620028,true,Rx,1,8,00,0C,00,41,F0,5F,45,3B,
9559264,0042401E,true,Rx,1,8,C7,CA,40,96,4C,00,80,00,
9559839,0062401E,true,Rx,1,8,C0,00,5C,00,7C,00,60,00,
9560392,01400002,true,Rx,1,8,80,00,A6,CD,91,57,CD,0A,
9560967,0162402A,true,Rx,1,8,00,5D,A2,04,80,00,80,00,
9561553,02000014,true,Rx,1,8,80,00,00,00,00,20,00,00,
9562128,00C24000,true,Rx,1,8,40,00,80,00,C0,00,C0,00,
9562712,01C24006,true,Rx,1,8,0C,00,00,00,F0,1C,00,00,
9563279,03200002,true,Rx,1,8,DC,96,60,00,00,00,00,00,
9563865,03400002,true,Rx,1,8,00,00,01,18,00,00,00,00,
9567635,01E2402C,true,Rx,1,8,8F,50,00,0F,C2,10,29,10,
9568756,00224024,true,Rx,1,8,A4,A1,00,00,C5,FF,B8,00,
9569331,00A24026,true,Rx,1,8,0A,BF,00,80,00,00,00,00,
9569905,00C24000,true,Rx,1,8,40,00,80,00,C0,00,C0,00,
9570677,0162402A,true,Rx,1,8,00,4D,B2,04,80,00,80,00,
9571240,0042401E,true,Rx,1,8,07,CA,40,96,4C,00,80,00,
9571816,0062401E,true,Rx,1,8,00,00,5C,00,7C,00,60,00,
9575812,00C24000,true,Rx,1,8,40,00,80,00,C0,00,C0,00,
9579247,0042401E,true,Rx,1,8,47,CA,40,96,4C,00,80,00,
9579818,0062401E,true,Rx,1,8,40,00,5C,00,7C,00,60,00,
9580371,01400002,true,Rx,1,8,C0,00,A6,CD,91,57,CD,0A,
9580947,0162402A,true,Rx,1,8,00,3D,C2,04,80,00,80,00,
9581532,02000014,true,Rx,1,8,C0,00,00,00,00,20,00,00,
9582783,00224024,true,Rx,1,8,AC,A1,00,00,C5,FF,B8,00,
9583354,00A24026,true,Rx,1,8,4E,BF,00,80,00,00,00,00,
9583929,00C24000,true,Rx,1,8,40,00,80,00,C0,00,C0,00,
9584514,01C24006,true,Rx,1,8,4C,00,00,00,F0,1F,00,00,
9585089,02220002,true,Rx,1,8,40,FE,C0,00,00,00,00,00,
9587495,01E2402C,true,Rx,1,8,CF,50,00,0F,C2,10,29,10,
9588065,02620028,true,Rx,1,8,48,0C,00,41,F0,5F,45,3B,
9589180,0042401E,true,Rx,1,8,87,CA,40,96,4C,00,80,00,
9589754,0062401E,true,Rx,1,8,80,00,5C,00,7C,00,60,00,
9590327,00C24000,true,Rx,1,8,40,00,80,00,C0,00,C0,00,
9590903,0162402A,true,Rx,1,8,00,2D,D2,04,80,00,80,00,
9596755,00224024,true,Rx,1,8,A4,A1,00,00,C5,FF,B8,00,
9597324,00A24026,true,Rx,1,8,8A,BF,00,80,00,00,00,00,
9597900,00C24000,true,Rx,1,8,40,00,80,00,C0,00,C0,00,
9599251,0042401E,true,Rx,1,8,C7,CA,40,96,4C,00,80,00,
9599827,0062401E,true,Rx,1,8,C0,00,5C,00,7C,00,60,00,
9600379,01400002,true,Rx,1,8,00,00,A6,CD,91,57,CD,0A,
9600955,0162402A,true,Rx,1,8,00,1D,E2,04,80,00,80,00,
9601551,02000014,true,Rx,1,8,00,00,00,00,00,20,00,00,
9602115,02800006,true,Rx,1,8,C1,2B,BF,0D,00,4C,00,00,
9603791,00C24000,true,Rx,1,8,40,00,80,00,C0,00,C0,00,
9604365,01C24006,true,Rx,1,8,88,00,00,00,F0,20,00,00,
9607437,01E2402C,true,Rx,1,8,0F,50,00,0F,C2,10,29,10,
9609149,0042401E,true,Rx,1,8,07,CA,40,96,4C,00,80,00,
9609722,0062401E,true,Rx,1,8,00,00,5C,00,7C,00,60,00,
9610680,0162402A,true,Rx,1,8,00,0D,F2,04,80,00,80,00,
9611255,00224024,true,Rx,1,8,AC,A1,00,00,C5,FF,B8,00,
9611819,00A24026,true,Rx,1,8,CA,BF,00,80,00,00,00,00,
9612393,00C24000,true,Rx,1,8,40,00,80,00,C0,00,C0,00,
9617130,02620028,true,Rx,1,8,88,0C,00,41,F0,5F,45,3B,
9617774,00C24000,true,Rx,1,8,40,00,80,00,C0,00,C0,00,
9618359,02220002,true,Rx,1,8,40,FE,C0,00,00,00,00,00,
9619253,0042401E,true,Rx,1,8,47,CA,40,96,4C,00,80,00,
9619829,0062401E,true,Rx,1,8,40,00,5C,00,7C,00,60,00,
9620381,01400002,true,Rx,1,8,40,00,A6,CD,91,57,CD,0A,
9620957,0162402A,true,Rx,1,8,00,FD,02,04,80,00,80,00,
9621546,02000014,true,Rx,1,8,40,00,00,00,00,20,00,00,
9624773,00224024,true,Rx,1,8,A4,A1,00,00,C5,FF,B8,00,
9625343,00A24026,true,Rx,1,8,0A,BF,00,80,00,00,00,00,
9625919,00C24000,true,Rx,1,8,40,00,80,00,C0,00,C0,00,
9626502,01C24006,true,Rx,1,8,CC,00,00,00,F0,1F,00,00,
9627452,00E00024,true,Rx,1,8,80,00,00,00,00,00,3F,40,
9628027,01E2402C,true,Rx,1,8,4F,50,00,0F,C2,10,29,10,
9629132,0042401E,true,Rx,1,8,87,CA,40,96,4C,00,80,00,
9629707,0062401E,true,Rx,1,8,80,00,5C,00,7C,00,60,00,
9630676,0162402A,true,Rx,1,8,00,ED,12,04,80,00,80,00,
9631809,00C24000,true,Rx,1,8,40,00,80,00,C0,00,C0,00,
9638738,00224024,true,Rx,1,8,AC,A1,00,00,C5,FF,B8,00,
9639298,0042401E,true,Rx,1,8,C7,CA,40,96,4C,00,80,00,
9639864,0062401E,true,Rx,1,8,C0,00,5C,00,7C,00,60,00,
9640438,00A24026,true,Rx,1,8,4E,BF,00,80,00,00,00,00,
9641013,00C24000,true,Rx,1,8,40,00,80,00,C0,00,C0,00,
9641578,01400002,true,Rx,1,8,80,00,A6,CD,91,57,CD,0A,
9642142,0162402A,true,Rx,1,8,00,DD,22,04,80,00,80,00,
9642728,02000014,true,Rx,1,8,80,00,00,00,00,20,00,00,
9643293,0242C07C,true,Rx,1,8,17,02,01,01,01,02,02,01,
9645807,00C24000,true,Rx,1,8,40,00,80,00,C0,00,C0,00,
9646390,01C24006,true,Rx,1,8,0C,00,00,00,F0,20,00,00,
9647088,01E2402C,true,Rx,1,8,8F,50,00,2F,C2,10,29,10,
9647654,02620028,true,Rx,1,8,C8,0C,00,C7,F0,5F,45,3B,
9649181,0042401E,true,Rx,1,8,07,CA,40,96,4C,00,80,00,
9649756,0062401E,true,Rx,1,8,00,00,5C,00,7C,00,60,00,
9650329,02800006,true,Rx,1,8,01,2B,BF,0D,00,4C,00,00,
9650895,0162402A,true,Rx,1,8,00,CD,32,04,80,00,80,00,
9652830,00224024,true,Rx,1,8,A4,A1,00,00,C5,FF,B8,00,
9653391,00A24026,true,Rx,1,8,8A,BF,00,80,00,00,00,00,
9653967,00C24000,true,Rx,1,8,40,00,80,00,C0,00,C0,00,
9654554,02220002,true,Rx,1,8,C0,FE,C0,00,00,00,00,00,
9659250,0042401E,true,Rx,1,8,47,CA,40,96,4C,00,80,00,
9659822,0062401E,true,Rx,1,8,40,00,5C,00,7C,00,60,00,
9660406,00C24000,true,Rx,1,8,40,00,80,00,C0,00,C0,00,
9660950,01400002,true,Rx,1,8,C0,00,A6,CD,91,57,CD,0A,
9661524,0162402A,true,Rx,1,8,00,BD,42,04,80,00,80,00,
9662110,02000014,true,Rx,1,8,C0,00,00,00,00,20,00,00,
9662686,03200002,true,Rx,1,8,EC,96,60,00,00,00,00,00,
9663269,03400002,true,Rx,1,8,00,00,02,18,00,00,00,00,
9666796,00224024,true,Rx,1,8,AC,A1,00,00,C5,FF,B8,00,
9667367,00A24026,true,Rx,1,8,CA,BF,00,80,00,00,00,00,
9667951,00C24000,true,Rx,1,8,40,00,80,00,C0,00,C0,00,
9668515,01C24006,true,Rx,1,8,4C,00,00,00,F0,23,00,00,
9669081,01E2402C,true,Rx,1,8,CF,50,00,0F,C2,10,29,10,
9669646,0042401E,true,Rx,1,8,87,CA,40,96,4C,00,80,00,
9670219,0062401E,true,Rx,1,8,80,00,5C,00,7C,00,60,00,
9670784,0162402A,true,Rx,1,8,00,AD,52,04,80,00,80,00,
9673835,00C24000,true,Rx,1,8,40,00,80,00,C0,00,C0,00,
9677006,02620028,true,Rx,1,8,00,0C,00,41,F0,5F,45,3B,
9679251,0042401E,true,Rx,1,8,C7,CA,40,96,4C,00,80,00,
9679822,0062401E,true,Rx,1,8,C0,00,5C,00,7C,00,60,00,
9680386,01400002,true,Rx,1,8,00,00,A6,CD,91,57,CD,0A,
9680950,00224024,true,Rx,1,8,A4,A1,00,00,C5,FF,B8,00,
9681525,00A24026,true,Rx,1,8,0A,BF,00,80,00,00,00,00,
9682100,00C24000,true,Rx,1,8,40,00,80,00,C0,00,C0,00,
9682666,0162402A,true,Rx,1,8,00,9D,62,04,80,00,80,00,
9683260,02000014,true,Rx,1,8,00,00,00,00,00,20,00,00,
9687174,01E2402C,true,Rx,1,8,0F,50,00,0F,C2,11,29,10,
9687818,00C24000,true,Rx,1,8,40,00,80,00,C0,00,C0,00,
9688393,01C24006,true,Rx,1,8,88,00,00,00,F0,21,00,00,
9688968,02220002,true,Rx,1,8,40,FE,C0,00,00,00,00,00,
9689544,0042401E,true,Rx,1,8,07,CA,40,96,4C,00,80,00,
9690117,0062401E,true,Rx,1,8,00,00,5C,00,7C,00,60,00,
9690683,0162402A,true,Rx,1,8,00,8D,72,04,80,00,80,00,
9694839,00224024,true,Rx,1,8,AC,A1,00,00,C5,FF,B8,00,
9695410,00A24026,true,Rx,1,8,4E,BF,00,80,00,00,00,00,
9695985,00C24000,true,Rx,1,8,40,00,80,00,C0,00,C0,00,
9699251,0042401E,true,Rx,1,8,47,CA,40,96,4C,00,80,00,
9699822,0062401E,true,Rx,1,8,40,00,5C,00,7C,00,60,00,
9700366,01400002,true,Rx,1,8,40,00,A6,CD,91,57,CD,0A,
9700950,0162402A,true,Rx,1,8,00,7D,82,04,80,00,80,00,
9701537,02000014,true,Rx,1,8,40,00,00,00,00,20,00,00,
9702113,00C24000,true,Rx,1,8,40,00,80,00,C0,00,C0,00,
9702699,00E00024,true,Rx,1,8,C0,00,00,00,00,00,3F,60,
9703261,02800006,true,Rx,1,8,41,2B,BF,0D,00,4C,00,00,
9707398,01E2402C,true,Rx,1,8,4F,50,00,0F,C2,10,29,10,
9707970,02620028,true,Rx,1,8,48,0C,00,41,F0,5F,45,3B,
9708784,00224024,true,Rx,1,8,A4,A1,00,00,C5,FF,B8,00,
9709347,0042401E,true,Rx,1,8,87,CA,40,96,4C,00,80,00,
9709922,0062401E,true,Rx,1,8,80,00,5C,00,7C,00,60,00,
9710487,00A24026,true,Rx,1,8,8A,BF,00,80,00,00,00,00,
9711063,00C24000,true,Rx,1,8,40,00,80,00,C0,00,C0,00,
9711638,0162402A,true,Rx,1,8,00,6D,92,04,80,00,80,00,
9712212,01C24006,true,Rx,1,8,CC,00,00,00,F0,22,00,00,
9715885,00C24000,true,Rx,1,8,40,00,80,00,C0,00,C0,00,
9719255,0042401E,true,Rx,1,8,C7,CA,40,96,4C,00,80,00,
9719827,0062401E,true,Rx,1,8,C0,00,5C,00,7C,00,60,00,
9720380,01400002,true,Rx,1,8,80,00,A6,CD,91,57,CD,0A,
9720955,0162402A,true,Rx,1,8,00,5D,A2,04,80,00,80,00,
9721541,02000014,true,Rx,1,8,80,00,00,00,00,20,00,00,
9722852,00224024,true,Rx,1,8,AC,A1,00,00,C5,FF,B8,00,
9723425,00A24026,true,Rx,1,8,CA,BF,00,80,00,00,00,00,
9724000,00C24000,true,Rx,1,8,40,00,80,00,C0,00,C0,00,
9724586,02220002,true,Rx,1,8,40,FE,C0,00,00,00,00,00,
9727476,01E2402C,true,Rx,1,8,8F,50,00,0F,C2,10,29,10,
9729816,00C24000,true,Rx,1,8,40,00,80,00,C0,00,C0,00,
9730397,01C24006,true,Rx,1,8,0C,00,00,00,F0,20,00,00,
9730961,0042401E,true,Rx,1,8,07,CA,40,96,4C,00,80,00,
9731537,0062401E,true,Rx,1,8,00,00,5C,00,7C,00,60,00,
9732102,0162402A,true,Rx,1,8,00,4D,B2,04,80,00,80,00,
9736837,00224024,true,Rx,1,8,A4,A1,00,00,C5,FF,B8,00,
9737408,00A24026,true,Rx,1,8,0A,BF,00,80,00,00,00,00,
9737983,00C24000,true,Rx,1,8,40,00,80,00,C0,00,C0,00,
9738558,02620028,true,Rx,1,8,88,0C,00,41,F0,5F,45,3B,
9739246,0042401E,true,Rx,1,8,47,CA,40,96,4C,00,80,00,
9739822,0062401E,true,Rx,1,8,40,00,5C,00,7C,00,60,00,
9740365,01400002,true,Rx,1,8,C0,00,A6,CD,91,57,CD,0A,
9740940,0162402A,true,Rx,1,8,00,3D,C2,04,80,00,80,00,
9741524,02000014,true,Rx,1,8,C0,00,00,00,00,20,00,00,
9743862,00C24000,true,Rx,1,8,40,00,80,00,C0,00,C0,00,
9747125,01E2402C,true,Rx,1,8,CF,50,00,0F,C2,10,29,10,
9749180,0042401E,true,Rx,1,8,87,CA,40,96,4C,00,80,00,
9749751,0062401E,true,Rx,1,8,80,00,5C,00,7C,00,60,00,
9750315,02800006,true,Rx,1,8,81,2B,BF,0D,00,4C,00,00,
9750879,00224024,true,Rx,1,8,AC,A1,00,00,C5,FF,B8,00,
9751454,00A24026,true,Rx,1,8,4E,BF,00,80,00,00,00,00,
9752030,00C24000,true,Rx,1,8,40,00,80,00,C0,00,C0,00,
9752605,0162402A,true,Rx,1,8,00,2D,D2,04,80,00,80,00,
9753179,01C24006,true,Rx,1,8,4C,00,00,00,F0,20,00,00,
9757905,00C24000,true,Rx,1,8,40,00,80,00,C0,00,C0,00,
9758484,02220002,true,Rx,1,8,40,FE,C0,00,00,00,00,00,
9759070,03200002,true,Rx,1,8,FC,96,60,00,00,00,00,00,
9759625,0042401E,true,Rx,1,8,C7,CA,40,96,4C,00,80,00,
9760200,0062401E,true,Rx,1,8,C0,00,5C,00,7C,00,60,00,
9760753,01400002,true,Rx,1,8,00,00,A6,CD,91,57,CD,0A,
9761328,0162402A,true,Rx,1,8,00,1D,E2,04,80,00,80,00,
9761924,02000014,true,Rx,1,8,00,00,00,00,00,20,00,00,
9762511,03400002,true,Rx,1,8,00,00,03,18,00,00,00,00,
9764869,00224024,true,Rx,1,8,A4,A1,00,00,C5,FF,B8,00,
9765442,00A24026,true,Rx,1,8,8A,BF,00,80,00,00,00,00,
9766016,00C24000,true,Rx,1,8,40,00,80,00,C0,00,C0,00,
9767618,01E2402C,true,Rx,1,8,0F,50,00,0F,C2,10,29,10,
9768181,02620028,true,Rx,1,8,C8,0C,00,41,F0,5F,45,3B,
9769129,0042401E,true,Rx,1,8,07,CA,40,96,4C,00,80,00,
9769705,0062401E,true,Rx,1,8,00,00,5C,00,7C,00,60,00,
9770674,0162402A,true,Rx,1,8,00,0D,F2,04,80,00,80,00,
9771892,00C24000,true,Rx,1,8,40,00,80,00,C0,00,C0,00,
9772475,00E00024,true,Rx,1,8,00,00,00,00,00,00,3F,80,
9773049,01C24006,true,Rx,1,8,88,00,00,00,F0,22,00,00,
9778821,00224024,true,Rx,1,8,AC,A1,00,00,C5,FF,B8,00,
9779381,0042401E,true,Rx,1,8,47,CA,40,96,4C,00,80,00,
9779945,0062401E,true,Rx,1,8,40,00,5C,00,7C,00,60,00,
9780519,00A24026,true,Rx,1,8,CA,BF,00,80,00,00,00,00,
9781095,00C24000,true,Rx,1,8,40,00,80,00,C0,00,C0,00,
9781649,01400002,true,Rx,1,8,40,00,A6,CD,91,57,CD,0A,
9782234,0162402A,true,Rx,1,8,00,FD,02,04,80,00,80,00,
9782820,02000014,true,Rx,1,8,40,00,00,00,00,20,00,00,
9785881,00C24000,true,Rx,1,8,40,00,80,00,C0,00,C0,00,
9787158,01E2402C,true,Rx,1,8,4F,50,00,0F,C2,10,29,10,
9789129,0042401E,true,Rx,1,8,87,CA,40,96,4C,00,80,00,
9789705,0062401E,true,Rx,1,8,80,00,5C,00,7C,00,60,00,
9790661,0162402A,true,Rx,1,8,00,ED,12,04,80,00,80,00,
9792872,00224024,true,Rx,1,8,A4,A1,00,00,C5,FF,B8,00,
9793446,00A24026,true,Rx,1,8,0A,BF,00,80,00,00,00,00,
9794020,00C24000,true,Rx,1,8,40,00,80,00,C0,00,C0,00,
9794605,01C24006,true,Rx,1,8,CC,00,00,00,F0,1F,00,00,
9795189,02220002,true,Rx,1,8,C0,FE,C0,00,00,00,00,00,
9797477,02620028,true,Rx,1,8,08,0C,00,41,F0,5F,45,3B,
9799252,0042401E,true,Rx,1,8,C7,CA,40,96,4C,00,80,00,
9799817,0062401E,true,Rx,1,8,C0,00,5C,00,7C,00,60,00,
9800400,00C24000,true,Rx,1,8,40,00,80,00,C0,00,C0,00,
9800954,01400002,true,Rx,1,8,80,00,A6,CD,91,57,CD,0A,
9801517,0162402A,true,Rx,1,8,00,DD,22,04,80,00,80,00,
9802114,02000014,true,Rx,1,8,80,00,00,00,00,20,00,00,
9802669,02800006,true,Rx,1,8,C1,2B,BF,0D,00,4C,00,00,
9806874,00224024,true,Rx,1,8,AC,A1,00,00,C5,FF,B8,00,
9807445,00A24026,true,Rx,1,8,4E,BF,00,80,00,00,00,00,
9808020,00C24000,true,Rx,1,8,40,00,80,00,C0,00,C0,00,
9808586,01E2402C,true,Rx,1,8,8F,50,00,0F,C2,10,29,10,
9809180,0042401E,true,Rx,1,8,07,CA,40,96,4C,00,80,00,
9809755,0062401E,true,Rx,1,8,00,00,5C,00,7C,00,60,00,
9810662,0162402A,true,Rx,1,8,00,CD,32,04,80,00,80,00,
9813908,00C24000,true,Rx,1,8,40,00,80,00,C0,00,C0,00,
9814479,01C24006,true,Rx,1,8,0C,00,00,00,F0,21,00,00,
9819250,0042401E,true,Rx,1,8,47,CA,40,96,4C,00,80,00,
9819822,0062401E,true,Rx,1,8,40,00,5C,00,7C,00,60,00,
9820376,01400002,true,Rx,1,8,C0,00,A6,CD,91,57,CD,0A,
9820941,00224024,true,Rx,1,8,A4,A1,00,00,C5,FF,B8,00,
9821504,00A24026,true,Rx,1,8,8A,BF,00,80,00,00,00,00,
9822090,00C24000,true,Rx,1,8,40,00,80,00,C0,00,C0,00,
9822655,0162402A,true,Rx,1,8,00,BD,42,04,80,00,80,00,
9823240,02000014,true,Rx,1,8,C0,00,00,00,00,20,00,00,
9827228,01E2402C,true,Rx,1,8,CF,50,00,0F,C2,10,29,10,
9827799,02620028,true,Rx,1,8,40,0C,00,41,F0,5F,45,3B,
9828372,00C24000,true,Rx,1,8,40,00,80,00,C0,00,C0,00,
9828948,02220002,true,Rx,1,8,40,FE,C0,00,00,00,00,00,
9829512,0042401E,true,Rx,1,8,87,CA,40,96,4C,00,80,00,
9830089,0062401E,true,Rx,1,8,80,00,5C,00,7C,00,60,00,
9830653,0162402A,true,Rx,1,8,00,AD,52,04,80,00,80,00,
9834894,00224024,true,Rx,1,8,AC,A1,00,00,C5,FF,B8,00,
9835464,00A24026,true,Rx,1,8,CA,BF,00,80,00,00,00,00,
9836049,00C24000,true,Rx,1,8,40,00,80,00,C0,00,C0,00,
9836624,01C24006,true,Rx,1,8,4C,00,00,00,F0,1F,00,00,
9839247,0042401E,true,Rx,1,8,C7,CA,40,96,4C,00,80,00,
9839819,0062401E,true,Rx,1,8,C0,00,5C,00,7C,00,60,00,
9840372,01400002,true,Rx,1,8,00,00,A6,CD,91,57,CD,0A,
9840948,0162402A,true,Rx,1,8,00,9D,62,04,80,00,80,00,
9841543,02000014,true,Rx,1,8,00,00,00,00,00,20,00,00,
9842118,00C24000,true,Rx,1,8,40,00,80,00,C0,00,C0,00,
9842704,00E00024,true,Rx,1,8,40,00,00,00,00,00,3F,A0,
9847061,01E2402C,true,Rx,1,8,0F,50,00,0F,C2,10,29,10,
9848846,00224024,true,Rx,1,8,A4,A1,00,00,C5,FF,B8,00,
9849417,0042401E,true,Rx,1,8,07,CA,40,96,4C,00,80,00,
9849991,0062401E,true,Rx,1,8,00,00,5C,00,7C,00,60,00,
9850567,00A24026,true,Rx,1,8,0A,BF,00,80,00,00,00,00,
9851141,00C24000,true,Rx,1,8,40,00,80,00,C0,00,C0,00,
9851707,0162402A,true,Rx,1,8,00,8D,72,04,80,00,80,00,
9852270,02800006,true,Rx,1,8,01,2B,AF,0D,00,4C,00,00,
9855991,00C24000,true,Rx,1,8,40,00,80,00,C0,00,C0,00,
9856573,01C24006,true,Rx,1,8,88,00,00,00,F0,1F,00,00,
9857148,03200002,true,Rx,1,8,CC,96,60,00,00,00,00,00,
9857712,02620028,true,Rx,1,8,88,0C,00,41,F0,5F,45,3B,
9858297,03400002,true,Rx,1,8,00,00,00,18,00,00,00,00,
9859257,0042401E,true,Rx,1,8,47,CA,40,96,4C,00,80,00,
9859831,0062401E,true,Rx,1,8,40,00,5C,00,7C,00,60,00,
9860385,01400002,true,Rx,1,8,40,00,A6,CD,91,57,CD,0A,
9860961,0162402A,true,Rx,1,8,00,7D,82,04,80,00,80,00,
9861546,02000014,true,Rx,1,8,40,00,00,00,00,20,00,00,
9862899,00224024,true,Rx,1,8,AC,A1,00,00,C5,FF,B8,00,
9863474,00A24026,true,Rx,1,8,4E,BF,00,80,00,00,00,00,
9864049,00C24000,true,Rx,1,8,40,00,80,00,C0,00,C0,00,
9864624,02220002,true,Rx,1,8,40,FE,C0,00,00,00,00,00,
9867508,01E2402C,true,Rx,1,8,4F,50,00,0F,C2,10,29,10,
9869189,0042401E,true,Rx,1,8,87,CA,40,96,4C,00,80,00,
9869765,0062401E,true,Rx,1,8,80,00,5C,00,7C,00,60,00,
9870338,00C24000,true,Rx,1,8,40,00,80,00,C0,00,C0,00,
9870913,0162402A,true,Rx,1,8,00,6D,92,04,80,00,80,00,
9876912,00224024,true,Rx,1,8,A4,A1,00,00,C5,FF,B8,00,
9877482,00A24026,true,Rx,1,8,8A,BF,00,80,00,00,00,00,
9878058,00C24000,true,Rx,1,8,40,00,80,00,C0,00,C0,00,
9878633,01C24006,true,Rx,1,8,CC,00,00,00,F0,1E,00,00,
9879239,0042401E,true,Rx,1,8,C7,CA,40,96,4C,00,80,00,
9879813,0062401E,true,Rx,1,8,C0,00,5C,00,7C,00,60,00,
9880367,01400002,true,Rx,1,8,80,00,A6,CD,91,57,CD,0A,
9880943,0162402A,true,Rx,1,8,00,5D,A2,04,80,00,80,00,
9881530,02000014,true,Rx,1,8,80,00,00,00,00,20,00,00,
9883929,00C24000,true,Rx,1,8,40,00,80,00,C0,00,C0,00,
9886970,01E2402C,true,Rx,1,8,8F,50,00,0F,C2,11,29,10,
9887540,02620028,true,Rx,1,8,C8,0C,00,41,F0,5F,45,3B,
9890654,0162402A,true,Rx,1,8,00,4D,B2,04,80,00,80,00,
9891225,00224024,true,Rx,1,8,AC,A1,00,00,C5,FF,B8,00,
9891790,0042401E,true,Rx,1,8,07,CA,40,96,4C,00,80,00,
9892364,0062401E,true,Rx,1,8,00,00,5C,00,7C,00,60,00,
9892938,00A24026,true,Rx,1,8,CA,BF,00,80,00,00,00,00,
9893515,00C24000,true,Rx,1,8,40,00,80,00,C0,00,C0,00,
9897939,00C24000,true,Rx,1,8,40,00,80,00,C0,00,C0,00,
9898520,01C24006,true,Rx,1,8,0C,00,00,00,F0,1E,00,00,
9899104,02220002,true,Rx,1,8,C0,FE,C0,00,00,00,00,00,
9899659,0042401E,true,Rx,1,8,47,CA,40,96,4C,00,80,00,
9900234,0062401E,true,Rx,1,8,40,00,5C,00,7C,00,60,00,
9900789,01400002,true,Rx,1,8,C0,00,A6,CD,91,57,CD,0A,
9901352,0162402A,true,Rx,1,8,00,3D,C2,04,80,00,80,00,
9901938,02000014,true,Rx,1,8,C0,00,00,00,00,20,00,00,
9902504,02800006,true,Rx,1,8,41,2B,AF,0D,00,4C,00,00,
9904923,00224024,true,Rx,1,8,A4,A1,00,00,C5,FF,B8,00,
9905497,00A24026,true,Rx,1,8,0A,BF,00,80,00,00,00,00,
9906070,00C24000,true,Rx,1,8,40,00,80,00,C0,00,C0,00,
9907737,01E2402C,true,Rx,1,8,CF,50,00,0F,C2,10,29,10,
9909172,0042401E,true,Rx,1,8,87,CA,40,96,4C,00,80,00,
9909746,0062401E,true,Rx,1,8,80,00,5C,00,7C,00,60,00,
9910651,0162402A,true,Rx,1,8,00,2D,D2,04,80,00,80,00,
9911974,00C24000,true,Rx,1,8,40,00,80,00,C0,00,C0,00,
9917084,00E00024,true,Rx,1,8,80,00,00,00,00,00,3F,C0,
9917655,02620028,true,Rx,1,8,00,0C,00,41,F0,5F,45,3B,
9918893,00224024,true,Rx,1,8,AC,A1,00,00,C5,FF,B8,00,
9919455,0042401E,true,Rx,1,8,C7,CA,40,96,4C,00,80,00,
9920021,0062401E,true,Rx,1,8,C0,00,5C,00,7C,00,60,00,
9920595,00A24026,true,Rx,1,8,4E,BF,00,80,00,00,00,00,
9921170,00C24000,true,Rx,1,8,40,00,80,00,C0,00,C0,00,
9921735,01400002,true,Rx,1,8,00,00,A6,CD,91,57,CD,0A,
9922310,0162402A,true,Rx,1,8,00,1D,E2,04,80,00,80,00,
9922884,01C24006,true,Rx,1,8,4C,00,00,00,F0,20,00,00,
9923482,02000014,true,Rx,1,8,00,00,00,00,00,20,00,00,
9924037,0242C07C,true,Rx,1,8,01,0F,5E,73,FC,7E,FE,F8,
9926000,00C24000,true,Rx,1,8,40,00,80,00,C0,00,C0,00,
9927094,01E2402C,true,Rx,1,8,0F,50,00,0F,C2,10,29,10,
9929130,0042401E,true,Rx,1,8,07,CA,40,96,4C,00,80,00,
9929701,0062401E,true,Rx,1,8,00,00,5C,00,7C,00,60,00,
9930660,0162402A,true,Rx,1,8,00,0D,F2,04,80,00,80,00,
9932965,00224024,true,Rx,1,8,A4,A1,00,00,C5,FF,B8,00,
9933537,00A24026,true,Rx,1,8,8A,BF,00,80,00,00,00,00,
9934111,00C24000,true,Rx,1,8,40,00,80,00,C0,00,C0,00,
9934687,02220002,true,Rx,1,8,40,FE,C0,00,00,00,00,00,
9939245,0042401E,true,Rx,1,8,47,CA,40,96,4C,00,80,00,
9939815,0062401E,true,Rx,1,8,40,00,5C,00,7C,00,60,00,
9940389,00C24000,true,Rx,1,8,40,00,80,00,C0,00,C0,00,
9940944,01400002,true,Rx,1,8,40,00,A6,CD,91,57,CD,0A,
9941519,0162402A,true,Rx,1,8,00,FD,02,04,80,00,80,00,
9942104,01C24006,true,Rx,1,8,88,00,00,00,F0,20,00,00,
9942690,02000014,true,Rx,1,8,40,00,00,00,00,20,00,00,
9946952,00224024,true,Rx,1,8,AC,A1,00,00,C5,FF,B8,00,
9947521,00A24026,true,Rx,1,8,CA,BF,00,80,00,00,00,00,
9948096,00C24000,true,Rx,1,8,40,00,80,00,C0,00,C0,00,
9948662,01E2402C,true,Rx,1,8,4F,50,00,0F,C2,10,29,10,
9949226,0042401E,true,Rx,1,8,87,CA,40,96,4C,00,80,00,
9949800,0062401E,true,Rx,1,8,80,00,5C,00,7C,00,60,00,
9950364,02620028,true,Rx,1,8,48,0C,00,41,F0,5F,45,3B,
9950930,0162402A,true,Rx,1,8,00,ED,12,04,80,00,80,00,
9951496,02800006,true,Rx,1,8,81,2B,AF,0D,00,4C,00,00,
9954050,00C24000,true,Rx,1,8,40,00,80,00,C0,00,C0,00,
9954626,03200002,true,Rx,1,8,DC,96,60,00,00,00,00,00,
9955207,03400002,true,Rx,1,8,00,00,01,18,00,00,00,00,
9959237,0042401E,true,Rx,1,8,C7,CA,40,96,4C,00,80,00,
9959808,0062401E,true,Rx,1,8,C0,00,5C,00,7C,00,60,00,
9960362,01400002,true,Rx,1,8,80,00,A6,CD,91,57,CD,0A,
9960927,00224024,true,Rx,1,8,A4,A1,00,00,C5,FF,B8,00,
9961502,00A24026,true,Rx,1,8,0A,BF,00,80,00,00,00,00,
9962077,00C24000,true,Rx,1,8,40,00,80,00,C0,00,C0,00,
9962653,0162402A,true,Rx,1,8,00,DD,22,04,80,00,80,00,
9963227,01C24006,true,Rx,1,8,CC,00,00,00,F0,1F,00,00,
9963816,02000014,true,Rx,1,8,80,00,00,00,00,20,00,00,
9967354,01E2402C,true,Rx,1,8,8F,50,00,0F,C2,10,29,10,
9967957,00C24000,true,Rx,1,8,40,00,80,00,C0,00,C0,00,
9968531,02220002,true,Rx,1,8,40,FE,C0,00,00,00,00,00,
9969169,0042401E,true,Rx,1,8,07,CA,40,96,4C,00,80,00,
9969744,0062401E,true,Rx,1,8,00,00,5C,00,7C,00,60,00,
9970652,0162402A,true,Rx,1,8,00,CD,32,04,80,00,80,00,
9974982,00224024,true,Rx,1,8,AC,A1,00,00,C5,FF,B8,00,
9975553,00A24026,true,Rx,1,8,4E,BF,00,80,00,00,00,00,
9976128,00C24000,true,Rx,1,8,40,00,80,00,C0,00,C0,00,
9977033,02620028,true,Rx,1,8,88,0C,00,41,F0,5F,45,3B,
9979243,0042401E,true,Rx,1,8,47,CA,40,96,4C,00,80,00,
9979817,0062401E,true,Rx,1,8,40,00,5C,00,7C,00,60,00,
9980361,01400002,true,Rx,1,8,C0,00,A6,CD,91,57,CD,0A,
9980937,0162402A,true,Rx,1,8,00,BD,42,04,80,00,80,00,
9981524,02000014,true,Rx,1,8,C0,00,00,00,00,20,00,00,
9982098,00C24000,true,Rx,1,8,40,00,80,00,C0,00,C0,00,
9982674,01C24006,true,Rx,1,8,0C,00,00,00,F0,21,00,00,
9987275,00E00024,true,Rx,1,8,C0,00,00,00,00,00,3F,E0,
9987846,01E2402C,true,Rx,1,8,CF,50,00,0F,C2,10,29,10,
9988940,00224024,true,Rx,1,8,A4,A1,00,00,C5,FF,B8,00,
9989502,0042401E,true,Rx,1,8,87,CA,40,96,4C,00,80,00,
9990077,0062401E,true,Rx,1,8,80,00,5C,00,7C,00,60,00,
9990643,00A24026,true,Rx,1,8,8A,BF,00,80,00,00,00,00,
9991226,00C24000,true,Rx,1,8,40,00,80,00,C0,00,C0,00,
9991794,0162402A,true,Rx,1,8,00,AD,52,04,80,00,80,00,
9995987,00C24000,true,Rx,1,8,40,00,80,00,C0,00,C0,00,
9999242,0042401E,true,Rx,1,8,C7,CA,40,96,4C,00,80,00,
9999813,0062401E,true,Rx,1,8,C0,00,5C,00,7C,00,60,00,
10000376,01400002,true,Rx,1,8,00,00,A6,CD,91,57,CD,0A,
10000941,0162402A,true,Rx,1,8,00,9D,62,04,80,00,80,00,
10001538,02000014,true,Rx,1,8,00,00,00,00,00,20,00,00,
10002102,02800006,true,Rx,1,8,C1,2B,AF,0D,00,4C,00,00,
10002957,00224024,true,Rx,1,8,AC,A1,00,00,C5,FF,B8,00,
10003530,00A24026,true,Rx,1,8,CA,BF,00,80,00,00,00,00,
10004106,00C24000,true,Rx,1,8,40,00,80,00,C0,00,C0,00,
10004692,01C24006,true,Rx,1,8,4C,00,00,00,F0,1F,00,00,
10005277,02220002,true,Rx,1,8,C0,FE,C0,00,00,00,00,00,
10007728,01E2402C,true,Rx,1,8,0F,50,00,0F,C2,10,29,10,
10008299,02620028,true,Rx,1,8,C8,0C,00,41,F0,5F,45,3B,
10009205,0042401E,true,Rx,1,8,07,CA,40,96,4C,00,80,00,
10009790,0062401E,true,Rx,1,8,00,00,5C,00,7C,00,60,00,
10010352,00C24000,true,Rx,1,8,40,00,80,00,C0,00,C0,00,
10010918,0162402A,true,Rx,1,8,00,8D,72,04,80,00,80,00,
10016977,00224024,true,Rx,1,8,A4,A1,00,00,C5,FF,B8,00,
10017548,00A24026,true,Rx,1,8,0A,BF,00,80,00,00,00,00,
10018121,00C24000,true,Rx,1,8,40,00,80,00,C0,00,C0,00,
10019245,0042401E,true,Rx,1,8,47,CA,40,96,4C,00,80,00,
10019810,0062401E,true,Rx,1,8,40,00,5C,00,7C,00,60,00,
10020362,01400002,true,Rx,1,8,40,00,A6,CD,91,57,CD,0A,
10020948,0162402A,true,Rx,1,8,00,7D,82,04,80,00,80,00,
10021537,02000014,true,Rx,1,8,40,00,00,00,00,20,00,00,
10024006,00C24000,true,Rx,1,8,40,00,80,00,C0,00,C0,00,
10024582,01C24006,true,Rx,1,8,88,00,00,00,F0,20,00,00,
10027464,01E2402C,true,Rx,1,8,4F,50,00,2F,C2,10,29,10,
10029198,0042401E,true,Rx,1,8,87,CA,40,96,4C,00,80,00,
10029770,0062401E,true,Rx,1,8,80,00,5C,00,7C,00,60,00,
10030645,0162402A,true,Rx,1,8,00,6D,92,04,80,00,80,00,
10031218,00224024,true,Rx,1,8,AC,A1,00,00,C5,FF,B8,00,
10031794,00A24026,true,Rx,1,8,4E,BF,00,80,00,00,00,00,
10032369,00C24000,true,Rx,1,8,40,00,80,00,C0,00,C0,00,
10037158,02620028,true,Rx,1,8,08,0C,00,C5,F0,5F,45,3B,
10037978,00C24000,true,Rx,1,8,40,00,80,00,C0,00,C0,00,
10038564,02220002,true,Rx,1,8,40,FE,C0,00,00,00,00,00,
10039250,0042401E,true,Rx,1,8,C7,CA,40,96,4C,00,80,00,
10039816,0062401E,true,Rx,1,8,C0,00,5C,00,7C,00,60,00,
10040379,01400002,true,Rx,1,8,80,00,A6,CD,91,57,CD,0A,
10040944,0162402A,true,Rx,1,8,00,5D,A2,04,80,00,80,00,
10041531,02000014,true,Rx,1,8,80,00,00,00,00,20,00,00,
10044987,00224024,true,Rx,1,8,A4,A1,00,00,C5,FF,B8,00,
10045559,00A24026,true,Rx,1,8,8A,BF,00,80,00,00,00,00,
10046133,00C24000,true,Rx,1,8,40,00,80,00,C0,00,C0,00,
10046709,01C24006,true,Rx,1,8,CC,00,00,00,F0,20,00,00,
10047272,01E2402C,true,Rx,1,8,8F,50,00,0F,C2,10,29,10,
10050646,0162402A,true,Rx,1,8,00,4D,B2,04,80,00,80,00,
10051209,0042401E,true,Rx,1,8,07,CA,40,96,4C,00,80,00,
10051793,0062401E,true,Rx,1,8,00,00,5C,00,7C,00,60,00,
10052368,00C24000,true,Rx,1,8,40,00,80,00,C0,00,C0,00,
10052934,02800006,true,Rx,1,8,01,2B,AF,0D,00,4C,00,00,
10053497,03200002,true,Rx,1,8,EC,96,60,00,00,00,00,00,
10054083,03400002,true,Rx,1,8,00,00,02,18,00,00,00,00,
10058261,00E00024,true,Rx,1,8,00,00,00,00,00,00,3F,00,
10058977,00224024,true,Rx,1,8,AC,A1,00,00,C5,FF,B8,00,
10059530,0042401E,true,Rx,1,8,47,CA,40,96,4C,00,80,00,
10060105,0062401E,true,Rx,1,8,40,00,5C,00,7C,00,60,00,
10060681,00A24026,true,Rx,1,8,CA,BF,00,80,00,00,00,00,
10061256,00C24000,true,Rx,1,8,40,00,80,00,C0,00,C0,00,
10061809,01400002,true,Rx,1,8,C0,00,A6,CD,91,57,CD,0A,
10062374,0162402A,true,Rx,1,8,00,3D,C2,04,80,00,80,00,
10062960,02000014,true,Rx,1,8,C0,00,00,00,00,20,00,00,
10066013,00C24000,true,Rx,1,8,40,00,80,00,C0,00,C0,00,
10066583,01C24006,true,Rx,1,8,0C,00,00,00,F0,21,00,00,
10067334,01E2402C,true,Rx,1,8,CF,50,00,0F,C2,10,29,10,
10067889,02620028,true,Rx,1,8,40,0C,00,43,F0,5F,45,3B,
10069169,0042401E,true,Rx,1,8,87,CA,40,96,4C,00,80,00,
10069735,0062401E,true,Rx,1,8,80,00,5C,00,7C,00,60,00,
10070650,0162402A,true,Rx,1,8,00,2D,D2,04,80,00,80,00,
10073006,00224024,true,Rx,1,8,A4,A1,00,00,C5,FF,B8,00,
10073582,00A24026,true,Rx,1,8,0A,BF,00,80,00,00,00,00,
10074155,00C24000,true,Rx,1,8,40,00,80,00,C0,00,C0,00,
10074741,02220002,true,Rx,1,8,40,FE,C0,00,00,00,00,00,
10079246,0042401E,true,Rx,1,8,C7,CA,40,96,4C,00,80,00,
10079818,0062401E,true,Rx,1,8,C0,00,5C,00,7C,00,60,00,
10080391,00C24000,true,Rx,1,8,40,00,80,00,C0,00,C0,00,
10080957,01400002,true,Rx,1,8,00,00,A6,CD,91,57,CD,0A,
10081521,0162402A,true,Rx,1,8,00,1D,E2,04,80,00,80,00,
10082118,02000014,true,Rx,1,8,00,00,00,00,00,20,00,00,
10087010,00224024,true,Rx,1,8,AC,A1,00,00,C5,FF,B8,00,
10087582,00A24026,true,Rx,1,8,4E,BF,00,80,00,00,00,00,
10088157,00C24000,true,Rx,1,8,40,00,80,00,C0,00,C0,00,
10088741,01C24006,true,Rx,1,8,4C,00,00,00,F0,20,00,00,
10089306,0042401E,true,Rx,1,8,07,CA,40,96,4C,00,80,00,
10089881,0062401E,true,Rx,1,8,00,00,5C,00,7C,00,60,00,
10090445,01E2402C,true,Rx,1,8,0F,50,00,0F,C2,11,29,10,
10091020,0162402A,true,Rx,1,8,00,0D,F2,04,80,00,80,00,
10094029,00C24000,true,Rx,1,8,40,00,80,00,C0,00,C0,00,
10097001,02620028,true,Rx,1,8,88,0C,00,41,F0,5F,45,3B,
10099245,0042401E,true,Rx,1,8,47,CA,40,96,4C,00,80,00,
10099817,0062401E,true,Rx,1,8,40,00,5C,00,7C,00,60,00,
10100369,01400002,true,Rx,1,8,40,00,A6,CD,91,57,CD,0A,
10100945,0162402A,true,Rx,1,8,00,FD,02,04,80,00,80,00,
10101509,00224024,true,Rx,1,8,A4,A1,00,00,C5,FF,B8,00,
10102074,00A24026,true,Rx,1,8,8A,BF,00,80,00,00,00,00,
10102649,00C24000,true,Rx,1,8,40,00,80,00,C0,00,C0,00,
10103244,02000014,true,Rx,1,8,40,00,00,00,00,20,00,00,
10103801,02800006,true,Rx,1,8,41,2B,AF,0D,00,4C,00,00,
10107541,01E2402C,true,Rx,1,8,4F,50,00,0F,C2,10,29,10,
10108122,00C24000,true,Rx,1,8,40,00,80,00,C0,00,C0,00,
10108696,01C24006,true,Rx,1,8,88,00,00,00,F0,20,00,00,
10109260,0042401E,true,Rx,1,8,87,CA,40,96,4C,00,80,00,
10109836,0062401E,true,Rx,1,8,80,00,5C,00,7C,00,60,00,
10110421,02220002,true,Rx,1,8,C0,FE,C0,00,00,00,00,00,
10110995,0162402A,true,Rx,1,8,00,ED,12,04,80,00,80,00,
10115037,00224024,true,Rx,1,8,AC,A1,00,00,C5,FF,B8,00,
10115607,00A24026,true,Rx,1,8,CA,BF,00,80,00,00,00,00,
10116182,00C24000,true,Rx,1,8,40,00,80,00,C0,00,C0,00,
10119237,0042401E,true,Rx,1,8,C7,CA,40,96,4C,00,80,00,
10119809,0062401E,true,Rx,1,8,C0,00,5C,00,7C,00,60,00,
10120362,01400002,true,Rx,1,8,80,00,A6,CD,91,57,CD,0A,
10120927,0162402A,true,Rx,1,8,00,DD,22,04,80,00,80,00,
10121523,02000014,true,Rx,1,8,80,00,00,00,00,20,00,00,
10122099,00C24000,true,Rx,1,8,40,00,80,00,C0,00,C0,00,
10127107,00E00024,true,Rx,1,8,40,00,00,00,00,00,3F,20,
10127669,01E2402C,true,Rx,1,8,8F,50,00,0F,C2,10,29,10,
10128233,02620028,true,Rx,1,8,C8,0C,00,41,F0,5F,45,3B,
10128996,00224024,true,Rx,1,8,A4,A1,00,00,C5,FF,B8,00,
10129560,0042401E,true,Rx,1,8,07,CA,40,96,4C,00,80,00,
10130145,0062401E,true,Rx,1,8,00,00,5C,00,7C,00,60,00,
10130720,00A24026,true,Rx,1,8,0A,BF,00,80,00,00,00,00,
10131295,00C24000,true,Rx,1,8,40,00,80,00,C0,00,C0,00,
10131860,0162402A,true,Rx,1,8,00,CD,32,04,80,00,80,00,
10132444,01C24006,true,Rx,1,8,CC,00,00,00,F0,1F,00,00,
10136105,00C24000,true,Rx,1,8,40,00,80,00,C0,00,C0,00,
10139235,0042401E,true,Rx,1,8,47,CA,40,96,4C,00,80,00,
10139806,0062401E,true,Rx,1,8,40,00,5C,00,7C,00,60,00,
10140360,01400002,true,Rx,1,8,C0,00,A6,CD,91,57,CD,0A,
10140924,0162402A,true,Rx,1,8,00,BD,42,04,80,00,80,00,
10141519,02000014,true,Rx,1,8,C0,00,00,00,00,20,00,00,
10143060,00224024,true,Rx,1,8,AC,A1,00,00,C5,FF,B8,00,
10143634,00A24026,true,Rx,1,8,4E,BF,00,80,00,00,00,00,
10144208,00C24000,true,Rx,1,8,40,00,80,00,C0,00,C0,00,
10144782,02220002,true,Rx,1,8,40,FE,C0,00,00,00,00,00,
10147624,01E2402C,true,Rx,1,8,CF,50,00,0F,C2,10,29,10,
10149170,0042401E,true,Rx,1,8,87,CA,40,96,4C,00,80,00,
10149742,0062401E,true,Rx,1,8,80,00,5C,00,7C,00,60,00,
10150315,00C24000,true,Rx,1,8,40,00,80,00,C0,00,C0,00,
10150891,0162402A,true,Rx,1,8,00,AD,52,04,80,00,80,00,
10151465,01C24006,true,Rx,1,8,0C,00,00,00,F0,21,00,00,
10152023,02800006,true,Rx,1,8,81,2B,AF,0D,00,4C,00,00,
10152597,03200002,true,Rx,1,8,FC,96,60,00,00,00,00,00,
10153182,03400002,true,Rx,1,8,00,00,03,18,00,00,00,00,
10157025,00224024,true,Rx,1,8,A4,A1,00,00,C5,FF,B8,00,
10157596,00A24026,true,Rx,1,8,8A,BF,00,80,00,00,00,00,
10158171,00C24000,true,Rx,1,8,40,00,80,00,C0,00,C0,00,
10158745,02620028,true,Rx,1,8,00,0C,00,41,F0,5F,45,3B,
10159299,0042401E,true,Rx,1,8,C7,CA,40,96,4C,00,80,00,
10159875,0062401E,true,Rx,1,8,C0,00,5C,00,7C,00,60,00,
10160439,01400002,true,Rx,1,8,00,00,A6,CD,91,57,CD,0A,
10161003,0162402A,true,Rx,1,8,00,9D,62,04,80,00,80,00,
10161601,02000014,true,Rx,1,8,00,00,00,00,00,20,00,00,
10164070,00C24000,true,Rx,1,8,40,00,80,00,C0,00,C0,00,
10167018,01E2402C,true,Rx,1,8,0F,50,00,0F,C2,10,29,10,
10169198,0042401E,true,Rx,1,8,07,CA,40,96,4C,00,80,00,
10169770,0062401E,true,Rx,1,8,00,00,5C,00,7C,00,60,00,
10170636,0162402A,true,Rx,1,8,00,8D,72,04,80,00,80,00,
10171210,00224024,true,Rx,1,8,AC,A1,00,00,C5,FF,B8,00,
10171774,00A24026,true,Rx,1,8,CA,BF,00,80,00,00,00,00,
10172359,00C24000,true,Rx,1,8,40,00,80,00,C0,00,C0,00,
10172935,01C24006,true,Rx,1,8,4C,00,00,00,F0,1F,00,00,
10178044,00C24000,true,Rx,1,8,40,00,80,00,C0,00,C0,00,
10178624,02220002,true,Rx,1,8,40,FE,C0,00,00,00,00,00,
10179230,0042401E,true,Rx,1,8,47,CA,40,96,4C,00,80,00,
10179806,0062401E,true,Rx,1,8,40,00,5C,00,7C,00,60,00,
10180349,01400002,true,Rx,1,8,40,00,A6,CD,91,57,CD,0A,
10180934,0162402A,true,Rx,1,8,00,7D,82,04,80,00,80,00,
10181519,02000014,true,Rx,1,8,40,00,00,00,00,20,00,00,
10185056,00224024,true,Rx,1,8,A4,A1,00,00,C5,FF,B8,00,
10185636,00A24026,true,Rx,1,8,0A,BF,00,80,00,00,00,00,
10186211,00C24000,true,Rx,1,8,40,00,80,00,C0,00,C0,00,
10187116,01E2402C,true,Rx,1,8,4F,50,00,0F,C2,10,29,10,
10187681,02620028,true,Rx,1,8,48,0C,00,41,F0,5F,45,3B,
10189187,0042401E,true,Rx,1,8,87,CA,40,96,4C,00,80,00,
10189763,0062401E,true,Rx,1,8,80,00,5C,00,7C,00,60,00,
10190639,0162402A,true,Rx,1,8,00,6D,92,04,80,00,80,00,
10192106,00C24000,true,Rx,1,8,40,00,80,00,C0,00,C0,00,
10192682,01C24006,true,Rx,1,8,88,00,00,00,F0,1D,00,00,
10199027,00224024,true,Rx,1,8,AC,A1,00,00,C5,FF,B8,00,
10199588,0042401E,true,Rx,1,8,C7,CA,40,96,4C,00,80,00,
10200161,0062401E,true,Rx,1,8,C0,00,5C,00,7C,00,60,00,
10200737,00A24026,true,Rx,1,8,4E,BF,00,80,00,00,00,00,
10201312,00C24000,true,Rx,1,8,40,00,80,00,C0,00,C0,00,
10201868,01400002,true,Rx,1,8,80,00,A6,CD,91,57,CD,0A,
10202451,00E00024,true,Rx,1,8,80,00,00,00,00,00,3F,40,
10203027,0162402A,true,Rx,1,8,00,5D,A2,04,80,00,80,00,
10203615,02000014,true,Rx,1,8,80,00,00,00,00,20,00,00,
10204159,0242C07C,true,Rx,1,8,02,51,5C,52,69,06,DC,BC,
10204723,02800006,true,Rx,1,8,C1,2B,AF,0D,00,4C,00,00,
10206097,00C24000,true,Rx,1,8,40,00,80,00,C0,00,C0,00,
10207623,01E2402C,true,Rx,1,8,8F,50,00,0F,C2,10,29,10,
10210632,0162402A,true,Rx,1,8,00,4D,B2,04,80,00,80,00,
10211203,0042401E,true,Rx,1,8,07,CA,40,96,4C,00,80,00,
10211778,0062401E,true,Rx,1,8,00,00,5C,00,7C,00,60,00,
10213089,00224024,true,Rx,1,8,A4,A1,00,00,C5,FF,B8,00,
10213665,00A24026,true,Rx,1,8,8A,BF,00,80,00,00,00,00,
10214239,00C24000,true,Rx,1,8,40,00,80,00,C0,00,C0,00,
10214813,01C24006,true,Rx,1,8,CC,00,00,00,F0,20,00,00,
10215398,02220002,true,Rx,1,8,C0,FE,C0,00,00,00,00,00,
10217601,02620028,true,Rx,1,8,88,0C,00,41,F0,5F,45,3B,
10219240,0042401E,true,Rx,1,8,47,CA,40,96,4C,00,80,00,
10219816,0062401E,true,Rx,1,8,40,00,5C,00,7C,00,60,00,
10220390,00C24000,true,Rx,1,8,40,00,80,00,C0,00,C0,00,
10220944,01400002,true,Rx,1,8,C0,00,A6,CD,91,57,CD,0A,
10221511,0162402A,true,Rx,1,8,00,3D,C2,04,80,00,80,00,
10222097,02000014,true,Rx,1,8,C0,00,00,00,00,20,00,00,
10227075,00224024,true,Rx,1,8,AC,A1,00,00,C5,FF,B8,00,
10227647,00A24026,true,Rx,1,8,CA,BF,00,80,00,00,00,00,
10228221,00C24000,true,Rx,1,8,40,00,80,00,C0,00,C0,00,
10228787,01E2402C,true,Rx,1,8,CF,50,00,0F,C2,10,29,10,
10229350,0042401E,true,Rx,1,8,87,CA,40,96,4C,00,80,00,
10229925,0062401E,true,Rx,1,8,80,00,5C,00,7C,00,60,00,
10230635,0162402A,true,Rx,1,8,00,2D,D2,04,80,00,80,00,
10234099,00C24000,true,Rx,1,8,40,00,80,00,C0,00,C0,00,
10234679,01C24006,true,Rx,1,8,0C,00,00,00,F0,1E,00,00,
10239240,0042401E,true,Rx,1,8,C7,CA,40,96,4C,00,80,00,
10239812,0062401E,true,Rx,1,8,C0,00,5C,00,7C,00,60,00,
10240366,01400002,true,Rx,1,8,00,00,A6,CD,91,57,CD,0A,
10240940,0162402A,true,Rx,1,8,00,1D,E2,04,80,00,80,00,
10241505,00224024,true,Rx,1,8,A4,A1,00,00,C5,FF,B8,00,
10242080,00A24026,true,Rx,1,8,0A,BF,00,80,00,00,00,00,
10242656,00C24000,true,Rx,1,8,40,00,80,00,C0,00,C0,00,
10243249,02000014,true,Rx,1,8,00,00,00,00,00,20,00,00,
10247145,01E2402C,true,Rx,1,8,0F,50,00,0F,C2,10,29,10,
10247715,02620028,true,Rx,1,8,C8,0C,00,41,F0,5F,45,3B,
10248290,00C24000,true,Rx,1,8,40,00,80,00,C0,00,C0,00,
10248865,02220002,true,Rx,1,8,40,FE,C0,00,00,00,00,00,
10249440,0042401E,true,Rx,1,8,07,CA,40,96,4C,00,80,00,
10250015,0062401E,true,Rx,1,8,00,00,5C,00,7C,00,60,00,
10250581,02800006,true,Rx,1,8,01,2B,AF,0D,00,4C,00,00,
10251155,0162402A,true,Rx,1,8,00,0D,F2,04,80,00,80,00,
10251733,03200002,true,Rx,1,8,CC,96,60,00,00,00,00,00,
10252316,03400002,true,Rx,1,8,00,00,00,18,00,00,00,00,
10255101,00224024,true,Rx,1,8,AC,A1,00,00,C5,FF,B8,00,
10255672,00A24026,true,Rx,1,8,4E,BF,00,80,00,00,00,00,
10256245,00C24000,true,Rx,1,8,40,00,80,00,C0,00,C0,00,
10256821,01C24006,true,Rx,1,8,4C,00,00,00,F0,1E,00,00,
10259232,0042401E,true,Rx,1,8,47,CA,40,96,4C,00,80,00,
10259804,0062401E,true,Rx,1,8,40,00,5C,00,7C,00,60,00,
10260358,01400002,true,Rx,1,8,40,00,A6,CD,91,57,CD,0A,
10260944,0162402A,true,Rx,1,8,00,FD,02,04,80,00,80,00,
10261528,02000014,true,Rx,1,8,40,00,00,00,00,20,00,00,
10262113,00C24000,true,Rx,1,8,40,00,80,00,C0,00,C0,00,
10267145,01E2402C,true,Rx,1,8,4F,50,00,0F,C2,10,29,10,
10269065,00224024,true,Rx,1,8,A4,A1,00,00,C5,FF,B8,00,
10269626,0042401E,true,Rx,1,8,87,CA,40,96,4C,00,80,00,
10270201,0062401E,true,Rx,1,8,80,00,5C,00,7C,00,60,00,
10270765,00A24026,true,Rx,1,8,8A,BF,00,80,00,00,00,00,
10271339,00C24000,true,Rx,1,8,40,00,80,00,C0,00,C0,00,
10271915,0162402A,true,Rx,1,8,00,ED,12,04,80,00,80,00,
10272500,00E00024,true,Rx,1,8,C0,00,00,00,00,00,3F,60,
10276118,00C24000,true,Rx,1,8,40,00,80,00,C0,00,C0,00,
10276700,01C24006,true,Rx,1,8,88,00,00,00,F0,20,00,00,
10277264,02620028,true,Rx,1,8,08,0C,00,41,F0,5F,45,3B,
10279239,0042401E,true,Rx,1,8,C7,CA,40,96,4C,00,80,00,
10279805,0062401E,true,Rx,1,8,C0,00,5C,00,7C,00,60,00,
10280367,01400002,true,Rx,1,8,80,00,A6,CD,91,57,CD,0A,
10280932,0162402A,true,Rx,1,8,00,DD,22,04,80,00,80,00,
10281516,02000014,true,Rx,1,8,80,00,00,00,00,20,00,00,
10283087,00224024,true,Rx,1,8,AC,A1,00,00,C5,FF,B8,00,
10283663,00A24026,true,Rx,1,8,CA,BF,00,80,00,00,00,00,
10284236,00C24000,true,Rx,1,8,40,00,80,00,C0,00,C0,00,
10284822,02220002,true,Rx,1,8,40,FE,C0,00,00,00,00,00,
10287365,01E2402C,true,Rx,1,8,8F,50,00,0F,C2,11,29,10,
10289161,0042401E,true,Rx,1,8,07,CA,40,96,4C,00,80,00,
10289737,0062401E,true,Rx,1,8,00,00,5C,00,7C,00,60,00,
10290320,00C24000,true,Rx,1,8,40,00,80,00,C0,00,C0,00,
10290885,0162402A,true,Rx,1,8,00,CD,32,04,80,00,80,00,
10297197,00224024,true,Rx,1,8,A4,A1,00,00,C5,FF,B8,00,
10297768,00A24026,true,Rx,1,8,0A,BF,00,80,00,00,00,00,
10298353,00C24000,true,Rx,1,8,40,00,80,00,C0,00,C0,00,
10298918,01C24006,true,Rx,1,8,CC,00,00,00,F0,1E,00,00,
10299483,0042401E,true,Rx,1,8,47,CA,40,96,4C,00,80,00,
10300057,0062401E,true,Rx,1,8,40,00,5C,00,7C,00,60,00,
10300602,01400002,true,Rx,1,8,C0,00,A6,CD,91,57,CD,0A,
10301176,0162402A,true,Rx,1,8,00,BD,42,04,80,00,80,00,
10301764,02000014,true,Rx,1,8,C0,00,00,00,00,20,00,00,
10302327,02800006,true,Rx,1,8,41,2B,AF,0D,00,4C,00,00,
10304250,00C24000,true,Rx,1,8,40,00,80,00,C0,00,C0,00,
10307386,01E2402C,true,Rx,1,8,CF,50,00,0F,C2,10,29,10,
10307958,02620028,true,Rx,1,8,40,0C,00,41,F0,5F,45,3B,
10309155,0042401E,true,Rx,1,8,87,CA,40,96,4C,00,80,00,
10309729,0062401E,true,Rx,1,8,80,00,5C,00,7C,00,60,00,
10310625,0162402A,true,Rx,1,8,00,AD,52,04,80,00,80,00,
10311221,00224024,true,Rx,1,8,AC,A1,00,00,C5,FF,B8,00,
10311797,00A24026,true,Rx,1,8,4E,BF,00,80,00,00,00,00,
10312381,00C24000,true,Rx,1,8,40,00,80,00,C0,00,C0,00,
10318224,00C24000,true,Rx,1,8,40,00,80,00,C0,00,C0,00,
10318795,01C24006,true,Rx,1,8,0C,00,00,00,F0,1E,00,00,
10319359,0042401E,true,Rx,1,8,C7,CA,40,96,4C,00,80,00,
10319934,0062401E,true,Rx,1,8,C0,00,5C,00,7C,00,60,00,
10320488,01400002,true,Rx,1,8,00,00,A6,CD,91,57,CD,0A,
10321063,0162402A,true,Rx,1,8,00,9D,62,04,80,00,80,00,
10321660,02000014,true,Rx,1,8,00,00,00,00,00,20,00,00,
10322233,02220002,true,Rx,1,8,40,FE,C0,00,00,00,00,00,
10325252,00224024,true,Rx,1,8,A4,A1,00,00,C5,FF,B8,00,
10325824,00A24026,true,Rx,1,8,8A,BF,00,80,00,00,00,00,
10326398,00C24000,true,Rx,1,8,40,00,80,00,C0,00,C0,00,
10327324,01E2402C,true,Rx,1,8,0F,50,00,0F,C2,10,29,10,
10329207,0042401E,true,Rx,1,8,07,CA,40,96,4C,00,80,00,
10329781,0062401E,true,Rx,1,8,00,00,5C,00,7C,00,60,00,
10330625,0162402A,true,Rx,1,8,00,8D,72,04,80,00,80,00,
10332277,00C24000,true,Rx,1,8,40,00,80,00,C0,00,C0,00,
10336961,02620028,true,Rx,1,8,88,0C,00,41,F0,5F,45,3B,
10339204,00224024,true,Rx,1,8,AC,A1,00,00,C5,FF,B8,00,
10339765,0042401E,true,Rx,1,8,47,CA,40,96,4C,00,80,00,
10340340,0062401E,true,Rx,1,8,40,00,5C,00,7C,00,60,00,
10340915,00A24026,true,Rx,1,8,CA,BF,00,80,00,00,00,00,
10341489,00C24000,true,Rx,1,8,40,00,80,00,C0,00,C0,00,
10342033,01400002,true,Rx,1,8,40,00,A6,CD,91,57,CD,0A,
10342630,00E00024,true,Rx,1,8,00,00,00,00,00,00,3F,80,
10343204,0162402A,true,Rx,1,8,00,7D,82,04,80,00,80,00,
10343791,01C24006,true,Rx,1,8,4C,00,00,00,F0,1F,00,00,
10344376,02000014,true,Rx,1,8,40,00,00,00,00,20,00,00,
10346371,00C24000,true,Rx,1,8,40,00,80,00,C0,00,C0,00,
10346947,03200002,true,Rx,1,8,DC,96,60,00,00,00,00,00,
10347518,01E2402C,true,Rx,1,8,4F,50,00,0F,C2,10,29,10,
10348105,03400002,true,Rx,1,8,00,00,01,18,00,00,00,00,
10349187,0042401E,true,Rx,1,8,87,CA,40,96,4C,00,80,00,
10349763,0062401E,true,Rx,1,8,80,00,5C,00,7C,00,60,00,
10350327,02800006,true,Rx,1,8,81,2B,AF,0D,00,4C,00,00,
10350893,0162402A,true,Rx,1,8,00,6D,92,04,80,00,80,00,
10353283,00224024,true,Rx,1,8,A4,A1,00,00,C5,FF,B8,00,
10353855,00A24026,true,Rx,1,8,0A,BF,00,80,00,00,00,00,
10354428,00C24000,true,Rx,1,8,40,00,80,00,C0,00,C0,00,
10355014,02220002,true,Rx,1,8,C0,FE,C0,00,00,00,00,00,
10359229,0042401E,true,Rx,1,8,C7,CA,40,96,4C,00,80,00,
10359800,0062401E,true,Rx,1,8,C0,00,5C,00,7C,00,60,00,
10360374,00C24000,true,Rx,1,8,40,00,80,00,C0,00,C0,00,
10360929,01400002,true,Rx,1,8,80,00,A6,CD,91,57,CD,0A,
10361502,0162402A,true,Rx,1,8,00,5D,A2,04,80,00,80,00,
10362078,01C24006,true,Rx,1,8,88,00,00,00,F0,20,00,00,
10362674,02000014,true,Rx,1,8,80,00,00,00,00,20,00,00,
10367094,01E2402C,true,Rx,1,8,8F,50,00,0F,C2,10,29,10,
10367654,00224024,true,Rx,1,8,AC,A1,00,00,C5,FF,B8,00,
10368239,00A24026,true,Rx,1,8,4E,BF,00,80,00,00,00,00,
10368814,00C24000,true,Rx,1,8,40,00,80,00,C0,00,C0,00,
10369379,02620028,true,Rx,1,8,C8,0C,00,41,F0,5F,45,3B,
10370628,0162402A,true,Rx,1,8,00,4D,B2,04,80,00,80,00,
10371190,0042401E,true,Rx,1,8,07,CA,40,96,4C,00,80,00,
10371767,0062401E,true,Rx,1,8,00,00,5C,00,7C,00,60,00,
10374300,00C24000,true,Rx,1,8,40,00,80,00,C0,00,C0,00,
10379229,0042401E,true,Rx,1,8,47,CA,40,96,4C,00,80,00,
10379799,0062401E,true,Rx,1,8,40,00,5C,00,7C,00,60,00,
10380352,01400002,true,Rx,1,8,C0,00,A6,CD,91,57,CD,0A,
10380918,0162402A,true,Rx,1,8,00,3D,C2,04,80,00,80,00,
10381481,00224024,true,Rx,1,8,A4,A1,00,00,C5,FF,B8,00,
10382057,00A24026,true,Rx,1,8,8A,BF,00,80,00,00,00,00,
10382632,00C24000,true,Rx,1,8,40,00,80,00,C0,00,C0,00,
10383207,01C24006,true,Rx,1,8,CC,00,00,00,F0,1F,00,00,
10383795,02000014,true,Rx,1,8,C0,00,00,00,00,20,00,00,
10387386,01E2402C,true,Rx,1,8,CF,50,00,0F,C2,10,29,10,
10388278,00C24000,true,Rx,1,8,40,00,80,00,C0,00,C0,00,
10388854,02220002,true,Rx,1,8,40,FE,C0,00,00,00,00,00,
10389418,0042401E,true,Rx,1,8,87,CA,40,96,4C,00,80,00,
10389994,0062401E,true,Rx,1,8,80,00,5C,00,7C,00,60,00,
10390620,0162402A,true,Rx,1,8,00,2D,D2,04,80,00,80,00,
10395285,00224024,true,Rx,1,8,AC,A1,00,00,C5,FF,B8,00,
10395857,00A24026,true,Rx,1,8,CA,BF,00,80,00,00,00,00,
10396432,00C24000,true,Rx,1,8,40,00,80,00,C0,00,C0,00,
10397007,02620028,true,Rx,1,8,08,0C,00,41,F0,5F,45,3B,
10399232,0042401E,true,Rx,1,8,C7,CA,40,96,4C,00,80,00,
10399803,0062401E,true,Rx,1,8,C0,00,5C,00,7C,00,60,00,
10400367,01400002,true,Rx,1,8,00,00,A6,CD,91,57,CD,0A,
10400934,0162402A,true,Rx,1,8,00,1D,E2,04,80,00,80,00,
10401529,02000014,true,Rx,1,8,00,00,00,00,00,20,00,00,
10402093,02800006,true,Rx,1,8,C1,2B,AF,0D,00,4C,00,00,
10402669,00C24000,true,Rx,1,8,40,00,80,00,C0,00,C0,00,
10403253,01C24006,true,Rx,1,8,0C,00,00,00,F0,1F,00,00,
10407366,01E2402C,true,Rx,1,8,0F,50,00,0F,C2,10,29,10,
10409120,0042401E,true,Rx,1,8,07,CA,40,96,4C,00,80,00,
10409681,00224024,true,Rx,1,8,A4,A1,00,00,C5,FF,B8,00,
10410255,0062401E,true,Rx,1,8,00,00,5C,00,7C,00,60,00,
10410831,00A24026,true,Rx,1,8,0A,BF,00,80,00,00,00,00,
10411414,00C24000,true,Rx,1,8,40,00,80,00,C0,00,C0,00,
10411992,0162402A,true,Rx,1,8,00,0D,F2,04,80,00,80,00,
10412578,00E00024,true,Rx,1,8,40,00,00,00,00,00,3F,A0,
10416317,00C24000,true,Rx,1,8,40,00,80,00,C0,00,C0,00,
10419236,0042401E,true,Rx,1,8,47,CA,40,96,4C,00,80,00,
10419806,0062401E,true,Rx,1,8,40,00,5C,00,7C,00,60,00,
10420360,01400002,true,Rx,1,8,40,00,A6,CD,91,57,CD,0A,
10420935,0162402A,true,Rx,1,8,00,FD,02,04,80,00,80,00,
10421520,02000014,true,Rx,1,8,40,00,00,00,00,20,00,00,
10423295,00224024,true,Rx,1,8,AC,A1,00,00,C5,FF,B8,00,
10423860,00A24026,true,Rx,1,8,4E,BF,00,80,00,00,00,00,
10424433,00C24000,true,Rx,1,8,40,00,80,00,C0,00,C0,00,
10425009,01C24006,true,Rx,1,8,4C,00,00,00,F0,21,00,00,
10425587,02220002,true,Rx,1,8,40,FE,C0,00,00,00,00,00,
10427292,01E2402C,true,Rx,1,8,4F,50,00,2F,C2,10,29,10,
10427855,02620028,true,Rx,1,8,40,0C,00,C5,F0,5F,45,3B,
10429103,0042401E,true,Rx,1,8,87,CA,40,96,4C,00,80,00,
10429677,0062401E,true,Rx,1,8,80,00,5C,00,7C,00,60,00,
10430272,00C24000,true,Rx,1,8,40,00,80,00,C0,00,C0,00,
10430848,0162402A,true,Rx,1,8,00,ED,12,04,80,00,80,00,
10437291,00224024,true,Rx,1,8,A4,A1,00,00,C5,FF,B8,00,
10437852,00A24026,true,Rx,1,8,8A,BF,00,80,00,00,00,00,
10438427,00C24000,true,Rx,1,8,40,00,80,00,C0,00,C0,00,
10439230,0042401E,true,Rx,1,8,C7,CA,40,96,4C,00,80,00,
10439805,0062401E,true,Rx,1,8,C0,00,5C,00,7C,00,60,00,
10440358,01400002,true,Rx,1,8,80,00,A6,CD,91,57,CD,0A,
10440924,0162402A,true,Rx,1,8,00,DD,22,04,80,00,80,00,
10441509,02000014,true,Rx,1,8,80,00,00,00,00,20,00,00,
10444383,00C24000,true,Rx,1,8,40,00,80,00,C0,00,C0,00,
10444958,01C24006,true,Rx,1,8,88,00,00,00,F0,20,00,00,
10445531,03200002,true,Rx,1,8,EC,96,60,00,00,00,00,00,
10446117,03400002,true,Rx,1,8,00,00,02,18,00,00,00,00,
10447477,01E2402C,true,Rx,1,8,8F,50,00,0F,C2,10,29,10,
10449163,0042401E,true,Rx,1,8,07,CA,40,96,4C,00,80,00,
10449736,0062401E,true,Rx,1,8,00,00,5C,00,7C,00,60,00,
10450300,02800006,true,Rx,1,8,01,2B,AF,0D,00,4C,00,00,
10450876,0162402A,true,Rx,1,8,00,CD,32,04,80,00,80,00,
10451440,00224024,true,Rx,1,8,AC,A1,00,00,C5,FF,B8,00,
10452016,00A24026,true,Rx,1,8,CA,BF,00,80,00,00,00,00,
10452592,00C24000,true,Rx,1,8,40,00,80,00,C0,00,C0,00,
10457123,02620028,true,Rx,1,8,88,0C,00,43,F0,5F,45,3B,
10458307,00C24000,true,Rx,1,8,40,00,80,00,C0,00,C0,00,
10458891,02220002,true,Rx,1,8,C0,FE,C0,00,00,00,00,00,
10459443,0042401E,true,Rx,1,8,47,CA,40,96,4C,00,80,00,
10460019,0062401E,true,Rx,1,8,40,00,5C,00,7C,00,60,00,
10460573,01400002,true,Rx,1,8,C0,00,A6,CD,91,57,CD,0A,
10461137,0162402A,true,Rx,1,8,00,BD,42,04,80,00,80,00,
10461725,02000014,true,Rx,1,8,C0,00,00,00,00,20,00,00,
10465791,00224024,true,Rx,1,8,A4,A1,00,00,C5,FF,B8,00,
10466362,00A24026,true,Rx,1,8,0A,BF,00,80,00,00,00,00,
10466938,00C24000,true,Rx,1,8,40,00,80,00,C0,00,C0,00,
10467522,01C24006,true,Rx,1,8,CC,00,B0,00,F0,1F,00,00,
10468087,01E2402C,true,Rx,1,8,CF,50,00,0F,C2,10,29,10,
10469151,0042401E,true,Rx,1,8,87,CA,40,96,4C,00,80,00,
10469726,0062401E,true,Rx,1,8,80,00,5C,00,7C,00,60,00,
10470623,0162402A,true,Rx,1,8,00,AD,52,04,80,00,80,00,
10472916,00C24000,true,Rx,1,8,40,00,80,00,C0,00,C0,00,
10479222,0042401E,true,Rx,1,8,C7,CA,40,96,4C,00,80,00,
10479793,0062401E,true,Rx,1,8,C0,00,5C,00,7C,00,60,00,
10480367,00224024,true,Rx,1,8,AC,A1,00,00,C5,FF,B8,00,
10480934,00A24026,true,Rx,1,8,4E,BF,00,80,00,00,00,00,
10481519,00C24000,true,Rx,1,8,40,00,80,00,C0,00,C0,00,
10482072,01400002,true,Rx,1,8,00,00,A6,CD,91,57,CD,0A,
10482658,00E00024,true,Rx,1,8,80,00,00,00,00,00,3F,C0,
10483222,0162402A,true,Rx,1,8,00,9D,62,04,80,00,80,00,
10483821,02000014,true,Rx,1,8,00,00,00,00,00,20,00,00,
10484394,0242C07C,true,Rx,1,8,13,01,01,01,01,02,01,04,
10486910,00C24000,true,Rx,1,8,40,00,80,00,C0,00,C0,00,
10487490,01C24006,true,Rx,1,8,0C,00,B0,00,F0,1F,00,00,
10488054,01E2402C,true,Rx,1,8,0F,50,00,0F,C2,11,29,10,
10488620,02620028,true,Rx,1,8,C8,0C,00,41,F0,5F,45,3B,
10489184,0042401E,true,Rx,1,8,07,CA,40,96,4C,00,80,00,
10489761,0062401E,true,Rx,1,8,00,00,5C,00,7C,00,60,00,
10490617,0162402A,true,Rx,1,8,00,8D,72,04,80,00,80,00,
10493885,00224024,true,Rx,1,8,A4,A1,00,00,C5,FF,B8,00,
10494455,00A24026,true,Rx,1,8,8A,BF,00,80,00,00,00,00,
10495030,00C24000,true,Rx,1,8,40,00,80,00,C0,00,C0,00,
10495616,02220002,true,Rx,1,8,40,FE,F0,00,00,00,00,00,
10499230,0042401E,true,Rx,1,8,47,CA,40,96,4C,00,80,00,
10499801,0062401E,true,Rx,1,8,40,00,5C,00,7C,00,60,00,
10500354,01400002,true,Rx,1,8,40,00,A6,CD,91,57,CD,0A,
10500929,00C24000,true,Rx,1,8,40,00,80,00,C0,00,C0,00,
10501514,0162402A,true,Rx,1,8,00,7D,82,04,80,00,80,00,
10502100,02000014,true,Rx,1,8,40,00,00,00,00,20,00,00,
10502665,02800006,true,Rx,1,8,41,2B,AF,0D,00,4C,00,00,
10507515,01E2402C,true,Rx,1,8,4F,50,00,0F,C2,10,29,10,
10508086,00224024,true,Rx,1,8,AC,A1,00,00,C5,FF,B8,00,
10508651,00A24026,true,Rx,1,8,CA,BF,00,80,00,00,00,00,
10509215,0042401E,true,Rx,1,8,87,CA,40,96,4C,00,80,00,
10509791,0062401E,true,Rx,1,8,80,00,5C,00,7C,00,60,00,
10510364,00C24000,true,Rx,1,8,40,00,80,00,C0,00,C0,00,
10510940,0162402A,true,Rx,1,8,00,6D,92,04,80,00,80,00,
10511514,01C24006,true,Rx,1,8,4C,00,90,00,F0,1F,00,00,
10514903,00C24000,true,Rx,1,8,40,00,80,00,C0,00,C0,00,
10517011,02620028,true,Rx,1,8,08,0C,00,41,F0,5F,45,3B,
10519224,0042401E,true,Rx,1,8,C7,CA,40,96,4C,00,80,00,
10519796,0062401E,true,Rx,1,8,C0,00,5C,00,7C,00,60,00,
10520358,01400002,true,Rx,1,8,80,00,A6,CD,91,57,CD,0A,
10520924,0162402A,true,Rx,1,8,00,5D,A2,04,80,00,80,00,
10521509,02000014,true,Rx,1,8,80,00,00,00,00,20,00,00,
10522074,00224024,true,Rx,1,8,A4,A1,00,00,C5,FF,B8,00,
10522659,00A24026,true,Rx,1,8,0A,BF,00,80,00,00,00,00,
10523233,00C24000,true,Rx,1,8,40,00,80,00,C0,00,C0,00,
10527158,01E2402C,true,Rx,1,8,8F,50,00,0F,C2,10,29,10,
10528880,00C24000,true,Rx,1,8,40,00,80,00,C0,00,C0,00,
10529451,01C24006,true,Rx,1,8,88,00,90,00,F0,1F,00,00,
10530037,02220002,true,Rx,1,8,40,FE,F0,00,00,00,00,00,
10530612,0162402A,true,Rx,1,8,00,4D,B2,04,80,00,80,00,
10531185,0042401E,true,Rx,1,8,07,CA,40,96,4C,00,80,00,
10531753,0062401E,true,Rx,1,8,00,00,5C,00,7C,00,60,00,
10535893,00224024,true,Rx,1,8,AC,A1,00,00,C5,FF,B8,00,
10536473,00A24026,true,Rx,1,8,4E,BF,00,80,00,00,00,00,
10537048,00C24000,true,Rx,1,8,40,00,80,00,C0,00,C0,00,
10539230,0042401E,true,Rx,1,8,47,CA,40,96,4C,00,80,00,
10539805,0062401E,true,Rx,1,8,40,00,5C,00,7C,00,60,00,
10540356,01400002,true,Rx,1,8,C0,00,A6,CD,91,57,CD,0A,
10540922,0162402A,true,Rx,1,8,00,3D,C2,04,80,00,80,00,
10541507,02000014,true,Rx,1,8,C0,00,00,00,00,20,00,00,
10542985,00C24000,true,Rx,1,8,40,00,80,00,C0,00,C0,00,
10543561,03200002,true,Rx,1,8,FC,96,60,00,00,00,00,00,
10544153,03400002,true,Rx,1,8,00,00,03,18,00,00,00,00,
10547713,01E2402C,true,Rx,1,8,CF,50,00,0F,C2,30,29,10,
10548284,02620028,true,Rx,1,8,40,0C,00,41,F0,5F,45,3B,
10549149,0042401E,true,Rx,1,8,87,CA,40,96,4C,00,80,00,
10549725,0062401E,true,Rx,1,8,80,00,5C,00,7C,00,60,00,
10550288,00224024,true,Rx,1,8,A4,A1,00,00,C5,FF,B8,00,
10550853,00A24026,true,Rx,1,8,8A,BF,00,80,00,00,00,00,
10551438,00C24000,true,Rx,1,8,40,00,80,00,C0,00,C0,00,
10552003,0162402A,true,Rx,1,8,00,2D,D2,04,80,00,80,00,
10552580,00E00024,true,Rx,1,8,C0,00,00,00,00,00,3F,E0,
10553155,01C24006,true,Rx,1,8,CC,00,90,00,F0,1F,00,00,
10553720,02800006,true,Rx,1,8,81,2B,AF,0D,00,4C,00,00,
10556954,00C24000,true,Rx,1,8,40,00,80,00,C0,00,C0,00,
10559229,0042401E,true,Rx,1,8,C7,CA,40,96,4C,00,80,00,
10559801,0062401E,true,Rx,1,8,C0,00,5C,00,7C,00,60,00,
10560364,01400002,true,Rx,1,8,00,00,A6,CD,91,57,CD,0A,
10560940,0162402A,true,Rx,1,8,00,1D,E2,04,80,00,80,00,
10561537,02000014,true,Rx,1,8,00,00,00,00,00,20,00,00,
10563913,00224024,true,Rx,1,8,AC,A1,00,00,C5,FF,B8,00,
10564487,00A24026,true,Rx,1,8,CA,BF,00,80,00,00,00,00,
10565063,00C24000,true,Rx,1,8,40,00,80,00,C0,00,C0,00,
10565648,02220002,true,Rx,1,8,C0,FE,F0,00,00,00,00,00,
10567338,01E2402C,true,Rx,1,8,0F,50,00,0F,C2,10,29,10,
10569118,0042401E,true,Rx,1,8,07,CA,40,96,4C,00,80,00,
10569702,0062401E,true,Rx,1,8,00,00,5C,00,7C,00,60,00,
10570630,0162402A,true,Rx,1,8,00,0D,F2,04,80,00,80,00,
10571204,00C24000,true,Rx,1,8,40,00,80,00,C0,00,C0,00,
10571779,01C24006,true,Rx,1,8,0C,00,90,00,F0,1F,00,00,
10577012,02620028,true,Rx,1,8,88,0C,00,41,F0,5F,45,3B,
10577873,00224024,true,Rx,1,8,A4,A1,00,00,C5,FF,B8,00,
10578448,00A24026,true,Rx,1,8,0A,BF,00,80,00,00,00,00,
10579023,00C24000,true,Rx,1,8,40,00,80,00,C0,00,C0,00,
10579587,0042401E,true,Rx,1,8,47,CA,40,96,4C,00,80,00,
10580162,0062401E,true,Rx,1,8,40,00,5C,00,7C,00,60,00,
10580706,01400002,true,Rx,1,8,40,00,A6,CD,91,57,CD,0A,
10581291,0162402A,true,Rx,1,8,00,FD,02,04,80,00,80,00,
10581876,02000014,true,Rx,1,8,40,00,00,00,00,20,00,00,
10584939,00C24000,true,Rx,1,8,40,00,80,00,C0,00,C0,00,
10587140,01E2402C,true,Rx,1,8,4F,50,00,0F,C2,10,29,10,
10589102,0042401E,true,Rx,1,8,87,CA,40,96,4C,00,80,00,
10589674,0062401E,true,Rx,1,8,80,00,5C,00,7C,00,60,00,
10590612,0162402A,true,Rx,1,8,00,ED,12,04,80,00,80,00,
10591932,00224024,true,Rx,1,8,AC,A1,00,00,C5,FF,B8,00,
10592505,00A24026,true,Rx,1,8,4E,BF,00,80,00,00,00,00,
10593081,00C24000,true,Rx,1,8,40,00,80,00,C0,00,C0,00,
10593657,01C24006,true,Rx,1,8,4C,00,90,00,F0,1F,00,00,
10598890,00C24000,true,Rx,1,8,40,00,80,00,C0,00,C0,00,
10599449,0042401E,true,Rx,1,8,C7,CA,40,96,4C,00,80,00,
10600014,0062401E,true,Rx,1,8,C0,00,5C,00,7C,00,60,00,
10600569,01400002,true,Rx,1,8,80,00,A6,CD,91,57,CD,0A,
10601144,0162402A,true,Rx,1,8,00,DD,22,04,80,00,80,00,
10601728,02000014,true,Rx,1,8,80,00,00,00,00,20,00,00,
10602313,02220002,true,Rx,1,8,40,FE,F0,00,00,00,00,00,
10602868,02800006,true,Rx,1,8,C1,2B,AF,0D,00,4C,00,00,
10605918,00224024,true,Rx,1,8,A4,A1,00,00,C5,FF,B8,00,
10606487,00A24026,true,Rx,1,8,8A,BF,00,80,00,00,00,00,
10607063,00C24000,true,Rx,1,8,40,00,80,00,C0,00,C0,00,
10607618,01E2402C,true,Rx,1,8,8F,50,00,0F,C2,10,29,10,
10608182,02620028,true,Rx,1,8,C8,0C,00,41,F0,5F,45,3B,
10609162,0042401E,true,Rx,1,8,07,CA,40,96,4C,00,80,00,
10609737,0062401E,true,Rx,1,8,00,00,5C,00,7C,00,60,00,
10610613,0162402A,true,Rx,1,8,00,CD,32,04,80,00,80,00,
10612958,00C24000,true,Rx,1,8,40,00,80,00,C0,00,C0,00,
10613533,01C24006,true,Rx,1,8,88,00,90,00,F0,1F,00,00,
10619226,0042401E,true,Rx,1,8,47,CA,40,96,4C,00,80,00,
10619797,0062401E,true,Rx,1,8,40,00,5C,00,7C,00,60,00,
10620362,00224024,true,Rx,1,8,AC,A1,00,00,C5,FF,B8,00,
10620936,00A24026,true,Rx,1,8,CA,BF,00,80,00,00,00,00,
10621511,00C24000,true,Rx,1,8,40,00,80,00,C0,00,C0,00,
10622066,01400002,true,Rx,1,8,C0,00,A6,CD,91,57,CD,0A,
10622662,00E00024,true,Rx,1,8,00,00,00,00,00,00,3F,00,
10623225,0162402A,true,Rx,1,8,00,BD,42,04,80,00,80,00,
10623814,02000014,true,Rx,1,8,C0,00,00,00,00,20,00,00,
10626948,00C24000,true,Rx,1,8,40,00,80,00,C0,00,C0,00,
10627508,01E2402C,true,Rx,1,8,CF,50,00,0F,C2,10,29,10,
10629152,0042401E,true,Rx,1,8,87,CA,40,96,4C,00,80,00,
10629727,0062401E,true,Rx,1,8,80,00,5C,00,7C,00,60,00,
10630613,0162402A,true,Rx,1,8,00,AD,52,04,80,00,80,00,
10633933,00224024,true,Rx,1,8,A4,A1,00,00,C5,FF,B8,00,
10634504,00A24026,true,Rx,1,8,0A,BF,00,80,00,00,00,00,
10635079,00C24000,true,Rx,1,8,40,00,80,00,C0,00,C0,00,
10635653,01C24006,true,Rx,1,8,CC,00,90,00,F0,1F,00,00,
10636239,02220002,true,Rx,1,8,40,FE,F0,00,00,00,00,00,
10637187,02620028,true,Rx,1,8,08,0C,00,41,F0,5F,45,3B,
10639223,0042401E,true,Rx,1,8,C7,CA,40,96,4C,00,80,00,
10639789,0062401E,true,Rx,1,8,C0,00,5C,00,7C,00,60,00,
10640351,01400002,true,Rx,1,8,00,00,A6,CD,91,57,CD,0A,
10640925,0162402A,true,Rx,1,8,00,9D,62,04,80,00,80,00,
10641500,00C24000,true,Rx,1,8,40,00,80,00,C0,00,C0,00,
10642096,02000014,true,Rx,1,8,00,00,00,00,00,20,00,00,
10642672,03200002,true,Rx,1,8,CC,96,60,00,00,00,00,00,
10643256,03400002,true,Rx,1,8,00,00,00,18,00,00,00,00,
10647612,01E2402C,true,Rx,1,8,0F,50,00,0F,C2,10,29,10,
10648183,00224024,true,Rx,1,8,AC,A1,00,00,C5,FF,B8,00,
10648758,00A24026,true,Rx,1,8,4E,BF,00,80,00,00,00,00,
10649331,0042401E,true,Rx,1,8,07,CA,40,96,4C,00,80,00,
10649907,0062401E,true,Rx,1,8,00,00,5C,00,7C,00,60,00,
10650481,00C24000,true,Rx,1,8,40,00,80,00,C0,00,C0,00,
10651046,0162402A,true,Rx,1,8,00,8D,72,04,80,00,80,00,
10651611,02800006,true,Rx,1,8,01,2B,AF,0D,00,4C,00,00,
10654958,00C24000,true,Rx,1,8,40,00,80,00,C0,00,C0,00,
10655538,01C24006,true,Rx,1,8,0C,00,90,00,F0,1F,00,00,
10659235,0042401E,true,Rx,1,8,47,CA,40,96,4C,00,80,00,
10659807,0062401E,true,Rx,1,8,40,00,5C,00,7C,00,60,00,
10660361,01400002,true,Rx,1,8,40,00,A6,CD,91,57,CD,0A,
10660935,0162402A,true,Rx,1,8,00,7D,82,04,80,00,80,00,
10661520,02000014,true,Rx,1,8,40,00,00,00,00,20,00,00,
10662085,00224024,true,Rx,1,8,A4,A1,00,00,C5,FF,B8,00,
10662661,00A24026,true,Rx,1,8,8A,BF,00,80,00,00,00,00,
10663234,00C24000,true,Rx,1,8,40,00,80,00,C0,00,C0,00,
10667245,01E2402C,true,Rx,1,8,4F,50,00,0F,C2,10,29,10,
10667815,02620028,true,Rx,1,8,40,0C,00,41,F0,5F,45,3B,
10668940,00C24000,true,Rx,1,8,40,00,80,00,C0,00,C0,00,
10669503,0042401E,true,Rx,1,8,87,CA,40,96,4C,00,80,00,
10670077,0062401E,true,Rx,1,8,80,00,5C,00,7C,00,60,00,
10670653,0162402A,true,Rx,1,8,00,6D,92,04,80,00,80,00,
10671238,02220002,true,Rx,1,8,C0,FE,F0,00,00,00,00,00,
10675952,00224024,true,Rx,1,8,AC,A1,00,00,C5,FF,B8,00,
10676522,00A24026,true,Rx,1,8,CA,BF,00,80,00,00,00,00,
10677096,00C24000,true,Rx,1,8,40,00,80,00,C0,00,C0,00,
10677672,01C24006,true,Rx,1,8,4C,00,90,00,F0,1F,00,00,
10679222,0042401E,true,Rx,1,8,C7,CA,40,96,4C,00,80,00,
10679797,0062401E,true,Rx,1,8,C0,00,5C,00,7C,00,60,00,
10680349,01400002,true,Rx,1,8,80,00,A6,CD,91,57,CD,0A,
10680924,0162402A,true,Rx,1,8,00,5D,A2,04,80,00,80,00,
10681509,02000014,true,Rx,1,8,80,00,00,00,00,20,00,00,
10682956,00C24000,true,Rx,1,8,40,00,80,00,C0,00,C0,00,
10687027,01E2402C,true,Rx,1,8,8F,50,00,0F,C2,11,29,10,
10689925,00224024,true,Rx,1,8,A4,A1,00,00,C5,FF,B8,00,
10690506,00A24026,true,Rx,1,8,0A,BF,00,80,00,00,00,00,
10691071,0042401E,true,Rx,1,8,07,CA,40,96,4C,00,80,00,
10691645,0062401E,true,Rx,1,8,00,00,5C,00,7C,00,60,00,
10692220,00C24000,true,Rx,1,8,40,00,80,00,C0,00,C0,00,
10692795,0162402A,true,Rx,1,8,00,4D,B2,04,80,00,80,00,
10697004,00C24000,true,Rx,1,8,40,00,80,00,C0,00,C0,00,
10697596,00E00024,true,Rx,1,8,40,00,00,00,00,00,3F,20,
10698160,01C24006,true,Rx,1,8,88,00,B0,00,F0,1F,00,00,
10698736,02620028,true,Rx,1,8,88,0C,00,41,F0,5F,45,3B,
10699288,0042401E,true,Rx,1,8,47,CA,40,96,4C,00,80,00,
10699864,0062401E,true,Rx,1,8,40,00,5C,00,7C,00,60,00,
10700418,01400002,true,Rx,1,8,C0,00,A6,CD,91,57,CD,0A,
10700983,0162402A,true,Rx,1,8,00,3D,C2,04,80,00,80,00,
10701571,02000014,true,Rx,1,8,C0,00,00,00,00,20,00,00,
10702135,02800006,true,Rx,1,8,41,2B,AF,0D,00,4C,00,00,
10703984,00224024,true,Rx,1,8,AC,A1,00,00,C5,FF,B8,00,
10704560,00A24026,true,Rx,1,8,4E,BF,00,80,00,00,00,00,
10705143,00C24000,true,Rx,1,8,40,00,80,00,C0,00,C0,00,
10705729,02220002,true,Rx,1,8,40,FE,F0,00,00,00,00,00,
10707598,01E2402C,true,Rx,1,8,CF,50,00,0F,C2,10,29,10,
10709144,0042401E,true,Rx,1,8,87,CA,40,96,4C,00,80,00,
10709721,0062401E,true,Rx,1,8,80,00,5C,00,7C,00,60,00,
10710607,0162402A,true,Rx,1,8,00,2D,D2,04,80,00,80,00,
10711181,00C24000,true,Rx,1,8,40,00,80,00,C0,00,C0,00,
10717948,00224024,true,Rx,1,8,A4,A1,00,00,C5,FF,B8,00,
10718517,00A24026,true,Rx,1,8,8A,BF,00,80,00,00,00,00,
10719092,00C24000,true,Rx,1,8,40,00,80,00,C0,00,C0,00,
10719648,0042401E,true,Rx,1,8,C7,CA,40,96,4C,00,80,00,
10720223,0062401E,true,Rx,1,8,C0,00,5C,00,7C,00,60,00,
10720787,01400002,true,Rx,1,8,00,00,A6,CD,91,57,CD,0A,
10721351,0162402A,true,Rx,1,8,00,1D,E2,04,80,00,80,00,
10721937,01C24006,true,Rx,1,8,CC,00,B0,00,F0,1F,00,00,
10722535,02000014,true,Rx,1,8,00,00,00,00,00,20,00,00,
10725006,00C24000,true,Rx,1,8,40,00,80,00,C0,00,C0,00,
10727060,01E2402C,true,Rx,1,8,0F,50,00,0F,C2,10,29,10,
10727615,02620028,true,Rx,1,8,C8,0C,00,41,F0,5F,45,3B,
10729101,0042401E,true,Rx,1,8,07,CA,40,96,4C,00,80,00,
10729676,0062401E,true,Rx,1,8,00,00,5C,00,7C,00,60,00,
10730623,0162402A,true,Rx,1,8,00,0D,F2,04,80,00,80,00,
10732007,00224024,true,Rx,1,8,AC,A1,00,00,C5,FF,B8,00,
10732580,00A24026,true,Rx,1,8,CA,BF,00,80,00,00,00,00,
10733154,00C24000,true,Rx,1,8,40,00,80,00,C0,00,C0,00,
10739041,00C24000,true,Rx,1,8,40,00,80,00,C0,00,C0,00,
10739602,0042401E,true,Rx,1,8,47,CA,40,96,4C,00,80,00,
10740177,0062401E,true,Rx,1,8,40,00,5C,00,7C,00,60,00,
10740720,01400002,true,Rx,1,8,40,00,A6,CD,91,57,CD,0A,
10741306,0162402A,true,Rx,1,8,00,FD,02,04,80,00,80,00,
10741882,01C24006,true,Rx,1,8,0C,00,B0,00,F0,1F,00,00,
10742466,02000014,true,Rx,1,8,40,00,00,00,00,20,00,00,
10743051,02220002,true,Rx,1,8,40,FE,F0,00,00,00,00,00,
10743619,03200002,true,Rx,1,8,DC,96,60,00,00,00,00,00,
10744214,03400002,true,Rx,1,8,00,00,01,18,00,00,00,00,
10746001,00224024,true,Rx,1,8,A4,A1,00,00,C5,FF,B8,00,
10746577,00A24026,true,Rx,1,8,0A,BF,00,80,00,00,00,00,
10747159,00C24000,true,Rx,1,8,40,00,80,00,C0,00,C0,00,
10748170,01E2402C,true,Rx,1,8,4F,50,00,0F,C2,10,29,10,
10749108,0042401E,true,Rx,1,8,87,CA,40,96,4C,00,80,00,
10749684,0062401E,true,Rx,1,8,80,00,5C,00,7C,00,60,00,
10750248,02800006,true,Rx,1,8,81,2B,AF,0D,00,4C,00,00,
10750812,0162402A,true,Rx,1,8,00,ED,12,04,80,00,80,00,
10753047,00C24000,true,Rx,1,8,40,00,80,00,C0,00,C0,00,
10756975,02620028,true,Rx,1,8,00,0C,00,41,F0,5F,45,3B,
10759219,0042401E,true,Rx,1,8,C7,CA,40,96,4C,00,80,00,
10759791,0062401E,true,Rx,1,8,C0,00,5C,00,7C,00,60,00,
10760355,00224024,true,Rx,1,8,AC,A1,00,00,C5,FF,B8,00,
10760931,00A24026,true,Rx,1,8,4E,BF,00,80,00,00,00,00,
10761514,00C24000,true,Rx,1,8,40,00,80,00,C0,00,C0,00,
10762069,01400002,true,Rx,1,8,80,00,A6,CD,91,57,CD,0A,
10762635,0162402A,true,Rx,1,8,00,DD,22,04,80,00,80,00,
10763209,01C24006,true,Rx,1,8,4C,00,B0,00,F0,1F,00,00,
10763796,02000014,true,Rx,1,8,80,00,00,00,00,20,00,00,
10767066,00C24000,true,Rx,1,8,40,00,80,00,C0,00,C0,00,
10767657,00E00024,true,Rx,1,8,80,00,00,00,00,00,3F,40,
10768211,01E2402C,true,Rx,1,8,8F,50,00,0F,C2,10,29,10,
10768786,0242C07C,true,Rx,1,8,18,01,01,03,02,12,06,01,
10769351,0042401E,true,Rx,1,8,07,CA,40,96,4C,00,80,00,
10769925,0062401E,true,Rx,1,8,00,00,5C,00,7C,00,60,00,
10770615,0162402A,true,Rx,1,8,00,CD,32,04,80,00,80,00,
10774065,00224024,true,Rx,1,8,A4,A1,00,00,C5,FF,B8,00,
10774635,00A24026,true,Rx,1,8,8A,BF,00,80,00,00,00,00,
10775210,00C24000,true,Rx,1,8,40,00,80,00,C0,00,C0,00,
10775796,02220002,true,Rx,1,8,C0,FE,F0,00,00,00,00,00,
10779219,0042401E,true,Rx,1,8,47,CA,40,96,4C,00,80,00,
10779790,0062401E,true,Rx,1,8,40,00,5C,00,7C,00,60,00,
10780344,01400002,true,Rx,1,8,C0,00,A6,CD,91,57,CD,0A,
10780920,0162402A,true,Rx,1,8,00,BD,42,04,80,00,80,00,
10781493,00C24000,true,Rx,1,8,40,00,80,00,C0,00,C0,00,
10782058,01C24006,true,Rx,1,8,88,00,B0,00,F0,1F,00,00,
10782655,02000014,true,Rx,1,8,C0,00,00,00,00,20,00,00,
10787126,01E2402C,true,Rx,1,8,CF,50,00,0F,C2,10,29,10,
10787697,02620028,true,Rx,1,8,48,0C,00,41,F0,5F,45,3B,
10788261,00224024,true,Rx,1,8,AC,A1,00,00,C5,FF,B8,00,
10788837,00A24026,true,Rx,1,8,CA,BF,00,80,00,00,00,00,
10789401,0042401E,true,Rx,1,8,87,CA,40,96,4C,00,80,00,
10789975,0062401E,true,Rx,1,8,80,00,5C,00,7C,00,60,00,
10790551,00C24000,true,Rx,1,8,40,00,80,00,C0,00,C0,00,
10791115,0162402A,true,Rx,1,8,00,AD,52,04,80,00,80,00,
10795061,00C24000,true,Rx,1,8,40,00,80,00,C0,00,C0,00,
10799232,0042401E,true,Rx,1,8,C7,CA,40,96,4C,00,80,00,
10799803,0062401E,true,Rx,1,8,C0,00,5C,00,7C,00,60,00,
10800357,01400002,true,Rx,1,8,00,00,A6,CD,91,57,CD,0A,
10800923,0162402A,true,Rx,1,8,00,9D,62,04,80,00,80,00,
10801528,02000014,true,Rx,1,8,00,00,00,00,00,20,00,00,
10802083,00224024,true,Rx,1,8,A4,A1,00,00,C5,FF,B8,00,
10802658,00A24026,true,Rx,1,8,0A,BF,00,80,00,00,00,00,
10803243,00C24000,true,Rx,1,8,40,00,80,00,C0,00,C0,00,
10803820,01C24006,true,Rx,1,8,CC,00,B0,00,F0,1F,00,00,
10804374,02800006,true,Rx,1,8,C1,2B,AF,0D,00,4C,00,00,
10807597,01E2402C,true,Rx,1,8,0F,50,00,2F,C2,10,29,10,
