Time Stamp,ID,Extended,Dir,Bus,LEN,D1,D2,D3,D4,D5,D6,D7,D8
96936978,01E2402C,true,Rx,1,8,60,50,00,0D,C2,10,00,00,
96937548,02620028,true,Rx,1,8,68,08,00,48,00,50,00,00,
96956997,01E2402C,true,Rx,1,8,80,50,00,0D,C2,10,00,00,
96966897,02620028,true,Rx,1,8,88,08,00,48,00,50,00,00,
96972046,00E00024,true,Rx,1,8,60,00,00,00,00,00,3F,E0,
96977071,01E2402C,true,Rx,1,8,C0,50,00,0D,C2,11,00,00,
96996951,01E2402C,true,Rx,1,8,00,50,00,0D,C2,10,00,00,
96997521,02620028,true,Rx,1,8,C0,08,00,48,00,50,00,00,
97017024,01E2402C,true,Rx,1,8,40,50,00,0D,C2,10,00,00,
97026935,02620028,true,Rx,1,8,08,08,00,48,00,50,00,00,
97037161,01E2402C,true,Rx,1,8,80,50,00,2D,C2,10,00,00,
97042016,00E00024,true,Rx,1,8,80,00,00,00,00,00,3F,00,
97056968,01E2402C,true,Rx,1,8,CF,50,00,0D,C2,10,00,00,
97057540,02620028,true,Rx,1,8,48,0C,00,CC,00,5F,00,00,
97077040,01E2402C,true,Rx,1,8,0F,50,00,0D,C2,10,00,00,
97086960,02620028,true,Rx,1,8,88,0C,00,48,00,5F,00,00,
97091910,0242C07C,true,Rx,1,8,15,13,03,01,02,02,01,01,
97096967,01E2402C,true,Rx,1,8,4F,50,00,0D,C2,10,00,00,
97111982,00E00024,true,Rx,1,8,C0,00,00,00,00,00,3F,20,
97116955,01E2402C,true,Rx,1,8,8F,50,00,0D,C2,10,00,00,
97117537,02620028,true,Rx,1,8,C0,0C,00,48,00,5F,00,00,
97137016,01E2402C,true,Rx,1,8,CF,50,00,0D,C2,10,00,00,
97146915,02620028,true,Rx,1,8,08,0C,00,48,00,5F,00,00,
97157014,01E2402C,true,Rx,1,8,0F,50,00,0D,C2,10,00,00,
97176978,01E2402C,true,Rx,1,8,4F,50,00,0D,C2,11,00,00,
97177560,02620028,true,Rx,1,8,48,0C,00,48,00,5F,00,00,
97182404,00E00024,true,Rx,1,8,00,00,00,00,00,00,3F,40,
97196967,01E2402C,true,Rx,1,8,8F,50,00,0D,C2,10,00,00,
97206961,02620028,true,Rx,1,8,88,0C,00,48,00,5F,00,00,
97217018,01E2402C,true,Rx,1,8,CF,50,00,0D,C2,10,00,00,
97236930,01E2402C,true,Rx,1,8,0F,50,00,0D,C2,10,00,00,
97237511,02620028,true,Rx,1,8,C0,0C,00,48,00,5F,00,00,
97257148,00E00024,true,Rx,1,8,40,00,00,00,00,00,3F,60,
97257710,01E2402C,true,Rx,1,8,4F,50,00,0D,C2,10,00,00,
97266914,02620028,true,Rx,1,8,08,0C,00,48,00,5F,00,00,
97277002,01E2402C,true,Rx,1,8,8F,50,00,0D,C2,10,00,00,
97296998,01E2402C,true,Rx,1,8,CF,50,00,0D,C2,10,00,00,
97297580,02620028,true,Rx,1,8,48,0C,00,48,00,5F,00,00,
97316965,01E2402C,true,Rx,1,8,0F,50,00,0D,C2,10,00,00,
97327097,00E00024,true,Rx,1,8,80,00,00,00,00,00,3F,80,
97327678,02620028,true,Rx,1,8,88,0C,00,48,00,5F,00,00,
97336997,01E2402C,true,Rx,1,8,4F,50,00,0D,C2,10,00,00,
97356982,01E2402C,true,Rx,1,8,8F,50,00,0D,C2,10,00,00,
97357554,02620028,true,Rx,1,8,C0,0C,00,48,00,5F,00,00,
97371884,0242C07C,true,Rx,1,8,01,0F,5E,73,F7,44,FE,F8,
97377025,01E2402C,true,Rx,1,8,CF,50,00,0D,C2,11,00,00,
97386892,02620028,true,Rx,1,8,08,0C,00,48,00,5F,00,00,
97397087,00E00024,true,Rx,1,8,C0,00,00,00,00,00,3F,A0,
97397659,01E2402C,true,Rx,1,8,0F,50,00,0D,C2,10,00,00,
97416961,01E2402C,true,Rx,1,8,4F,50,00,0D,C2,10,00,00,
97417542,02620028,true,Rx,1,8,48,0C,00,48,00,5F,00,00,
97436971,01E2402C,true,Rx,1,8,8F,50,00,2D,C2,10,00,00,
97446925,02620028,true,Rx,1,8,88,0C,00,CC,F0,5F,45,3B,
97457024,01E2402C,true,Rx,1,8,CF,50,00,0D,C2,10,00,00,
97467092,00E00024,true,Rx,1,8,00,00,00,00,00,00,3F,C0,
97476981,01E2402C,true,Rx,1,8,0F,50,00,0D,C2,10,00,00,
97477541,02620028,true,Rx,1,8,C0,0C,00,48,F0,5F,45,3B,
97497010,01E2402C,true,Rx,1,8,4F,50,00,0D,C2,10,00,00,
97506877,02620028,true,Rx,1,8,08,0C,00,48,F0,5F,45,3B,
97516955,01E2402C,true,Rx,1,8,8F,50,00,0D,C2,10,00,00,
97536982,01E2402C,true,Rx,1,8,CF,50,00,0D,C2,10,00,00,
97537532,02620028,true,Rx,1,8,48,0C,00,48,F0,5F,45,3B,
97542377,00E00024,true,Rx,1,8,40,00,00,00,00,00,3F,E0,
97557003,01E2402C,true,Rx,1,8,0F,50,00,0D,C2,10,00,00,
97566966,02620028,true,Rx,1,8,88,0C,00,48,F0,5F,45,3B,
97577002,01E2402C,true,Rx,1,8,4F,50,00,0D,C2,11,00,00,
97596924,01E2402C,true,Rx,1,8,8F,50,00,0D,C2,10,00,00,
97597484,02620028,true,Rx,1,8,C0,0C,00,48,F0,5F,45,3B,
97611982,00E00024,true,Rx,1,8,80,00,00,00,00,00,3F,00,
97617039,01E2402C,true,Rx,1,8,CF,50,00,0D,C2,10,00,00,
97626928,02620028,true,Rx,1,8,08,0C,00,48,F0,5F,45,3B,
97636974,01E2402C,true,Rx,1,8,0F,50,00,0D,C2,10,00,00,
97651863,0242C07C,true,Rx,1,8,02,52,5C,52,71,06,DC,BC,
97656983,01E2402C,true,Rx,1,8,4F,50,00,0D,C2,10,00,00,
97657544,02620028,true,Rx,1,8,48,0C,00,48,F0,5F,45,3B,
97677034,01E2402C,true,Rx,1,8,8F,50,00,0D,C2,10,00,00,
97681965,00E00024,true,Rx,1,8,C0,00,00,00,00,00,3F,20,
97686947,02620028,true,Rx,1,8,80,0C,00,48,F0,5F,45,3B,
97696992,01E2402C,true,Rx,1,8,CF,50,00,0D,C2,10,00,00,
97716915,01E2402C,true,Rx,1,8,0F,50,00,0D,C2,10,00,00,
97717475,02620028,true,Rx,1,8,C8,0C,00,48,F0,5F,45,3B,
97736998,01E2402C,true,Rx,1,8,4F,50,00,0D,C2,10,00,00,
97746908,02620028,true,Rx,1,8,08,0C,00,48,F0,5F,45,3B,
97751984,00E00024,true,Rx,1,8,00,00,00,00,00,00,3F,40,
97756997,01E2402C,true,Rx,1,8,8F,50,00,0D,C2,10,00,00,
97777003,01E2402C,true,Rx,1,8,CF,50,00,0D,C2,11,00,00,
97777565,02620028,true,Rx,1,8,48,0C,00,48,F0,5F,45,3B,
97796960,01E2402C,true,Rx,1,8,0F,50,00,0D,C2,10,00,00,
97807124,02620028,true,Rx,1,8,88,0C,00,CC,F0,5F,45,3B,
97817021,01E2402C,true,Rx,1,8,4F,50,00,2D,C2,10,00,00,
97827173,00E00024,true,Rx,1,8,40,00,00,00,00,00,3F,60,
97836945,01E2402C,true,Rx,1,8,8F,50,00,0D,C2,10,00,00,
97837505,02620028,true,Rx,1,8,C0,0C,00,48,F0,5F,45,3B,
97857007,01E2402C,true,Rx,1,8,CF,50,00,0D,C2,10,00,00,
97866875,02620028,true,Rx,1,8,08,0C,00,48,F0,5F,45,3B,
97877321,01E2402C,true,Rx,1,8,0F,50,00,0D,C2,10,00,00,
97897105,00E00024,true,Rx,1,8,80,00,00,00,00,00,3F,80,
97897675,01E2402C,true,Rx,1,8,4F,50,00,0D,C2,10,00,00,
97898229,02620028,true,Rx,1,8,48,0C,00,48,F0,5F,45,3B,
97916994,01E2402C,true,Rx,1,8,8F,50,00,0D,C2,10,00,00,
97926956,02620028,true,Rx,1,8,88,0C,00,48,F0,5F,45,3B,
97931937,0242C07C,true,Rx,1,8,11,04,04,05,01,01,01,05,
97936973,01E2402C,true,Rx,1,8,CF,50,00,0D,C2,10,00,00,
97956979,01E2402C,true,Rx,1,8,0F,50,00,0D,C2,10,00,00,
97957539,02620028,true,Rx,1,8,C0,0C,00,48,F0,5F,45,3B,
97967134,00E00024,true,Rx,1,8,C0,00,00,00,00,00,3F,A0,
97977065,01E2402C,true,Rx,1,8,4F,50,00,0D,C2,31,00,00,
97986900,02620028,true,Rx,1,8,08,0C,00,48,F0,5F,45,3B,
97996945,01E2402C,true,Rx,1,8,8F,50,00,0D,C2,10,00,00,
98016942,01E2402C,true,Rx,1,8,CF,50,00,0D,C2,10,00,00,
98017502,02620028,true,Rx,1,8,48,0C,00,48,F0,5F,45,3B,
98037078,00E00024,true,Rx,1,8,00,00,00,00,00,00,3F,C0,
98037650,01E2402C,true,Rx,1,8,0F,50,00,0D,C2,10,00,00,
98046947,02620028,true,Rx,1,8,88,0C,00,48,F0,5F,45,3B,
98057013,01E2402C,true,Rx,1,8,4F,50,00,0D,C2,10,00,00,
98076947,01E2402C,true,Rx,1,8,8F,50,00,0D,C2,10,00,00,
98077518,02620028,true,Rx,1,8,C0,0C,00,48,F0,5F,45,3B,
98097018,01E2402C,true,Rx,1,8,CF,50,00,0D,C2,10,00,00,
98106993,00E00024,true,Rx,1,8,40,00,00,00,00,00,3F,E0,
98107554,02620028,true,Rx,1,8,08,0C,00,48,F0,5F,45,3B,
98116979,01E2402C,true,Rx,1,8,0F,50,00,0D,C2,10,00,00,
98136932,01E2402C,true,Rx,1,8,4F,50,00,0D,C2,10,00,00,
98137492,02620028,true,Rx,1,8,48,0C,00,48,F0,5F,45,3B,
98157003,01E2402C,true,Rx,1,8,8F,50,00,0D,C2,10,00,00,
98166955,02620028,true,Rx,1,8,88,0C,00,48,F0,5F,45,3B,
98177107,00E00024,true,Rx,1,8,80,00,00,00,00,00,3F,00,
98177679,01E2402C,true,Rx,1,8,CF,50,00,0D,C2,11,00,00,
98196947,01E2402C,true,Rx,1,8,0F,50,00,2D,C2,10,00,00,
98197517,02620028,true,Rx,1,8,C0,0C,00,CC,F0,5F,45,3B,
98211872,0242C07C,true,Rx,1,8,16,01,46,02,02,02,01,01,
98217022,01E2402C,true,Rx,1,8,4F,50,00,0D,C2,10,00,00,
98226920,02620028,true,Rx,1,8,08,0C,00,48,F0,5F,45,3B,
98236976,01E2402C,true,Rx,1,8,8F,50,00,0D,C2,10,00,00,
98247182,00E00024,true,Rx,1,8,C0,00,00,00,00,00,3F,20,
98256995,01E2402C,true,Rx,1,8,CF,50,00,0D,C2,10,00,00,
98257545,02620028,true,Rx,1,8,48,0C,00,48,F0,5F,45,3B,
98276993,01E2402C,true,Rx,1,8,0F,50,00,0D,C2,10,00,00,
98286935,02620028,true,Rx,1,8,88,0C,00,48,F0,5F,45,3B,
98296971,01E2402C,true,Rx,1,8,4F,50,00,0D,C2,10,00,00,
98317053,00E00024,true,Rx,1,8,00,00,00,00,00,00,3F,40,
98317623,01E2402C,true,Rx,1,8,8F,50,00,0D,C2,10,00,00,
98318187,02620028,true,Rx,1,8,C0,0C,00,48,F0,5F,45,3B,
98337015,01E2402C,true,Rx,1,8,CF,50,00,0D,C2,10,00,00,
98346871,02620028,true,Rx,1,8,08,0C,00,48,F0,5F,45,3B,
98356961,01E2402C,true,Rx,1,8,0F,50,00,0D,C2,10,00,00,
98377009,01E2402C,true,Rx,1,8,4F,50,00,0D,C2,11,00,00,
98377560,02620028,true,Rx,1,8,48,0C,00,48,F0,5F,45,3B,
98391987,00E00024,true,Rx,1,8,40,00,00,00,00,00,3F,60,
98396981,01E2402C,true,Rx,1,8,8F,50,00,0D,C2,10,00,00,
98406974,02620028,true,Rx,1,8,88,0C,00,48,F0,5F,45,3B,
98416978,01E2402C,true,Rx,1,8,CF,50,00,0D,C2,10,00,00,
98436910,01E2402C,true,Rx,1,8,0F,50,00,0D,C2,10,00,00,
98437479,02620028,true,Rx,1,8,C0,0C,00,48,F0,5F,45,3B,
98457025,01E2402C,true,Rx,1,8,4F,50,00,0D,C2,10,00,00,
98462017,00E00024,true,Rx,1,8,80,00,00,00,00,00,3F,80,
98467220,02620028,true,Rx,1,8,08,0C,00,48,F0,5F,45,3B,
98477014,01E2402C,true,Rx,1,8,8F,50,00,0D,C2,10,00,00,
98491893,0242C07C,true,Rx,1,8,01,03,5E,73,F7,50,01,07,
98496960,01E2402C,true,Rx,1,8,CF,50,00,0D,C2,10,00,00,
98497520,02620028,true,Rx,1,8,48,0C,00,48,F0,5F,45,3B,
98516990,01E2402C,true,Rx,1,8,0F,50,00,0D,C2,10,00,00,
98527004,02620028,true,Rx,1,8,88,0C,00,48,F0,5F,45,3B,
98537092,00E00024,true,Rx,1,8,C0,00,00,00,00,00,3F,A0,
98537663,01E2402C,true,Rx,1,8,4F,50,00,0D,C2,10,00,00,
98556952,01E2402C,true,Rx,1,8,8F,50,00,0D,C2,10,00,00,
98557512,02620028,true,Rx,1,8,C0,0C,00,48,F0,5F,45,3B,
98577046,01E2402C,true,Rx,1,8,CF,50,00,2D,C2,11,00,00,
98586903,02620028,true,Rx,1,8,08,0C,00,CC,F0,5F,45,3B,
98596991,01E2402C,true,Rx,1,8,0F,50,00,0D,C2,10,00,00,
98602414,00E00024,true,Rx,1,8,00,00,00,00,00,00,3F,C0,
98616956,01E2402C,true,Rx,1,8,4F,50,00,0D,C2,10,00,00,
98617516,02620028,true,Rx,1,8,48,0C,00,48,F0,5F,45,3B,
98636975,01E2402C,true,Rx,1,8,8F,50,00,0D,C2,10,00,00,
98646915,02620028,true,Rx,1,8,88,0C,00,48,F0,5F,45,3B,
98657045,01E2402C,true,Rx,1,8,CF,50,00,0D,C2,10,00,00,
98676999,01E2402C,true,Rx,1,8,0F,50,00,0D,C2,10,00,00,
98677560,02620028,true,Rx,1,8,C0,0C,00,48,F0,5F,45,3B,
98682351,00E00024,true,Rx,1,8,40,00,00,00,00,00,3F,E0,
98696967,01E2402C,true,Rx,1,8,4F,50,00,0D,C2,10,00,00,
98706888,02620028,true,Rx,1,8,08,0C,00,48,F0,5F,45,3B,
98716955,01E2402C,true,Rx,1,8,8F,50,00,0D,C2,10,00,00,
98736960,01E2402C,true,Rx,1,8,CF,50,00,0D,C2,10,00,00,
98737521,02620028,true,Rx,1,8,48,0C,00,48,F0,5F,45,3B,
98751947,00E00024,true,Rx,1,8,80,00,00,00,00,00,3F,00,
98757002,01E2402C,true,Rx,1,8,0F,50,00,0D,C2,10,00,00,
98766921,02620028,true,Rx,1,8,88,0C,00,48,F0,5F,45,3B,
98771924,0242C07C,true,Rx,1,8,05,00,3F,9E,00,02,07,A8,
98777021,01E2402C,true,Rx,1,8,4F,50,00,0D,C2,11,00,00,
98796943,01E2402C,true,Rx,1,8,8F,50,00,0D,C2,10,00,00,
98797514,02620028,true,Rx,1,8,C0,0C,00,48,F0,5F,45,3B,
98817004,01E2402C,true,Rx,1,8,CF,50,00,0D,C2,10,00,00,
98821997,00E00024,true,Rx,1,8,C0,00,00,00,00,00,3F,20,
98826937,02620028,true,Rx,1,8,08,0C,00,48,F0,5F,45,3B,
98836941,01E2402C,true,Rx,1,8,0F,50,00,0D,C2,10,00,00,
98856958,01E2402C,true,Rx,1,8,4F,50,00,0D,C2,10,00,00,
98857506,02620028,true,Rx,1,8,48,0C,00,48,F0,5F,45,3B,
98876987,01E2402C,true,Rx,1,8,8F,50,00,0D,C2,10,00,00,
98886981,02620028,true,Rx,1,8,88,0C,00,48,F0,5F,45,3B,
98891995,00E00024,true,Rx,1,8,00,00,00,00,00,00,3F,40,
98896998,01E2402C,true,Rx,1,8,CF,50,00,0D,C2,10,00,00,
98916930,01E2402C,true,Rx,1,8,0F,50,00,0D,C2,10,00,00,
98917499,02620028,true,Rx,1,8,C0,0C,00,48,F0,5F,45,3B,
98937002,01E2402C,true,Rx,1,8,4F,50,00,0D,C2,10,00,00,
98946860,02620028,true,Rx,1,8,08,0C,00,48,F0,5F,45,3B,
98957221,01E2402C,true,Rx,1,8,8F,50,00,2D,C2,10,00,00,
98961971,00E00024,true,Rx,1,8,40,00,00,00,00,00,3F,60,
98976998,01E2402C,true,Rx,1,8,CF,50,00,0D,C2,31,00,00,
98977549,02620028,true,Rx,1,8,48,0C,00,CC,F0,5F,45,3B,
98996974,01E2402C,true,Rx,1,8,0F,50,00,0D,C2,10,00,00,
99006946,02620028,true,Rx,1,8,88,0C,00,48,F0,5F,45,3B,
99016982,01E2402C,true,Rx,1,8,4F,50,00,0D,C2,10,00,00,
99031945,00E00024,true,Rx,1,8,80,00,00,00,00,00,3F,80,
99036949,01E2402C,true,Rx,1,8,8F,50,00,0D,C2,10,00,00,
99037509,02620028,true,Rx,1,8,C0,0C,00,48,F0,5F,45,3B,
99051882,0242C07C,true,Rx,1,8,12,04,02,02,02,02,05,01,
99057486,01E2402C,true,Rx,1,8,CF,50,00,0D,C2,10,00,00,
99066870,02620028,true,Rx,1,8,08,0C,00,48,F0,5F,45,3B,
99077009,01E2402C,true,Rx,1,8,0F,50,00,0D,C2,10,00,00,
99096952,01E2402C,true,Rx,1,8,4F,50,00,0D,C2,10,00,00,
99097512,02620028,true,Rx,1,8,48,0C,00,48,F0,5F,45,3B,
99107043,00E00024,true,Rx,1,8,C0,00,00,00,00,00,3F,A0,
99116954,01E2402C,true,Rx,1,8,8F,50,00,0D,C2,10,00,00,
99126969,02620028,true,Rx,1,8,88,0C,00,48,F0,5F,45,3B,
99136963,01E2402C,true,Rx,1,8,CF,50,00,0D,C2,10,00,00,
99156957,01E2402C,true,Rx,1,8,0F,50,00,0D,C2,10,00,00,
99157517,02620028,true,Rx,1,8,C0,0C,00,48,F0,5F,45,3B,
99177114,00E00024,true,Rx,1,8,00,00,00,00,00,00,3F,C0,
99177686,01E2402C,true,Rx,1,8,4F,50,00,0D,C2,11,00,00,
99186857,02620028,true,Rx,1,8,08,0C,00,48,F0,5F,45,3B,
99196956,01E2402C,true,Rx,1,8,8F,50,00,0D,C2,10,00,00,
99216983,01E2402C,true,Rx,1,8,CF,50,00,0D,C2,10,00,00,
99217533,02620028,true,Rx,1,8,48,0C,00,48,F0,5F,45,3B,
99236971,01E2402C,true,Rx,1,8,0F,50,00,0D,C2,10,00,00,
99247039,00E00024,true,Rx,1,8,40,00,00,00,00,00,3F,E0,
99247601,02620028,true,Rx,1,8,88,0C,00,48,F0,5F,45,3B,
99256983,01E2402C,true,Rx,1,8,4F,50,00,0D,C2,10,00,00,
99276946,01E2402C,true,Rx,1,8,8F,50,00,0D,C2,10,00,00,
99277506,02620028,true,Rx,1,8,C0,0C,00,48,F0,5F,45,3B,
99296977,01E2402C,true,Rx,1,8,CF,50,00,0D,C2,10,00,00,
99306887,02620028,true,Rx,1,8,08,0C,00,48,F0,5F,45,3B,
99317071,00E00024,true,Rx,1,8,80,00,00,00,00,00,3F,00,
99317641,01E2402C,true,Rx,1,8,0F,50,00,0D,C2,10,00,00,
99331856,0242C07C,true,Rx,1,8,17,02,01,01,01,02,02,01,
99336955,01E2402C,true,Rx,1,8,4F,50,00,0D,C2,10,00,00,
99337514,02620028,true,Rx,1,8,48,0C,00,48,F0,5F,45,3B,
99356994,01E2402C,true,Rx,1,8,8F,50,00,2D,C2,10,00,00,
99366914,02620028,true,Rx,1,8,88,0C,00,CC,F0,5F,45,3B,
99377035,01E2402C,true,Rx,1,8,CF,50,00,0D,C2,11,00,00,
99387124,00E00024,true,Rx,1,8,C0,00,00,00,00,00,3F,20,
99396908,01E2402C,true,Rx,1,8,0F,50,00,0D,C2,10,00,00,
99397477,02620028,true,Rx,1,8,C0,0C,00,48,F0,5F,45,3B,
99416969,01E2402C,true,Rx,1,8,4F,50,00,0D,C2,10,00,00,
99426930,02620028,true,Rx,1,8,08,0C,00,48,F0,5F,45,3B,
99436945,01E2402C,true,Rx,1,8,8F,50,00,0D,C2,10,00,00,
99456984,01E2402C,true,Rx,1,8,CF,50,00,0D,C2,10,00,00,
99457534,02620028,true,Rx,1,8,48,0C,00,48,F0,5F,45,3B,
99461978,00E00024,true,Rx,1,8,00,00,00,00,00,00,3F,40,
99477036,01E2402C,true,Rx,1,8,0F,50,00,0D,C2,10,00,00,
99486903,02620028,true,Rx,1,8,88,0C,00,48,F0,5F,45,3B,
99496981,01E2402C,true,Rx,1,8,4F,50,00,0D,C2,10,00,00,
99516936,01E2402C,true,Rx,1,8,8F,50,00,0D,C2,10,00,00,
99517496,02620028,true,Rx,1,8,C0,0C,00,48,F0,5F,45,3B,
99531997,00E00024,true,Rx,1,8,40,00,00,00,00,00,3F,60,
99536969,01E2402C,true,Rx,1,8,CF,50,00,0D,C2,10,00,00,
99546899,02620028,true,Rx,1,8,08,0C,00,48,F0,5F,45,3B,
99556956,01E2402C,true,Rx,1,8,0F,50,00,0D,C2,10,00,00,
99576962,01E2402C,true,Rx,1,8,4F,50,00,0D,C2,11,00,00,
99577522,02620028,true,Rx,1,8,48,0C,00,48,F0,5F,45,3B,
99596971,01E2402C,true,Rx,1,8,8F,50,00,0D,C2,10,00,00,
99607018,00E00024,true,Rx,1,8,80,00,00,00,00,00,3F,80,
99607579,02620028,true,Rx,1,8,88,0C,00,48,F0,5F,45,3B,
99611877,0242C07C,true,Rx,1,8,01,03,5E,73,F7,5A,FE,F8,
99617005,01E2402C,true,Rx,1,8,CF,50,00,0D,C2,10,00,00,
99636938,01E2402C,true,Rx,1,8,0F,50,00,0D,C2,10,00,00,
99637498,02620028,true,Rx,1,8,C0,0C,00,48,F0,5F,45,3B,
99657072,01E2402C,true,Rx,1,8,4F,50,00,0D,C2,10,00,00,
99666887,02620028,true,Rx,1,8,08,0C,00,48,F0,5F,45,3B,
99677060,00E00024,true,Rx,1,8,C0,00,00,00,00,00,3F,A0,
99677632,01E2402C,true,Rx,1,8,8F,50,00,0D,C2,10,00,00,
99696954,01E2402C,true,Rx,1,8,CF,50,00,0D,C2,10,00,00,
99697514,02620028,true,Rx,1,8,48,0C,00,48,F0,5F,45,3B,
99716951,01E2402C,true,Rx,1,8,0F,50,00,0D,C2,10,00,00,
99727018,02620028,true,Rx,1,8,88,0C,00,48,F0,5F,45,3B,
99736980,01E2402C,true,Rx,1,8,4F,50,00,2D,C2,10,00,00,
99747058,00E00024,true,Rx,1,8,00,00,00,00,00,00,3F,C0,
99756924,01E2402C,true,Rx,1,8,8F,50,00,0D,C2,10,00,00,
99757495,02620028,true,Rx,1,8,C0,0C,00,CC,F0,5F,45,3B,
99777060,01E2402C,true,Rx,1,8,CF,50,00,0D,C2,11,00,00,
99786863,02620028,true,Rx,1,8,08,0C,00,48,F0,5F,45,3B,
99796973,01E2402C,true,Rx,1,8,0F,50,00,0D,C2,10,00,00,
99817021,00E00024,true,Rx,1,8,40,00,00,00,00,00,3F,E0,
99817591,01E2402C,true,Rx,1,8,4F,50,00,0D,C2,10,00,00,
99818145,02620028,true,Rx,1,8,48,0C,00,48,F0,5F,45,3B,
99836952,01E2402C,true,Rx,1,8,8F,50,00,0D,C2,10,00,00,
99846946,02620028,true,Rx,1,8,80,0C,00,48,F0,5F,45,3B,
99856982,01E2402C,true,Rx,1,8,CF,50,00,0D,C2,10,00,00,
99876978,01E2402C,true,Rx,1,8,0F,50,00,0D,C2,10,00,00,
99877538,02620028,true,Rx,1,8,C8,0C,00,48,F0,5F,45,3B,
99887058,00E00024,true,Rx,1,8,80,00,00,00,00,00,3F,00,
99891828,0242C07C,true,Rx,1,8,02,52,5C,52,71,06,DC,BC,
99896968,01E2402C,true,Rx,1,8,4F,50,00,0D,C2,10,00,00,
99906878,02620028,true,Rx,1,8,08,0C,00,48,F0,5F,45,3B,
99916967,01E2402C,true,Rx,1,8,8F,50,00,0D,C2,10,00,00,
99936973,01E2402C,true,Rx,1,8,CF,50,00,0D,C2,10,00,00,
99937533,02620028,true,Rx,1,8,48,0C,00,48,F0,5F,45,3B,
99957067,00E00024,true,Rx,1,8,C0,00,00,00,00,00,3F,20,
99957638,01E2402C,true,Rx,1,8,0F,50,00,0D,C2,10,00,00,
99966904,02620028,true,Rx,1,8,88,0C,00,48,F0,5F,45,3B,
99977034,01E2402C,true,Rx,1,8,4F,50,00,0D,C2,31,00,00,
99996905,01E2402C,true,Rx,1,8,8F,50,00,0D,C2,10,00,00,
99997465,02620028,true,Rx,1,8,C0,0C,00,48,F0,5F,45,3B,
100016999,01E2402C,true,Rx,1,8,CF,50,00,0D,C2,10,00,00,
100026993,00E00024,true,Rx,1,8,00,00,00,00,00,00,3F,40,
100027554,02620028,true,Rx,1,8,08,0C,00,48,F0,5F,45,3B,
100036937,01E2402C,true,Rx,1,8,0F,50,00,0D,C2,10,00,00,
100056974,01E2402C,true,Rx,1,8,4F,50,00,0D,C2,10,00,00,
100057534,02620028,true,Rx,1,8,48,0C,00,48,F0,5F,45,3B,
100077014,01E2402C,true,Rx,1,8,8F,50,00,0D,C2,10,00,00,
100086935,02620028,true,Rx,1,8,88,0C,00,48,F0,5F,45,3B,
100097076,00E00024,true,Rx,1,8,40,00,00,00,00,00,3F,60,
100097648,01E2402C,true,Rx,1,8,CF,50,00,0D,C2,10,00,00,
100117108,01E2402C,true,Rx,1,8,0F,50,00,2D,C2,10,00,00,
100117679,02620028,true,Rx,1,8,C0,0C,00,CC,F0,5F,45,3B,
100136969,01E2402C,true,Rx,1,8,4F,50,00,0D,C2,10,00,00,
100146899,02620028,true,Rx,1,8,08,0C,00,48,F0,5F,45,3B,
100157008,01E2402C,true,Rx,1,8,8F,50,00,0D,C2,10,00,00,
100171951,00E00024,true,Rx,1,8,80,00,00,00,00,00,3F,80,
100172521,0242C07C,true,Rx,1,8,13,01,01,01,01,02,01,04,
100176956,01E2402C,true,Rx,1,8,CF,50,00,0D,C2,11,00,00,
100177516,02620028,true,Rx,1,8,48,0C,00,48,F0,5F,45,3B,
100196975,01E2402C,true,Rx,1,8,0F,50,00,0D,C2,10,00,00,
100206927,02620028,true,Rx,1,8,88,0C,00,48,F0,5F,45,3B,
100216993,01E2402C,true,Rx,1,8,4F,50,00,0D,C2,10,00,00,
100237158,01E2402C,true,Rx,1,8,8F,50,00,0D,C2,10,00,00,
100237718,02620028,true,Rx,1,8,C0,0C,00,48,F0,5F,45,3B,
100241942,00E00024,true,Rx,1,8,C0,00,00,00,00,00,3F,A0,
100257010,01E2402C,true,Rx,1,8,CF,50,00,0D,C2,10,00,00,
100266887,02620028,true,Rx,1,8,08,0C,00,48,F0,5F,45,3B,
100276966,01E2402C,true,Rx,1,8,0F,50,00,0D,C2,10,00,00,
100296951,01E2402C,true,Rx,1,8,4F,50,00,0D,C2,10,00,00,
100297510,02620028,true,Rx,1,8,48,0C,00,48,F0,5F,45,3B,
100311948,00E00024,true,Rx,1,8,00,00,00,00,00,00,3F,C0,
100316963,01E2402C,true,Rx,1,8,8F,50,00,0D,C2,10,00,00,
100326957,02620028,true,Rx,1,8,88,0C,00,48,F0,5F,45,3B,
100336992,01E2402C,true,Rx,1,8,CF,50,00,0D,C2,10,00,00,
100356967,01E2402C,true,Rx,1,8,0F,50,00,0D,C2,10,00,00,
100357526,02620028,true,Rx,1,8,C0,0C,00,48,F0,5F,45,3B,
100376997,01E2402C,true,Rx,1,8,4F,50,00,0D,C2,11,00,00,
100381969,00E00024,true,Rx,1,8,40,00,00,00,00,00,3F,E0,
100386847,02620028,true,Rx,1,8,08,0C,00,48,F0,5F,45,3B,
100396924,01E2402C,true,Rx,1,8,8F,50,00,0D,C2,10,00,00,
100416931,01E2402C,true,Rx,1,8,CF,50,00,0D,C2,10,00,00,
100417480,02620028,true,Rx,1,8,48,0C,00,48,F0,5F,45,3B,
100436962,01E2402C,true,Rx,1,8,0F,50,00,0D,C2,10,00,00,
100446903,02620028,true,Rx,1,8,88,0C,00,48,F0,5F,45,3B,
100451917,0242C07C,true,Rx,1,8,18,01,01,03,02,12,06,01,
100457109,00E00024,true,Rx,1,8,80,00,00,00,00,00,3F,00,
100457681,01E2402C,true,Rx,1,8,4F,50,00,0D,C2,10,00,00,
100476971,01E2402C,true,Rx,1,8,8F,50,00,0D,C2,10,00,00,
100477531,02620028,true,Rx,1,8,C0,0C,00,48,F0,5F,45,3B,
100496999,01E2402C,true,Rx,1,8,CF,50,00,0D,C2,10,00,00,
100506876,02620028,true,Rx,1,8,08,0C,00,CC,F0,5F,45,3B,
100516934,01E2402C,true,Rx,1,8,0F,50,00,2D,C2,10,00,00,
100531993,00E00024,true,Rx,1,8,C0,00,00,00,00,00,3F,20,
100536953,01E2402C,true,Rx,1,8,4F,50,00,0D,C2,10,00,00,
100537513,02620028,true,Rx,1,8,48,0C,00,48,F0,5F,45,3B,
100556982,01E2402C,true,Rx,1,8,8F,50,00,0D,C2,10,00,00,
100566955,02620028,true,Rx,1,8,88,0C,00,48,F0,5F,45,3B,
100577012,01E2402C,true,Rx,1,8,CF,50,00,0D,C2,11,00,00,
100596936,01E2402C,true,Rx,1,8,0F,50,00,0D,C2,10,00,00,
100597496,02620028,true,Rx,1,8,C0,0C,00,48,F0,5F,45,3B,
100602341,00E00024,true,Rx,1,8,00,00,00,00,00,00,3F,40,
100616999,01E2402C,true,Rx,1,8,4F,50,00,0D,C2,10,00,00,
100626887,02620028,true,Rx,1,8,08,0C,00,48,F0,5F,45,3B,
100636976,01E2402C,true,Rx,1,8,8F,50,00,0D,C2,10,00,00,
100656961,01E2402C,true,Rx,1,8,CF,50,00,0D,C2,10,00,00,
100657521,02620028,true,Rx,1,8,48,0C,00,48,F0,5F,45,3B,
100671979,00E00024,true,Rx,1,8,40,00,00,00,00,00,3F,60,
100676992,01E2402C,true,Rx,1,8,0F,50,00,0D,C2,10,00,00,
100686934,02620028,true,Rx,1,8,88,0C,00,48,F0,5F,45,3B,
100696949,01E2402C,true,Rx,1,8,4F,50,00,0D,C2,10,00,00,
100716933,01E2402C,true,Rx,1,8,8F,50,00,0D,C2,10,00,00,
100717493,02620028,true,Rx,1,8,C0,0C,00,48,F0,5F,45,3B,
100731845,0242C07C,true,Rx,1,8,01,03,5E,73,F7,64,01,07,
100736964,01E2402C,true,Rx,1,8,CF,50,00,0D,C2,10,00,00,
100742023,00E00024,true,Rx,1,8,80,00,00,00,00,00,3F,80,
100746878,02620028,true,Rx,1,8,08,0C,00,48,F0,5F,45,3B,
100756999,01E2402C,true,Rx,1,8,0F,50,00,0D,C2,10,00,00,
100776984,01E2402C,true,Rx,1,8,4F,50,00,0D,C2,11,00,00,
100777544,02620028,true,Rx,1,8,48,0C,00,48,F0,5F,45,3B,
100796940,01E2402C,true,Rx,1,8,8F,50,00,0D,C2,10,00,00,
100806904,02620028,true,Rx,1,8,88,0C,00,48,F0,5F,45,3B,
100812012,00E00024,true,Rx,1,8,C0,00,00,00,00,00,3F,A0,
100817016,01E2402C,true,Rx,1,8,CF,50,00,0D,C2,10,00,00,
100836905,01E2402C,true,Rx,1,8,0F,50,00,0D,C2,10,00,00,
100837464,02620028,true,Rx,1,8,C0,0C,00,48,F0,5F,45,3B,
100857008,01E2402C,true,Rx,1,8,4F,50,00,0D,C2,10,00,00,
100866866,02620028,true,Rx,1,8,08,0C,00,48,F0,5F,45,3B,
100876963,01E2402C,true,Rx,1,8,8F,50,00,0D,C2,10,00,00,
100882018,00E00024,true,Rx,1,8,00,00,00,00,00,00,3F,C0,
100896951,01E2402C,true,Rx,1,8,CF,50,00,2D,C2,10,00,00,
100897500,02620028,true,Rx,1,8,48,0C,00,CC,F0,5F,45,3B,
100916948,01E2402C,true,Rx,1,8,0F,50,00,0D,C2,10,00,00,
100926961,02620028,true,Rx,1,8,88,0C,00,48,F0,5F,45,3B,
100936945,01E2402C,true,Rx,1,8,4F,50,00,0D,C2,10,00,00,
100951950,00E00024,true,Rx,1,8,40,00,00,00,00,00,3F,E0,
100956945,01E2402C,true,Rx,1,8,8F,50,00,0D,C2,10,00,00,
100957505,02620028,true,Rx,1,8,C0,0C,00,48,F0,5F,45,3B,
100977036,01E2402C,true,Rx,1,8,CF,50,00,0D,C2,31,00,00,
100986872,02620028,true,Rx,1,8,08,0C,00,48,F0,5F,45,3B,
100996949,01E2402C,true,Rx,1,8,0F,50,00,0D,C2,10,00,00,
101011868,0242C07C,true,Rx,1,8,FF,00,00,00,00,00,00,00,
101016914,01E2402C,true,Rx,1,8,4F,50,00,0D,C2,10,00,00,
101017474,02620028,true,Rx,1,8,48,0C,00,48,F0,5F,45,3B,
101027078,00E00024,true,Rx,1,8,80,00,00,00,00,00,3F,00,
101036977,01E2402C,true,Rx,1,8,8F,50,00,0D,C2,10,00,00,
101046898,02620028,true,Rx,1,8,88,0C,00,48,F0,5F,45,3B,
101056997,01E2402C,true,Rx,1,8,CF,50,00,0D,C2,10,00,00,
101076930,01E2402C,true,Rx,1,8,0F,50,00,0D,C2,10,00,00,
101077501,02620028,true,Rx,1,8,C0,0C,00,48,F0,5F,45,3B,
101097064,00E00024,true,Rx,1,8,C0,00,00,00,00,00,3F,20,
101097636,01E2402C,true,Rx,1,8,4F,50,00,0D,C2,10,00,00,
101106881,02620028,true,Rx,1,8,08,0C,00,48,F0,5F,45,3B,
101116928,01E2402C,true,Rx,1,8,8F,50,00,0D,C2,10,00,00,
101136946,01E2402C,true,Rx,1,8,CF,50,00,0D,C2,10,00,00,
101137506,02620028,true,Rx,1,8,48,0C,00,48,F0,5F,45,3B,
101156986,01E2402C,true,Rx,1,8,0F,50,00,0D,C2,10,00,00,
101167023,00E00024,true,Rx,1,8,00,00,00,00,00,00,3F,40,
101167584,02620028,true,Rx,1,8,88,0C,00,48,F0,5F,45,3B,
101177018,01E2402C,true,Rx,1,8,4F,50,00,0D,C2,11,00,00,
101196929,01E2402C,true,Rx,1,8,8F,50,00,0D,C2,10,00,00,
101197489,02620028,true,Rx,1,8,C0,0C,00,48,F0,5F,45,3B,
101216959,01E2402C,true,Rx,1,8,CF,50,00,0D,C2,10,00,00,
101226878,02620028,true,Rx,1,8,08,0C,00,48,F0,5F,45,3B,
101237041,00E00024,true,Rx,1,8,40,00,00,00,00,00,3F,60,
101237622,01E2402C,true,Rx,1,8,0F,50,00,0D,C2,10,00,00,
101256935,01E2402C,true,Rx,1,8,4F,50,00,0D,C2,10,00,00,
101257494,02620028,true,Rx,1,8,48,0C,00,48,F0,5F,45,3B,
101276985,01E2402C,true,Rx,1,8,8F,50,00,2D,C2,10,00,00,
101286894,02620028,true,Rx,1,8,88,0C,00,CC,F0,5F,45,3B,
101291875,0242C07C,true,Rx,1,8,14,04,01,01,02,02,02,06,
101296942,01E2402C,true,Rx,1,8,CF,50,00,0D,C2,10,00,00,
101311957,00E00024,true,Rx,1,8,80,00,00,00,00,00,3F,80,
101316929,01E2402C,true,Rx,1,8,0F,50,00,0D,C2,10,00,00,
101317498,02620028,true,Rx,1,8,C0,0C,00,48,F0,5F,45,3B,
101337010,01E2402C,true,Rx,1,8,4F,50,00,0D,C2,10,00,00,
101346877,02620028,true,Rx,1,8,08,0C,00,48,F0,5F,45,3B,
101356976,01E2402C,true,Rx,1,8,8F,50,00,0D,C2,10,00,00,
101376982,01E2402C,true,Rx,1,8,CF,50,00,0D,C2,11,00,00,
101377532,02620028,true,Rx,1,8,48,0C,00,48,F0,5F,45,3B,
101381987,00E00024,true,Rx,1,8,C0,00,00,00,00,00,3F,A0,
101396931,01E2402C,true,Rx,1,8,0F,50,00,0D,C2,10,00,00,
101406945,02620028,true,Rx,1,8,88,0C,00,48,F0,5F,45,3B,
101417003,01E2402C,true,Rx,1,8,4F,50,00,0D,C2,10,00,00,
101436892,01E2402C,true,Rx,1,8,8F,50,00,0D,C2,10,00,00,
101437463,02620028,true,Rx,1,8,C0,0C,00,48,F0,5F,45,3B,
101457142,00E00024,true,Rx,1,8,00,00,00,00,00,00,3F,C0,
101457714,01E2402C,true,Rx,1,8,CF,50,00,0D,C2,10,00,00,
101466876,02620028,true,Rx,1,8,08,0C,00,48,F0,5F,45,3B,
101476973,01E2402C,true,Rx,1,8,0F,50,00,0D,C2,10,00,00,
101496916,01E2402C,true,Rx,1,8,4F,50,00,0D,C2,10,00,00,
101497476,02620028,true,Rx,1,8,48,0C,00,48,F0,5F,45,3B,
101516988,01E2402C,true,Rx,1,8,8F,50,00,0D,C2,10,00,00,
101521971,00E00024,true,Rx,1,8,40,00,00,00,00,00,3F,E0,
101526984,02620028,true,Rx,1,8,88,0C,00,48,F0,5F,45,3B,
101536945,01E2402C,true,Rx,1,8,CF,50,00,0D,C2,10,00,00,
101556941,01E2402C,true,Rx,1,8,0F,50,00,0D,C2,10,00,00,
101557512,02620028,true,Rx,1,8,C0,0C,00,48,F0,5F,45,3B,
101571845,0242C07C,true,Rx,1,8,19,04,01,06,01,02,01,01,
101576994,01E2402C,true,Rx,1,8,4F,50,00,0D,C2,11,00,00,
101586903,02620028,true,Rx,1,8,08,0C,00,48,F0,5F,45,3B,
101597054,00E00024,true,Rx,1,8,80,00,00,00,00,00,3F,00,
101597626,01E2402C,true,Rx,1,8,8F,50,00,0D,C2,10,00,00,
101616946,01E2402C,true,Rx,1,8,CF,50,00,0D,C2,10,00,00,
101617506,02620028,true,Rx,1,8,48,0C,00,48,F0,5F,45,3B,
101636946,01E2402C,true,Rx,1,8,0F,50,00,0D,C2,10,00,00,
101646898,02620028,true,Rx,1,8,88,0C,00,48,F0,5F,45,3B,
101657228,01E2402C,true,Rx,1,8,4F,50,00,2D,C2,10,00,00,
101667053,00E00024,true,Rx,1,8,C0,00,00,00,00,00,3F,20,
101676929,01E2402C,true,Rx,1,8,8F,50,00,0D,C2,10,00,00,
101677500,02620028,true,Rx,1,8,C0,0C,00,CC,F0,5F,45,3B,
101697002,01E2402C,true,Rx,1,8,CF,50,00,0D,C2,10,00,00,
101706847,02620028,true,Rx,1,8,08,0C,00,48,F0,5F,45,3B,
101716924,01E2402C,true,Rx,1,8,0F,50,00,0D,C2,10,00,00,
101737046,00E00024,true,Rx,1,8,00,00,00,00,00,00,3F,40,
101737616,01E2402C,true,Rx,1,8,4F,50,00,0D,C2,10,00,00,
101738170,02620028,true,Rx,1,8,48,0C,00,48,F0,5F,45,3B,
101756977,01E2402C,true,Rx,1,8,8F,50,00,0D,C2,10,00,00,
101766950,02620028,true,Rx,1,8,88,0C,00,48,F0,5F,45,3B,
101776966,01E2402C,true,Rx,1,8,CF,50,00,0D,C2,11,00,00,
101796920,01E2402C,true,Rx,1,8,0F,50,00,0D,C2,10,00,00,
101797489,02620028,true,Rx,1,8,C0,0C,00,48,F0,5F,45,3B,
101807093,00E00024,true,Rx,1,8,40,00,00,00,00,00,3F,60,
101816951,01E2402C,true,Rx,1,8,4F,50,00,0D,C2,10,00,00,
101826903,02620028,true,Rx,1,8,08,0C,00,48,F0,5F,45,3B,
101836970,01E2402C,true,Rx,1,8,8F,50,00,0D,C2,10,00,00,
101851868,0242C07C,true,Rx,1,8,01,03,5E,73,F7,70,FE,F8,
101856945,01E2402C,true,Rx,1,8,CF,50,00,0D,C2,10,00,00,
101857505,02620028,true,Rx,1,8,48,0C,00,48,F0,5F,45,3B,
101877099,00E00024,true,Rx,1,8,80,00,00,00,00,00,3F,80,
101877670,01E2402C,true,Rx,1,8,0F,50,00,0D,C2,10,00,00,
101886897,02620028,true,Rx,1,8,88,0C,00,48,F0,5F,45,3B,
101896965,01E2402C,true,Rx,1,8,4F,50,00,0D,C2,10,00,00,
101916888,01E2402C,true,Rx,1,8,8F,50,00,0D,C2,10,00,00,
101917458,02620028,true,Rx,1,8,C0,0C,00,48,F0,5F,45,3B,
101936960,01E2402C,true,Rx,1,8,CF,50,00,0D,C2,10,00,00,
101946880,02620028,true,Rx,1,8,08,0C,00,48,F0,5F,45,3B,
101951955,00E00024,true,Rx,1,8,C0,00,00,00,00,00,3F,A0,
101956939,01E2402C,true,Rx,1,8,0F,50,00,0D,C2,10,00,00,
101977029,01E2402C,true,Rx,1,8,4F,50,00,0D,C2,31,00,00,
101977581,02620028,true,Rx,1,8,48,0C,00,48,F0,5F,45,3B,
101996924,01E2402C,true,Rx,1,8,8F,50,00,0D,C2,10,00,00,
102006898,02620028,true,Rx,1,8,88,0C,00,48,F0,5F,45,3B,
102017007,01E2402C,true,Rx,1,8,CF,50,00,0D,C2,10,00,00,
102021970,00E00024,true,Rx,1,8,00,00,00,00,00,00,3F,C0,
102037121,01E2402C,true,Rx,1,8,0F,50,00,2D,C2,10,00,00,
102037682,02620028,true,Rx,1,8,C0,0C,00,CC,F0,5F,45,3B,
102056971,01E2402C,true,Rx,1,8,4F,50,00,0D,C2,10,00,00,
102066839,02620028,true,Rx,1,8,08,0C,00,48,F0,5F,45,3B,
102076949,01E2402C,true,Rx,1,8,8F,50,00,0D,C2,10,00,00,
102091945,00E00024,true,Rx,1,8,40,00,00,00,00,00,3F,E0,
102096915,01E2402C,true,Rx,1,8,CF,50,00,0D,C2,10,00,00,
102097465,02620028,true,Rx,1,8,48,0C,00,48,F0,5F,45,3B,
102117030,01E2402C,true,Rx,1,8,0F,50,00,0D,C2,10,00,00,
102126971,02620028,true,Rx,1,8,88,0C,00,48,F0,5F,45,3B,
102131869,0242C07C,true,Rx,1,8,02,51,5C,52,72,06,DC,BC,
102136935,01E2402C,true,Rx,1,8,4F,50,00,0D,C2,10,00,00,
102156971,01E2402C,true,Rx,1,8,8F,50,00,0D,C2,10,00,00,
102157531,02620028,true,Rx,1,8,C0,0C,00,48,F0,5F,45,3B,
102161935,00E00024,true,Rx,1,8,80,00,00,00,00,00,3F,00,
102177015,01E2402C,true,Rx,1,8,CF,50,00,0D,C2,11,00,00,
102186892,02620028,true,Rx,1,8,08,0C,00,48,F0,5F,45,3B,
102196939,01E2402C,true,Rx,1,8,0F,50,00,0D,C2,10,00,00,
102216914,01E2402C,true,Rx,1,8,4F,50,00,0D,C2,10,00,00,
102217463,02620028,true,Rx,1,8,48,0C,00,48,F0,5F,45,3B,
102237050,00E00024,true,Rx,1,8,C0,00,00,00,00,00,3F,20,
102237631,01E2402C,true,Rx,1,8,8F,50,00,0D,C2,10,00,00,
102246909,02620028,true,Rx,1,8,88,0C,00,48,F0,5F,45,3B,
102256998,01E2402C,true,Rx,1,8,CF,50,00,0D,C2,10,00,00,
102276920,01E2402C,true,Rx,1,8,0F,50,00,0D,C2,10,00,00,
102277489,02620028,true,Rx,1,8,C0,0C,00,48,F0,5F,45,3B,
102297002,01E2402C,true,Rx,1,8,4F,50,00,0D,C2,10,00,00,
102306944,00E00024,true,Rx,1,8,00,00,00,00,00,00,3F,40,
102307503,02620028,true,Rx,1,8,08,0C,00,48,F0,5F,45,3B,
102316940,01E2402C,true,Rx,1,8,8F,50,00,0D,C2,10,00,00,
102336904,01E2402C,true,Rx,1,8,CF,50,00,0D,C2,10,00,00,
102337462,02620028,true,Rx,1,8,48,0C,00,48,F0,5F,45,3B,
102356942,01E2402C,true,Rx,1,8,0F,50,00,0D,C2,10,00,00,
102366925,02620028,true,Rx,1,8,88,0C,00,48,F0,5F,45,3B,
102377087,00E00024,true,Rx,1,8,40,00,00,00,00,00,3F,60,
102377658,01E2402C,true,Rx,1,8,4F,50,00,0D,C2,11,00,00,
102396949,01E2402C,true,Rx,1,8,8F,50,00,0D,C2,10,00,00,
102397509,02620028,true,Rx,1,8,C0,0C,00,48,F0,5F,45,3B,
102411830,0242C07C,true,Rx,1,8,1A,02,02,01,04,01,02,03,
102416961,01E2402C,true,Rx,1,8,CF,50,00,0D,C2,10,00,00,
102426882,02620028,true,Rx,1,8,08,0C,00,CC,F0,5F,45,3B,
102436970,01E2402C,true,Rx,1,8,0F,50,00,2D,C2,10,00,00,
102447110,00E00024,true,Rx,1,8,80,00,00,00,00,00,3F,80,
102456956,01E2402C,true,Rx,1,8,4F,50,00,0D,C2,10,00,00,
102457506,02620028,true,Rx,1,8,48,0C,00,48,F0,5F,45,3B,
102476956,01E2402C,true,Rx,1,8,8F,50,00,0D,C2,10,00,00,
102486887,02620028,true,Rx,1,8,88,0C,00,48,F0,5F,45,3B,
102496945,01E2402C,true,Rx,1,8,CF,50,00,0D,C2,10,00,00,
102516909,01E2402C,true,Rx,1,8,0F,50,00,0D,C2,10,00,00,
102517480,02620028,true,Rx,1,8,C0,0C,00,48,F0,5F,45,3B,
102522293,00E00024,true,Rx,1,8,C0,00,00,00,00,00,3F,A0,
102536950,01E2402C,true,Rx,1,8,4F,50,00,0D,C2,10,00,00,
102546838,02620028,true,Rx,1,8,08,0C,00,48,F0,5F,45,3B,
102556936,01E2402C,true,Rx,1,8,8F,50,00,0D,C2,10,00,00,
102577025,01E2402C,true,Rx,1,8,CF,50,00,0D,C2,11,00,00,
102577586,02620028,true,Rx,1,8,48,0C,00,48,F0,5F,45,3B,
102591928,00E00024,true,Rx,1,8,00,00,00,00,00,00,3F,C0,
102596941,01E2402C,true,Rx,1,8,0F,50,00,0D,C2,10,00,00,
102606914,02620028,true,Rx,1,8,88,0C,00,48,F0,5F,45,3B,
102616929,01E2402C,true,Rx,1,8,4F,50,00,0D,C2,10,00,00,
102636885,01E2402C,true,Rx,1,8,8F,50,00,0D,C2,10,00,00,
102637445,02620028,true,Rx,1,8,C0,0C,00,48,F0,5F,45,3B,
102657032,01E2402C,true,Rx,1,8,CF,50,00,0D,C2,10,00,00,
102661929,00E00024,true,Rx,1,8,40,00,00,00,00,00,3F,E0,
102666878,02620028,true,Rx,1,8,08,0C,00,48,F0,5F,45,3B,
102677020,01E2402C,true,Rx,1,8,0F,50,00,0D,C2,10,00,00,
102691835,0242C07C,true,Rx,1,8,1F,01,02,03,02,01,22,00,
102696901,01E2402C,true,Rx,1,8,4F,50,00,0D,C2,10,00,00,
102697461,02620028,true,Rx,1,8,48,0C,00,48,F0,5F,45,3B,
102716984,01E2402C,true,Rx,1,8,8F,50,00,0D,C2,10,00,00,
102726957,02620028,true,Rx,1,8,88,0C,00,48,F0,5F,45,3B,
102732012,00E00024,true,Rx,1,8,80,00,00,00,00,00,3F,00,
102736984,01E2402C,true,Rx,1,8,CF,50,00,0D,C2,10,00,00,
102756905,01E2402C,true,Rx,1,8,0F,50,00,0D,C2,10,00,00,
102757474,02620028,true,Rx,1,8,C0,0C,00,48,F0,5F,45,3B,
102776976,01E2402C,true,Rx,1,8,4F,50,00,0D,C2,11,00,00,
102786908,02620028,true,Rx,1,8,08,0C,00,48,F0,5F,45,3B,
102796921,01E2402C,true,Rx,1,8,8F,50,00,0D,C2,10,00,00,
102802324,00E00024,true,Rx,1,8,C0,00,00,00,00,00,3F,20,
102816929,01E2402C,true,Rx,1,8,CF,50,00,2D,C2,10,00,00,
102817488,02620028,true,Rx,1,8,48,0C,00,CC,F0,5F,45,3B,
102836927,01E2402C,true,Rx,1,8,0F,50,00,0D,C2,10,00,00,
102846899,02620028,true,Rx,1,8,88,0C,00,48,F0,5F,45,3B,
102857008,01E2402C,true,Rx,1,8,4F,50,00,0D,C2,10,00,00,
102877046,00E00024,true,Rx,1,8,00,00,00,00,00,00,3F,40,
102877618,01E2402C,true,Rx,1,8,8F,50,00,0D,C2,10,00,00,
102878182,02620028,true,Rx,1,8,C0,0C,00,48,F0,5F,45,3B,
102897031,01E2402C,true,Rx,1,8,CF,50,00,0D,C2,10,00,00,
102906855,02620028,true,Rx,1,8,08,0C,00,48,F0,5F,45,3B,
102916913,01E2402C,true,Rx,1,8,0F,50,00,0D,C2,10,00,00,
102936899,01E2402C,true,Rx,1,8,4F,50,00,0D,C2,10,00,00,
102937459,02620028,true,Rx,1,8,48,0C,00,48,F0,5F,45,3B,
102946999,00E00024,true,Rx,1,8,40,00,00,00,00,00,3F,60,
102957002,01E2402C,true,Rx,1,8,8F,50,00,0D,C2,10,00,00,
102966892,02620028,true,Rx,1,8,88,0C,00,48,F0,5F,45,3B,
102971874,0242C07C,true,Rx,1,8,01,03,5E,73,F7,7A,01,07,
102976992,01E2402C,true,Rx,1,8,CF,50,00,0D,C2,31,00,00,
102996947,01E2402C,true,Rx,1,8,0F,50,00,0D,C2,10,00,00,
102997507,02620028,true,Rx,1,8,C0,0C,00,48,F0,5F,45,3B,
103017050,00E00024,true,Rx,1,8,80,00,00,00,00,00,3F,80,
103017622,01E2402C,true,Rx,1,8,4F,50,00,0D,C2,10,00,00,
103026899,02620028,true,Rx,1,8,08,0C,00,48,F0,5F,45,3B,
103036913,01E2402C,true,Rx,1,8,8F,50,00,0D,C2,10,00,00,
103056930,01E2402C,true,Rx,1,8,CF,50,00,0D,C2,10,00,00,
103057490,02620028,true,Rx,1,8,48,0C,00,48,F0,5F,45,3B,
103076960,01E2402C,true,Rx,1,8,0F,50,00,0D,C2,10,00,00,
103087005,00E00024,true,Rx,1,8,C0,00,00,00,00,00,3F,A0,
103087566,02620028,true,Rx,1,8,88,0C,00,48,F0,5F,45,3B,
103096960,01E2402C,true,Rx,1,8,4F,50,00,0D,C2,10,00,00,
103116894,01E2402C,true,Rx,1,8,8F,50,00,0D,C2,10,00,00,
103117464,02620028,true,Rx,1,8,C0,0C,00,48,F0,5F,45,3B,
103136988,01E2402C,true,Rx,1,8,CF,50,00,0D,C2,10,00,00,
103146833,02620028,true,Rx,1,8,08,0C,00,48,F0,5F,45,3B,
103157080,00E00024,true,Rx,1,8,00,00,00,00,00,00,3F,C0,
103157650,01E2402C,true,Rx,1,8,0F,50,00,0D,C2,10,00,00,
103176972,01E2402C,true,Rx,1,8,4F,50,00,0D,C2,11,00,00,
103177531,02620028,true,Rx,1,8,48,0C,00,48,F0,5F,45,3B,
103196919,01E2402C,true,Rx,1,8,8F,50,00,2D,C2,10,00,00,
103206943,02620028,true,Rx,1,8,88,0C,00,CC,F0,5F,45,3B,
103216936,01E2402C,true,Rx,1,8,CF,50,00,0D,C2,10,00,00,
103227140,00E00024,true,Rx,1,8,40,00,00,00,00,00,3F,E0,
103236914,01E2402C,true,Rx,1,8,0F,50,00,0D,C2,10,00,00,
103237483,02620028,true,Rx,1,8,C0,0C,00,48,F0,5F,45,3B,
103251805,0242C07C,true,Rx,1,8,02,51,5C,52,72,06,DC,BC,
103256976,01E2402C,true,Rx,1,8,4F,50,00,0D,C2,10,00,00,
103266834,02620028,true,Rx,1,8,08,0C,00,48,F0,5F,45,3B,
103276997,01E2402C,true,Rx,1,8,8F,50,00,0D,C2,10,00,00,
103296929,01E2402C,true,Rx,1,8,CF,50,00,0D,C2,10,00,00,
103297488,02620028,true,Rx,1,8,48,0C,00,48,F0,5F,45,3B,
103302355,00E00024,true,Rx,1,8,80,00,00,00,00,00,3F,00,
103316941,01E2402C,true,Rx,1,8,0F,50,00,0D,C2,10,00,00,
103326924,02620028,true,Rx,1,8,88,0C,00,48,F0,5F,45,3B,
103336958,01E2402C,true,Rx,1,8,4F,50,00,0D,C2,10,00,00,
103356910,01E2402C,true,Rx,1,8,8F,50,00,0D,C2,10,00,00,
103357470,02620028,true,Rx,1,8,C0,0C,00,48,F0,5F,45,3B,
103377235,00E00024,true,Rx,1,8,C0,00,00,00,00,00,3F,20,
103377796,01E2402C,true,Rx,1,8,CF,50,00,0D,C2,11,00,00,
103386853,02620028,true,Rx,1,8,08,0C,00,48,F0,5F,45,3B,
103396910,01E2402C,true,Rx,1,8,0F,50,00,0D,C2,10,00,00,
103416968,01E2402C,true,Rx,1,8,4F,50,00,0D,C2,10,00,00,
103417518,02620028,true,Rx,1,8,48,0C,00,48,F0,5F,45,3B,
103436936,01E2402C,true,Rx,1,8,8F,50,00,0D,C2,10,00,00,
103447035,00E00024,true,Rx,1,8,00,00,00,00,00,00,3F,40,
103447586,02620028,true,Rx,1,8,88,0C,00,48,F0,5F,45,3B,
103456969,01E2402C,true,Rx,1,8,CF,50,00,0D,C2,10,00,00,
103476912,01E2402C,true,Rx,1,8,0F,50,00,0D,C2,10,00,00,
103477472,02620028,true,Rx,1,8,C0,0C,00,48,F0,5F,45,3B,
103496941,01E2402C,true,Rx,1,8,4F,50,00,0D,C2,10,00,00,
103506850,02620028,true,Rx,1,8,08,0C,00,48,F0,5F,45,3B,
103517064,00E00024,true,Rx,1,8,40,00,00,00,00,00,3F,60,
103517636,01E2402C,true,Rx,1,8,8F,50,00,0D,C2,10,00,00,
103531830,0242C07C,true,Rx,1,8,1B,01,01,02,01,01,01,01,
103536906,01E2402C,true,Rx,1,8,CF,50,00,0D,C2,10,00,00,
103537466,02620028,true,Rx,1,8,48,0C,00,48,F0,5F,45,3B,
103557019,01E2402C,true,Rx,1,8,0F,50,00,0D,C2,10,00,00,
103566887,02620028,true,Rx,1,8,88,0C,00,48,F0,5F,45,3B,
103576996,01E2402C,true,Rx,1,8,4F,50,00,0D,C2,11,00,00,
103587053,00E00024,true,Rx,1,8,80,00,00,00,00,00,3F,80,
103596898,01E2402C,true,Rx,1,8,8F,50,00,2D,C2,10,00,00,
103597458,02620028,true,Rx,1,8,C0,0C,00,CC,F0,5F,45,3B,
103616959,01E2402C,true,Rx,1,8,CF,50,00,0D,C2,10,00,00,
103626899,02620028,true,Rx,1,8,08,0C,00,48,F0,5F,45,3B,
103636904,01E2402C,true,Rx,1,8,0F,50,00,0D,C2,10,00,00,
103657068,00E00024,true,Rx,1,8,C0,00,00,00,00,00,3F,A0,
103657638,01E2402C,true,Rx,1,8,4F,50,00,0D,C2,10,00,00,
103658192,02620028,true,Rx,1,8,48,0C,00,48,F0,5F,45,3B,
103676978,01E2402C,true,Rx,1,8,8F,50,00,0D,C2,10,00,00,
103686877,02620028,true,Rx,1,8,88,0C,00,48,F0,5F,45,3B,
103696964,01E2402C,true,Rx,1,8,CF,50,00,0D,C2,10,00,00,
103716897,01E2402C,true,Rx,1,8,0F,50,00,0D,C2,10,00,00,
103717456,02620028,true,Rx,1,8,C0,0C,00,48,F0,5F,45,3B,
103727125,00E00024,true,Rx,1,8,00,00,00,00,00,00,3F,C0,
103736993,01E2402C,true,Rx,1,8,4F,50,00,0D,C2,10,00,00,
103746830,02620028,true,Rx,1,8,08,0C,00,48,F0,5F,45,3B,
103756928,01E2402C,true,Rx,1,8,8F,50,00,0D,C2,10,00,00,
103776955,01E2402C,true,Rx,1,8,CF,50,00,0D,C2,11,00,00,
103777515,02620028,true,Rx,1,8,48,0C,00,48,F0,5F,45,3B,
103797078,00E00024,true,Rx,1,8,40,00,00,00,00,00,3F,E0,
103797650,01E2402C,true,Rx,1,8,0F,50,00,0D,C2,10,00,00,
103806905,02620028,true,Rx,1,8,88,0C,00,48,F0,5F,45,3B,
103811886,0242C07C,true,Rx,1,8,20,00,00,00,00,00,00,00,
103816963,01E2402C,true,Rx,1,8,4F,50,00,0D,C2,10,00,00,
103836916,01E2402C,true,Rx,1,8,8F,50,00,0D,C2,10,00,00,
103837476,02620028,true,Rx,1,8,C0,0C,00,48,F0,5F,45,3B,
103856988,01E2402C,true,Rx,1,8,CF,50,00,0D,C2,10,00,00,
103866867,02620028,true,Rx,1,8,08,0C,00,48,F0,5F,45,3B,
103871986,00E00024,true,Rx,1,8,80,00,00,00,00,00,3F,00,
103876957,01E2402C,true,Rx,1,8,0F,50,00,0D,C2,10,00,00,
103896900,01E2402C,true,Rx,1,8,4F,50,00,0D,C2,10,00,00,
103897449,02620028,true,Rx,1,8,48,0C,00,48,F0,5F,45,3B,
103916919,01E2402C,true,Rx,1,8,8F,50,00,0D,C2,10,00,00,
103926934,02620028,true,Rx,1,8,88,0C,00,48,F0,5F,45,3B,
103936970,01E2402C,true,Rx,1,8,CF,50,00,0D,C2,10,00,00,
103941984,00E00024,true,Rx,1,8,C0,00,00,00,00,00,3F,20,
103956904,01E2402C,true,Rx,1,8,0F,50,00,0D,C2,10,00,00,
103957464,02620028,true,Rx,1,8,C0,0C,00,48,F0,5F,45,3B,
103977047,01E2402C,true,Rx,1,8,4F,50,00,2D,C2,31,00,00,
103986831,02620028,true,Rx,1,8,08,0C,00,CC,F0,5F,45,3B,
103996939,01E2402C,true,Rx,1,8,8F,50,00,0D,C2,10,00,00,
104011925,00E00024,true,Rx,1,8,00,00,00,00,00,00,3F,40,
104016928,01E2402C,true,Rx,1,8,CF,50,00,0D,C2,10,00,00,
104017488,02620028,true,Rx,1,8,48,0C,00,48,F0,5F,45,3B,
104036914,01E2402C,true,Rx,1,8,0F,50,00,0D,C2,10,00,00,
104046908,02620028,true,Rx,1,8,88,0C,00,48,F0,5F,45,3B,
104056986,01E2402C,true,Rx,1,8,4F,50,00,0D,C2,10,00,00,
104076971,01E2402C,true,Rx,1,8,8F,50,00,0D,C2,10,00,00,
104077542,02620028,true,Rx,1,8,C0,0C,00,48,F0,5F,45,3B,
104081914,00E00024,true,Rx,1,8,40,00,00,00,00,00,3F,60,
104091813,0242C07C,true,Rx,1,8,01,03,5E,73,F7,86,FE,F8,
104096942,01E2402C,true,Rx,1,8,CF,50,00,0D,C2,10,00,00,
104106840,02620028,true,Rx,1,8,08,0C,00,48,F0,5F,45,3B,
104116928,01E2402C,true,Rx,1,8,0F,50,00,0D,C2,10,00,00,
104136926,01E2402C,true,Rx,1,8,4F,50,00,0D,C2,10,00,00,
104137474,02620028,true,Rx,1,8,48,0C,00,48,F0,5F,45,3B,
104151910,00E00024,true,Rx,1,8,80,00,00,00,00,00,3F,80,
104156988,01E2402C,true,Rx,1,8,8F,50,00,0D,C2,10,00,00,
104166887,02620028,true,Rx,1,8,88,0C,00,48,F0,5F,45,3B,
104176954,01E2402C,true,Rx,1,8,CF,50,00,0D,C2,11,00,00,
104196876,01E2402C,true,Rx,1,8,0F,50,00,0D,C2,10,00,00,
104197435,02620028,true,Rx,1,8,C0,0C,00,48,F0,5F,45,3B,
104216989,01E2402C,true,Rx,1,8,4F,50,00,0D,C2,10,00,00,
104226993,00E00024,true,Rx,1,8,C0,00,00,00,00,00,3F,A0,
104227555,02620028,true,Rx,1,8,08,0C,00,48,F0,5F,45,3B,
104236905,01E2402C,true,Rx,1,8,8F,50,00,0D,C2,10,00,00,
104256952,01E2402C,true,Rx,1,8,CF,50,00,0D,C2,10,00,00,
104257512,02620028,true,Rx,1,8,48,0C,00,48,F0,5F,45,3B,
104276962,01E2402C,true,Rx,1,8,0F,50,00,0D,C2,10,00,00,
104286914,02620028,true,Rx,1,8,88,0C,00,48,F0,5F,45,3B,
104297054,00E00024,true,Rx,1,8,00,00,00,00,00,00,3F,C0,
104297626,01E2402C,true,Rx,1,8,4F,50,00,0D,C2,10,00,00,
104316874,01E2402C,true,Rx,1,8,8F,50,00,0D,C2,10,00,00,
104317434,02620028,true,Rx,1,8,C0,0C,00,48,F0,5F,45,3B,
104336967,01E2402C,true,Rx,1,8,CF,50,00,0D,C2,10,00,00,
104347056,02620028,true,Rx,1,8,08,0C,00,CC,F0,5F,45,3B,
104356987,01E2402C,true,Rx,1,8,0F,50,00,2D,C2,10,00,00,
104367129,00E00024,true,Rx,1,8,40,00,00,00,00,00,3F,E0,
104371849,0242C07C,true,Rx,1,8,05,00,3F,9E,00,02,07,A8,
104376936,01E2402C,true,Rx,1,8,4F,50,00,0D,C2,11,00,00,
104377496,02620028,true,Rx,1,8,48,0C,00,48,F0,5F,45,3B,
104396946,01E2402C,true,Rx,1,8,8F,50,00,0D,C2,10,00,00,
104406898,02620028,true,Rx,1,8,88,0C,00,48,F0,5F,45,3B,
104416955,01E2402C,true,Rx,1,8,CF,50,00,0D,C2,10,00,00,
104437025,00E00024,true,Rx,1,8,80,00,00,00,00,00,3F,00,
104437597,01E2402C,true,Rx,1,8,0F,50,00,0D,C2,10,00,00,
104438161,02620028,true,Rx,1,8,C0,0C,00,48,F0,5F,45,3B,
104457009,01E2402C,true,Rx,1,8,4F,50,00,0D,C2,10,00,00,
104466855,02620028,true,Rx,1,8,08,0C,00,48,F0,5F,45,3B,
104476934,01E2402C,true,Rx,1,8,8F,50,00,0D,C2,10,00,00,
104496929,01E2402C,true,Rx,1,8,CF,50,00,0D,C2,10,00,00,
104497489,02620028,true,Rx,1,8,48,0C,00,48,F0,5F,45,3B,
104511926,00E00024,true,Rx,1,8,C0,00,00,00,00,00,3F,20,
104516907,01E2402C,true,Rx,1,8,0F,50,00,0D,C2,10,00,00,
104526911,02620028,true,Rx,1,8,88,0C,00,48,F0,5F,45,3B,
104536987,01E2402C,true,Rx,1,8,4F,50,00,0D,C2,10,00,00,
104556920,01E2402C,true,Rx,1,8,8F,50,00,0D,C2,10,00,00,
104557479,02620028,true,Rx,1,8,C0,0C,00,48,F0,5F,45,3B,
104576970,01E2402C,true,Rx,1,8,CF,50,00,0D,C2,11,00,00,
104581963,00E00024,true,Rx,1,8,00,00,00,00,00,00,3F,40,
104586818,02620028,true,Rx,1,8,08,0C,00,48,F0,5F,45,3B,
104596897,01E2402C,true,Rx,1,8,0F,50,00,0D,C2,10,00,00,
104616913,01E2402C,true,Rx,1,8,4F,50,00,0D,C2,10,00,00,
104617463,02620028,true,Rx,1,8,48,0C,00,48,F0,5F,45,3B,
104636976,01E2402C,true,Rx,1,8,8F,50,00,0D,C2,10,00,00,
104646906,02620028,true,Rx,1,8,88,0C,00,48,F0,5F,45,3B,
104651919,0242C07C,true,Rx,1,8,1C,01,04,01,01,01,03,01,
104657091,00E00024,true,Rx,1,8,40,00,00,00,00,00,3F,60,
104657663,01E2402C,true,Rx,1,8,CF,50,00,0D,C2,10,00,00,
104676931,01E2402C,true,Rx,1,8,0F,50,00,0D,C2,10,00,00,
104677500,02620028,true,Rx,1,8,C0,0C,00,48,F0,5F,45,3B,
104696962,01E2402C,true,Rx,1,8,4F,50,00,0D,C2,10,00,00,
104706861,02620028,true,Rx,1,8,08,0C,00,48,F0,5F,45,3B,
104716928,01E2402C,true,Rx,1,8,8F,50,00,0D,C2,10,00,00,
104722351,00E00024,true,Rx,1,8,80,00,00,00,00,00,3F,80,
104737093,01E2402C,true,Rx,1,8,CF,50,00,2D,C2,10,00,00,
104737654,02620028,true,Rx,1,8,48,0C,00,CC,F0,5F,45,3B,
104756953,01E2402C,true,Rx,1,8,0F,50,00,0D,C2,10,00,00,
104766914,02620028,true,Rx,1,8,80,0C,00,48,F0,5F,45,3B,
104777024,01E2402C,true,Rx,1,8,4F,50,00,0D,C2,11,00,00,
104796976,00E00024,true,Rx,1,8,C0,00,00,00,00,00,3F,A0,
104797548,01E2402C,true,Rx,1,8,8F,50,00,0D,C2,10,00,00,
104798100,02620028,true,Rx,1,8,C8,0C,00,48,F0,5F,45,3B,
104816992,01E2402C,true,Rx,1,8,CF,50,00,0D,C2,10,00,00,
104826881,02620028,true,Rx,1,8,08,0C,00,48,F0,5F,45,3B,
104836918,01E2402C,true,Rx,1,8,0F,50,00,0D,C2,10,00,00,
104856934,01E2402C,true,Rx,1,8,4F,50,00,0D,C2,10,00,00,
104857494,02620028,true,Rx,1,8,48,0C,00,48,F0,5F,45,3B,
104866972,00E00024,true,Rx,1,8,00,00,00,00,00,00,3F,C0,
104876966,01E2402C,true,Rx,1,8,8F,50,00,0D,C2,10,00,00,
104886918,02620028,true,Rx,1,8,88,0C,00,48,F0,5F,45,3B,
104896975,01E2402C,true,Rx,1,8,CF,50,00,0D,C2,10,00,00,
104916929,01E2402C,true,Rx,1,8,0F,50,00,0D,C2,10,00,00,
104917489,02620028,true,Rx,1,8,C0,0C,00,48,F0,5F,45,3B,
104931874,0242C07C,true,Rx,1,8,21,00,00,00,00,00,00,00,
104937033,00E00024,true,Rx,1,8,40,00,00,00,00,00,3F,E0,
104937605,01E2402C,true,Rx,1,8,4F,50,00,0D,C2,10,00,00,
104946819,02620028,true,Rx,1,8,08,0C,00,48,F0,5F,45,3B,
104956949,01E2402C,true,Rx,1,8,8F,50,00,0D,C2,10,00,00,
104976977,01E2402C,true,Rx,1,8,CF,50,00,0D,C2,31,00,00,
104977526,02620028,true,Rx,1,8,48,0C,00,48,F0,5F,45,3B,
104996912,01E2402C,true,Rx,1,8,0F,50,00,0D,C2,10,00,00,
105006875,02620028,true,Rx,1,8,88,0C,00,48,F0,5F,45,3B,
105011983,00E00024,true,Rx,1,8,80,00,00,00,00,00,3F,00,
105016923,01E2402C,true,Rx,1,8,4F,50,00,0D,C2,10,00,00,
105036887,01E2402C,true,Rx,1,8,8F,50,00,0D,C2,10,00,00,
105037457,02620028,true,Rx,1,8,C0,0C,00,48,F0,5F,45,3B,
105057002,01E2402C,true,Rx,1,8,CF,50,00,0D,C2,10,00,00,
105066827,02620028,true,Rx,1,8,08,0C,00,48,F0,5F,45,3B,
105076924,01E2402C,true,Rx,1,8,0F,50,00,0D,C2,10,00,00,
105081949,00E00024,true,Rx,1,8,C0,00,00,00,00,00,3F,20,
105096945,01E2402C,true,Rx,1,8,4F,50,00,0D,C2,10,00,00,
105097503,02620028,true,Rx,1,8,48,0C,00,48,F0,5F,45,3B,
105117225,01E2402C,true,Rx,1,8,8F,50,00,2D,C2,10,00,00,
105126978,02620028,true,Rx,1,8,88,0C,00,CC,F0,5F,45,3B,
105136951,01E2402C,true,Rx,1,8,CF,50,00,0D,C2,10,00,00,
105152303,00E00024,true,Rx,1,8,00,00,00,00,00,00,3F,40,
105156928,01E2402C,true,Rx,1,8,0F,50,00,0D,C2,10,00,00,
105157497,02620028,true,Rx,1,8,C0,0C,00,48,F0,5F,45,3B,
105176999,01E2402C,true,Rx,1,8,4F,50,00,0D,C2,11,00,00,
105186835,02620028,true,Rx,1,8,08,0C,00,48,F0,5F,45,3B,
105196966,01E2402C,true,Rx,1,8,8F,50,00,0D,C2,10,00,00,
105211834,0242C07C,true,Rx,1,8,01,03,5E,73,F7,92,01,07,
105216921,01E2402C,true,Rx,1,8,CF,50,00,0D,C2,10,00,00,
105217480,02620028,true,Rx,1,8,48,0C,00,48,F0,5F,45,3B,
105222357,00E00024,true,Rx,1,8,40,00,00,00,00,00,3F,60,
105236962,01E2402C,true,Rx,1,8,0F,50,00,0D,C2,10,00,00,
105246893,02620028,true,Rx,1,8,88,0C,00,48,F0,5F,45,3B,
105256970,01E2402C,true,Rx,1,8,4F,50,00,0D,C2,10,00,00,
105276903,01E2402C,true,Rx,1,8,8F,50,00,0D,C2,10,00,00,
105277473,02620028,true,Rx,1,8,C0,0C,00,48,F0,5F,45,3B,
105291920,00E00024,true,Rx,1,8,80,00,00,00,00,00,3F,80,
105296975,01E2402C,true,Rx,1,8,CF,50,00,0D,C2,10,00,00,
105306855,02620028,true,Rx,1,8,08,0C,00,48,F0,5F,45,3B,
105316921,01E2402C,true,Rx,1,8,0F,50,00,0D,C2,10,00,00,
105336937,01E2402C,true,Rx,1,8,4F,50,00,0D,C2,10,00,00,
105337497,02620028,true,Rx,1,8,48,0C,00,48,F0,5F,45,3B,
105356925,01E2402C,true,Rx,1,8,8F,50,00,0D,C2,10,00,00,
105361950,00E00024,true,Rx,1,8,C0,00,00,00,00,00,3F,A0,
105366890,02620028,true,Rx,1,8,88,0C,00,48,F0,5F,45,3B,
105377010,01E2402C,true,Rx,1,8,CF,50,00,0D,C2,11,00,00,
105396890,01E2402C,true,Rx,1,8,0F,50,00,0D,C2,10,00,00,
105397450,02620028,true,Rx,1,8,C0,0C,00,48,F0,5F,45,3B,
105416951,01E2402C,true,Rx,1,8,4F,50,00,0D,C2,10,00,00,
105426871,02620028,true,Rx,1,8,08,0C,00,48,F0,5F,45,3B,
105431960,00E00024,true,Rx,1,8,00,00,00,00,00,00,3F,C0,
105436899,01E2402C,true,Rx,1,8,8F,50,00,0D,C2,10,00,00,
105456936,01E2402C,true,Rx,1,8,CF,50,00,0D,C2,10,00,00,
105457496,02620028,true,Rx,1,8,48,0C,00,48,F0,5F,45,3B,
105476998,01E2402C,true,Rx,1,8,0F,50,00,0D,C2,10,00,00,
105486866,02620028,true,Rx,1,8,88,0C,00,48,F0,5F,45,3B,
105491880,0242C07C,true,Rx,1,8,02,51,5C,52,71,06,DC,BC,
105496945,01E2402C,true,Rx,1,8,4F,50,00,0D,C2,10,00,00,
105507002,00E00024,true,Rx,1,8,40,00,00,00,00,00,3F,E0,
105516892,01E2402C,true,Rx,1,8,8F,50,00,2D,C2,10,00,00,
105517452,02620028,true,Rx,1,8,C0,0C,00,CC,F0,5F,45,3B,
105536941,01E2402C,true,Rx,1,8,CF,50,00,0D,C2,10,00,00,
105546882,02620028,true,Rx,1,8,08,0C,00,48,F0,5F,45,3B,
105556918,01E2402C,true,Rx,1,8,0F,50,00,0D,C2,10,00,00,
105576968,01E2402C,true,Rx,1,8,4F,50,00,0D,C2,11,00,00,
105577516,02620028,true,Rx,1,8,48,0C,00,48,F0,5F,45,3B,
105582362,00E00024,true,Rx,1,8,80,00,00,00,00,00,3F,00,
105596957,01E2402C,true,Rx,1,8,8F,50,00,0D,C2,10,00,00,
105606887,02620028,true,Rx,1,8,88,0C,00,48,F0,5F,45,3B,
105616943,01E2402C,true,Rx,1,8,CF,50,00,0D,C2,10,00,00,
105636866,01E2402C,true,Rx,1,8,0F,50,00,0D,C2,10,00,00,
105637435,02620028,true,Rx,1,8,C0,0C,00,48,F0,5F,45,3B,
105647051,00E00024,true,Rx,1,8,C0,00,00,00,00,00,3F,20,
105657035,01E2402C,true,Rx,1,8,4F,50,00,0D,C2,10,00,00,
105666840,02620028,true,Rx,1,8,08,0C,00,48,F0,5F,45,3B,
105676970,01E2402C,true,Rx,1,8,8F,50,00,0D,C2,10,00,00,
105696892,01E2402C,true,Rx,1,8,CF,50,00,0D,C2,10,00,00,
105697451,02620028,true,Rx,1,8,48,0C,00,48,F0,5F,45,3B,
105716931,01E2402C,true,Rx,1,8,0F,50,00,0D,C2,10,00,00,
105721945,00E00024,true,Rx,1,8,00,00,00,00,00,00,3F,40,
105726939,02620028,true,Rx,1,8,88,0C,00,48,F0,5F,45,3B,
105736974,01E2402C,true,Rx,1,8,4F,50,00,0D,C2,10,00,00,
105756958,01E2402C,true,Rx,1,8,8F,50,00,0D,C2,10,00,00,
105757528,02620028,true,Rx,1,8,C0,0C,00,48,F0,5F,45,3B,
105771839,0242C07C,true,Rx,1,8,1D,06,02,01,01,01,01,01,
105776960,01E2402C,true,Rx,1,8,CF,50,00,0D,C2,11,00,00,
105786848,02620028,true,Rx,1,8,08,0C,00,48,F0,5F,45,3B,
105791967,00E00024,true,Rx,1,8,40,00,00,00,00,00,3F,60,
105796928,01E2402C,true,Rx,1,8,0F,50,00,0D,C2,10,00,00,
105816913,01E2402C,true,Rx,1,8,4F,50,00,0D,C2,10,00,00,
105817463,02620028,true,Rx,1,8,48,0C,00,48,F0,5F,45,3B,
105836900,01E2402C,true,Rx,1,8,8F,50,00,0D,C2,10,00,00,
105846893,02620028,true,Rx,1,8,88,0C,00,48,F0,5F,45,3B,
105856971,01E2402C,true,Rx,1,8,CF,50,00,0D,C2,10,00,00,
105867081,00E00024,true,Rx,1,8,80,00,00,00,00,00,3F,80,
105876929,01E2402C,true,Rx,1,8,0F,50,00,0D,C2,10,00,00,
105877489,02620028,true,Rx,1,8,C0,0C,00,48,F0,5F,45,3B,
105896928,01E2402C,true,Rx,1,8,4F,50,00,2D,C2,10,00,00,
105906837,02620028,true,Rx,1,8,08,0C,00,CC,F0,5F,45,3B,
105916914,01E2402C,true,Rx,1,8,8F,50,00,0D,C2,10,00,00,
105937046,00E00024,true,Rx,1,8,C0,00,00,00,00,00,3F,A0,
105937617,01E2402C,true,Rx,1,8,CF,50,00,0D,C2,10,00,00,
105938171,02620028,true,Rx,1,8,48,0C,00,48,F0,5F,45,3B,
105956946,01E2402C,true,Rx,1,8,0F,50,00,0D,C2,10,00,00,
105966930,02620028,true,Rx,1,8,88,0C,00,48,F0,5F,45,3B,
105977018,01E2402C,true,Rx,1,8,4F,50,00,0D,C2,31,00,00,
105996866,01E2402C,true,Rx,1,8,8F,50,00,0D,C2,10,00,00,
105997427,02620028,true,Rx,1,8,C0,0C,00,48,F0,5F,45,3B,
106007052,00E00024,true,Rx,1,8,00,00,00,00,00,00,3F,C0,
106016981,01E2402C,true,Rx,1,8,CF,50,00,0D,C2,10,00,00,
106026869,02620028,true,Rx,1,8,08,0C,00,48,F0,5F,45,3B,
106036958,01E2402C,true,Rx,1,8,0F,50,00,0D,C2,10,00,00,
106051826,0242C07C,true,Rx,1,8,22,00,00,00,00,00,00,00,
106056956,01E2402C,true,Rx,1,8,4F,50,00,0D,C2,10,00,00,
106057515,02620028,true,Rx,1,8,48,0C,00,48,F0,5F,45,3B,
106077057,00E00024,true,Rx,1,8,40,00,00,00,00,00,3F,E0,
106077638,01E2402C,true,Rx,1,8,8F,50,00,0D,C2,10,00,00,
106086873,02620028,true,Rx,1,8,88,0C,00,48,F0,5F,45,3B,
106096941,01E2402C,true,Rx,1,8,CF,50,00,0D,C2,10,00,00,
106116863,01E2402C,true,Rx,1,8,0F,50,00,0D,C2,10,00,00,
106117422,02620028,true,Rx,1,8,C0,0C,00,48,F0,5F,45,3B,
106136937,01E2402C,true,Rx,1,8,4F,50,00,0D,C2,10,00,00,
106146950,00E00024,true,Rx,1,8,80,00,00,00,00,00,3F,00,
106147520,02620028,true,Rx,1,8,08,0C,00,48,F0,5F,45,3B,
106156935,01E2402C,true,Rx,1,8,8F,50,00,0D,C2,10,00,00,
106176973,01E2402C,true,Rx,1,8,CF,50,00,0D,C2,11,00,00,
106177523,02620028,true,Rx,1,8,48,0C,00,48,F0,5F,45,3B,
106196941,01E2402C,true,Rx,1,8,0F,50,00,0D,C2,10,00,00,
106206861,02620028,true,Rx,1,8,88,0C,00,48,F0,5F,45,3B,
106217074,00E00024,true,Rx,1,8,C0,00,00,00,00,00,3F,20,
106217645,01E2402C,true,Rx,1,8,4F,50,00,0D,C2,10,00,00,
106236882,01E2402C,true,Rx,1,8,8F,50,00,0D,C2,10,00,00,
106237443,02620028,true,Rx,1,8,C0,0C,00,48,F0,5F,45,3B,
106256974,01E2402C,true,Rx,1,8,CF,50,00,0D,C2,10,00,00,
106266831,02620028,true,Rx,1,8,08,0C,00,48,F0,5F,45,3B,
106276918,01E2402C,true,Rx,1,8,0F,50,00,2D,C2,10,00,00,
106287133,00E00024,true,Rx,1,8,00,00,00,00,00,00,3F,40,
106296918,01E2402C,true,Rx,1,8,4F,50,00,0D,C2,10,00,00,
106297468,02620028,true,Rx,1,8,48,0C,00,CC,F0,5F,45,3B,
106316957,01E2402C,true,Rx,1,8,8F,50,00,0D,C2,10,00,00,
106326898,02620028,true,Rx,1,8,88,0C,00,48,F0,5F,45,3B,
106331934,0242C07C,true,Rx,1,8,01,03,5E,73,F7,9C,FE,F8,
106336946,01E2402C,true,Rx,1,8,CF,50,00,0D,C2,10,00,00,
106357014,00E00024,true,Rx,1,8,40,00,00,00,00,00,3F,60,
106357586,01E2402C,true,Rx,1,8,0F,50,00,0D,C2,10,00,00,
106358150,02620028,true,Rx,1,8,C0,0C,00,48,F0,5F,45,3B,
106376988,01E2402C,true,Rx,1,8,4F,50,00,0D,C2,11,00,00,
106386878,02620028,true,Rx,1,8,08,0C,00,48,F0,5F,45,3B,
106396892,01E2402C,true,Rx,1,8,8F,50,00,0D,C2,10,00,00,
106416930,01E2402C,true,Rx,1,8,CF,50,00,0D,C2,10,00,00,
106417480,02620028,true,Rx,1,8,48,0C,00,48,F0,5F,45,3B,
106431895,00E00024,true,Rx,1,8,80,00,00,00,00,00,3F,80,
106436897,01E2402C,true,Rx,1,8,0F,50,00,0D,C2,10,00,00,
106446879,02620028,true,Rx,1,8,88,0C,00,48,F0,5F,45,3B,
106456957,01E2402C,true,Rx,1,8,4F,50,00,0D,C2,10,00,00,
106476920,01E2402C,true,Rx,1,8,8F,50,00,0D,C2,10,00,00,
106477480,02620028,true,Rx,1,8,C0,0C,00,48,F0,5F,45,3B,
106496981,01E2402C,true,Rx,1,8,CF,50,00,0D,C2,10,00,00,
106501911,00E00024,true,Rx,1,8,C0,00,00,00,00,00,3F,A0,
106506808,02620028,true,Rx,1,8,08,0C,00,48,F0,5F,45,3B,
106516907,01E2402C,true,Rx,1,8,0F,50,00,0D,C2,10,00,00,
106536903,01E2402C,true,Rx,1,8,4F,50,00,0D,C2,10,00,00,
106537463,02620028,true,Rx,1,8,48,0C,00,48,F0,5F,45,3B,
106556922,01E2402C,true,Rx,1,8,8F,50,00,0D,C2,10,00,00,
106566895,02620028,true,Rx,1,8,88,0C,00,48,F0,5F,45,3B,
106572012,00E00024,true,Rx,1,8,00,00,00,00,00,00,3F,C0,
106576974,01E2402C,true,Rx,1,8,CF,50,00,0D,C2,11,00,00,
106596926,01E2402C,true,Rx,1,8,0F,50,00,0D,C2,10,00,00,
106597485,02620028,true,Rx,1,8,C0,0C,00,48,F0,5F,45,3B,
106611828,0242C07C,true,Rx,1,8,FF,00,00,00,00,00,00,00,
106616926,01E2402C,true,Rx,1,8,4F,50,00,0D,C2,10,00,00,
106626845,02620028,true,Rx,1,8,08,0C,00,48,F0,5F,45,3B,
106636933,01E2402C,true,Rx,1,8,8F,50,00,0D,C2,10,00,00,
106641914,00E00024,true,Rx,1,8,40,00,00,00,00,00,3F,E0,
106656950,01E2402C,true,Rx,1,8,CF,50,00,0D,C2,10,00,00,
106657511,02620028,true,Rx,1,8,48,0C,00,48,F0,5F,45,3B,
106676927,01E2402C,true,Rx,1,8,0F,50,00,2D,C2,10,00,00,
106686920,02620028,true,Rx,1,8,88,0C,00,CC,F0,5F,45,3B,
106696935,01E2402C,true,Rx,1,8,4F,50,00,0D,C2,10,00,00,
106711919,00E00024,true,Rx,1,8,80,00,00,00,00,00,3F,00,
106716860,01E2402C,true,Rx,1,8,8F,50,00,0D,C2,10,00,00,
106717431,02620028,true,Rx,1,8,C0,0C,00,48,F0,5F,45,3B,
106736930,01E2402C,true,Rx,1,8,CF,50,00,0D,C2,10,00,00,
106746829,02620028,true,Rx,1,8,08,0C,00,48,F0,5F,45,3B,
106756960,01E2402C,true,Rx,1,8,0F,50,00,0D,C2,10,00,00,
106776987,01E2402C,true,Rx,1,8,4F,50,00,0D,C2,11,00,00,
106777538,02620028,true,Rx,1,8,48,0C,00,48,F0,5F,45,3B,
106791910,00E00024,true,Rx,1,8,C0,00,00,00,00,00,3F,20,
106796955,01E2402C,true,Rx,1,8,8F,50,00,0D,C2,10,00,00,
106806917,02620028,true,Rx,1,8,88,0C,00,48,F0,5F,45,3B,
106816941,01E2402C,true,Rx,1,8,CF,50,00,0D,C2,10,00,00,
106836852,01E2402C,true,Rx,1,8,0F,50,00,0D,C2,10,00,00,
106837423,02620028,true,Rx,1,8,C0,0C,00,48,F0,5F,45,3B,
106856988,01E2402C,true,Rx,1,8,4F,50,00,0D,C2,10,00,00,
106861939,00E00024,true,Rx,1,8,00,00,00,00,00,00,3F,40,
106866846,02620028,true,Rx,1,8,08,0C,00,48,F0,5F,45,3B,
106876987,01E2402C,true,Rx,1,8,8F,50,00,0D,C2,10,00,00,
106891804,0242C07C,true,Rx,1,8,1E,01,03,01,01,01,01,01,
106896911,01E2402C,true,Rx,1,8,CF,50,00,0D,C2,10,00,00,
106897471,02620028,true,Rx,1,8,48,0C,00,48,F0,5F,45,3B,
106916930,01E2402C,true,Rx,1,8,0F,50,00,0D,C2,10,00,00,
106926934,02620028,true,Rx,1,8,88,0C,00,48,F0,5F,45,3B,
106931979,00E00024,true,Rx,1,8,40,00,00,00,00,00,3F,60,
106936959,01E2402C,true,Rx,1,8,4F,50,00,0D,C2,10,00,00,
106956880,01E2402C,true,Rx,1,8,8F,50,00,0D,C2,10,00,00,
106957440,02620028,true,Rx,1,8,C0,0C,00,48,F0,5F,45,3B,
106977005,01E2402C,true,Rx,1,8,CF,50,00,0D,C2,31,00,00,
106986839,02620028,true,Rx,1,8,08,0C,00,48,F0,5F,45,3B,
106996886,01E2402C,true,Rx,1,8,0F,50,00,0D,C2,10,00,00,
107002332,00E00024,true,Rx,1,8,80,00,00,00,00,00,3F,80,
107016914,01E2402C,true,Rx,1,8,4F,50,00,0D,C2,10,00,00,
107017463,02620028,true,Rx,1,8,48,0C,00,48,F0,5F,45,3B,
107036901,01E2402C,true,Rx,1,8,8F,50,00,0D,C2,10,00,00,
107047073,02620028,true,Rx,1,8,88,0C,00,CC,F0,5F,45,3B,
107056982,01E2402C,true,Rx,1,8,CF,50,00,2D,C2,10,00,00,
107071882,00E00024,true,Rx,1,8,C0,00,00,00,00,00,3F,A0,
107076949,01E2402C,true,Rx,1,8,0F,50,00,0D,C2,10,00,00,
107077508,02620028,true,Rx,1,8,C0,0C,00,48,F0,5F,45,3B,
107096936,01E2402C,true,Rx,1,8,4F,50,00,0D,C2,10,00,00,
107106813,02620028,true,Rx,1,8,08,0C,00,48,F0,5F,45,3B,
107116881,01E2402C,true,Rx,1,8,8F,50,00,0D,C2,10,00,00,
107136909,01E2402C,true,Rx,1,8,CF,50,00,0D,C2,10,00,00,
107137468,02620028,true,Rx,1,8,48,0C,00,48,F0,5F,45,3B,
107142304,00E00024,true,Rx,1,8,00,00,00,00,00,00,3F,C0,
107157003,01E2402C,true,Rx,1,8,0F,50,00,0D,C2,10,00,00,
107166872,02620028,true,Rx,1,8,88,0C,00,48,F0,5F,45,3B,
107171854,0242C07C,true,Rx,1,8,23,00,00,00,00,00,00,00,
107176983,01E2402C,true,Rx,1,8,4F,50,00,0D,C2,11,00,00,
107196884,01E2402C,true,Rx,1,8,8F,50,00,0D,C2,10,00,00,
107197455,02620028,true,Rx,1,8,C0,0C,00,48,F0,5F,45,3B,
107211903,00E00024,true,Rx,1,8,40,00,00,00,00,00,3F,E0,
107216950,01E2402C,true,Rx,1,8,CF,50,00,0D,C2,10,00,00,
107226912,02620028,true,Rx,1,8,08,0C,00,48,F0,5F,45,3B,
107236883,01E2402C,true,Rx,1,8,0F,50,00,0D,C2,10,00,00,
107256920,01E2402C,true,Rx,1,8,4F,50,00,0D,C2,10,00,00,
107257481,02620028,true,Rx,1,8,48,0C,00,48,F0,5F,45,3B,
107276930,01E2402C,true,Rx,1,8,8F,50,00,0D,C2,10,00,00,
107287018,00E00024,true,Rx,1,8,80,00,00,00,00,00,3F,00,
107287569,02620028,true,Rx,1,8,88,0C,00,48,F0,5F,45,3B,
107296940,01E2402C,true,Rx,1,8,CF,50,00,0D,C2,10,00,00,
107316852,01E2402C,true,Rx,1,8,0F,50,00,0D,C2,10,00,00,
107317412,02620028,true,Rx,1,8,C0,0C,00,48,F0,5F,45,3B,
107336956,01E2402C,true,Rx,1,8,4F,50,00,0D,C2,10,00,00,
107346814,02620028,true,Rx,1,8,08,0C,00,48,F0,5F,45,3B,
107357070,00E00024,true,Rx,1,8,C0,00,00,00,00,00,3F,20,
107357643,01E2402C,true,Rx,1,8,8F,50,00,0D,C2,10,00,00,
107376942,01E2402C,true,Rx,1,8,CF,50,00,0D,C2,11,00,00,
107377492,02620028,true,Rx,1,8,48,0C,00,48,F0,5F,45,3B,
107396888,01E2402C,true,Rx,1,8,0F,50,00,0D,C2,10,00,00,
107406924,02620028,true,Rx,1,8,88,0C,00,48,F0,5F,45,3B,
107416950,01E2402C,true,Rx,1,8,4F,50,00,0D,C2,10,00,00,
107427123,00E00024,true,Rx,1,8,00,00,00,00,00,00,3F,40,
107436907,01E2402C,true,Rx,1,8,8F,50,00,2D,C2,10,00,00,
107437477,02620028,true,Rx,1,8,C0,0C,00,CC,F0,5F,45,3B,
107451799,0242C07C,true,Rx,1,8,01,03,5E,73,F7,A8,01,07,
107456948,01E2402C,true,Rx,1,8,CF,50,00,0D,C2,10,00,00,
107466826,02620028,true,Rx,1,8,08,0C,00,48,F0,5F,45,3B,
107476914,01E2402C,true,Rx,1,8,0F,50,00,0D,C2,10,00,00,
107496983,00E00024,true,Rx,1,8,40,00,00,00,00,00,3F,60,
107497553,01E2402C,true,Rx,1,8,4F,50,00,0D,C2,10,00,00,
107498107,02620028,true,Rx,1,8,48,0C,00,48,F0,5F,45,3B,
107516904,01E2402C,true,Rx,1,8,8F,50,00,0D,C2,10,00,00,
107526897,02620028,true,Rx,1,8,88,0C,00,48,F0,5F,45,3B,
107536954,01E2402C,true,Rx,1,8,CF,50,00,0D,C2,10,00,00,
107556876,01E2402C,true,Rx,1,8,0F,50,00,0D,C2,10,00,00,
107557435,02620028,true,Rx,1,8,C0,0C,00,48,F0,5F,45,3B,
107567072,00E00024,true,Rx,1,8,80,00,00,00,00,00,3F,80,
107576982,01E2402C,true,Rx,1,8,4F,50,00,0D,C2,11,00,00,
107586808,02620028,true,Rx,1,8,08,0C,00,48,F0,5F,45,3B,
107596886,01E2402C,true,Rx,1,8,8F,50,00,0D,C2,10,00,00,
107616944,01E2402C,true,Rx,1,8,CF,50,00,0D,C2,10,00,00,
107617504,02620028,true,Rx,1,8,48,0C,00,48,F0,5F,45,3B,
107636942,01E2402C,true,Rx,1,8,0F,50,00,0D,C2,10,00,00,
107641934,00E00024,true,Rx,1,8,C0,00,00,00,00,00,3F,A0,
107646918,02620028,true,Rx,1,8,88,0C,00,48,F0,5F,45,3B,
107656974,01E2402C,true,Rx,1,8,4F,50,00,0D,C2,10,00,00,
107676916,01E2402C,true,Rx,1,8,8F,50,00,0D,C2,10,00,00,
107677476,02620028,true,Rx,1,8,C0,0C,00,48,F0,5F,45,3B,
107696946,01E2402C,true,Rx,1,8,CF,50,00,0D,C2,10,00,00,
107707729,02620028,true,Rx,1,8,08,0C,00,48,F0,5F,45,3B,
107717050,00E00024,true,Rx,1,8,00,00,00,00,00,00,3F,C0,
107717622,01E2402C,true,Rx,1,8,0F,50,00,0D,C2,10,00,00,
107731773,0242C07C,true,Rx,1,8,02,51,5C,52,72,06,DC,BC,
107736913,01E2402C,true,Rx,1,8,4F,50,00,0D,C2,10,00,00,
107737463,02620028,true,Rx,1,8,48,0C,00,48,F0,5F,45,3B,
107756952,01E2402C,true,Rx,1,8,8F,50,00,0D,C2,10,00,00,
107766851,02620028,true,Rx,1,8,88,0C,00,48,F0,5F,45,3B,
107776961,01E2402C,true,Rx,1,8,CF,50,00,0D,C2,11,00,00,
107781955,00E00024,true,Rx,1,8,40,00,00,00,00,00,3F,E0,
107796845,01E2402C,true,Rx,1,8,0F,50,00,0D,C2,10,00,00,
107797415,02620028,true,Rx,1,8,C0,0C,00,48,F0,5F,45,3B,
107817263,01E2402C,true,Rx,1,8,4F,50,00,2D,C2,10,00,00,
107826878,02620028,true,Rx,1,8,08,0C,00,CC,F0,5F,45,3B,
107836882,01E2402C,true,Rx,1,8,8F,50,00,0D,C2,10,00,00,
107851951,00E00024,true,Rx,1,8,80,00,00,00,00,00,3F,00,
107856932,01E2402C,true,Rx,1,8,CF,50,00,0D,C2,10,00,00,
107857482,02620028,true,Rx,1,8,48,0C,00,48,F0,5F,45,3B,
107876930,01E2402C,true,Rx,1,8,0F,50,00,0D,C2,10,00,00,
107886872,02620028,true,Rx,1,8,88,0C,00,48,F0,5F,45,3B,
107896929,01E2402C,true,Rx,1,8,4F,50,00,0D,C2,10,00,00,
107916894,01E2402C,true,Rx,1,8,8F,50,00,0D,C2,10,00,00,
107917464,02620028,true,Rx,1,8,C0,0C,00,48,F0,5F,45,3B,
107927195,00E00024,true,Rx,1,8,C0,00,00,00,00,00,3F,20,
107936925,01E2402C,true,Rx,1,8,CF,50,00,0D,C2,10,00,00,
107946803,02620028,true,Rx,1,8,08,0C,00,48,F0,5F,45,3B,
107956933,01E2402C,true,Rx,1,8,0F,50,00,0D,C2,10,00,00,
107976962,01E2402C,true,Rx,1,8,4F,50,00,0D,C2,31,00,00,
107977521,02620028,true,Rx,1,8,48,0C,00,48,F0,5F,45,3B,
107997055,00E00024,true,Rx,1,8,00,00,00,00,00,00,3F,40,
107997626,01E2402C,true,Rx,1,8,8F,50,00,0D,C2,10,00,00,
108006884,02620028,true,Rx,1,8,88,0C,00,48,F0,5F,45,3B,
108011865,0242C07C,true,Rx,1,8,10,30,02,02,01,03,00,01,
108016932,01E2402C,true,Rx,1,8,CF,50,00,0D,C2,10,00,00,
108036886,01E2402C,true,Rx,1,8,0F,50,00,0D,C2,10,00,00,
108037445,02620028,true,Rx,1,8,C0,0C,00,48,F0,5F,45,3B,
108056960,01E2402C,true,Rx,1,8,4F,50,00,0D,C2,10,00,00,
108066984,00E00024,true,Rx,1,8,40,00,00,00,00,00,3F,60,
108067544,02620028,true,Rx,1,8,08,0C,00,48,F0,5F,45,3B,
108076916,01E2402C,true,Rx,1,8,8F,50,00,0D,C2,10,00,00,
108096921,01E2402C,true,Rx,1,8,CF,50,00,0D,C2,10,00,00,
108097480,02620028,true,Rx,1,8,48,0C,00,48,F0,5F,45,3B,
108116919,01E2402C,true,Rx,1,8,0F,50,00,0D,C2,10,00,00,
108126935,02620028,true,Rx,1,8,88,0C,00,48,F0,5F,45,3B,
108137034,00E00024,true,Rx,1,8,80,00,00,00,00,00,3F,80,
108137596,01E2402C,true,Rx,1,8,4F,50,00,0D,C2,10,00,00,
108156887,01E2402C,true,Rx,1,8,8F,50,00,0D,C2,10,00,00,
108157457,02620028,true,Rx,1,8,C0,0C,00,48,F0,5F,45,3B,
108176998,01E2402C,true,Rx,1,8,CF,50,00,0D,C2,11,00,00,
108186803,02620028,true,Rx,1,8,08,0C,00,48,F0,5F,45,3B,
108197134,01E2402C,true,Rx,1,8,0F,50,00,2D,C2,10,00,00,
108211928,00E00024,true,Rx,1,8,C0,00,00,00,00,00,3F,A0,
108216890,01E2402C,true,Rx,1,8,4F,50,00,0D,C2,10,00,00,
108217450,02620028,true,Rx,1,8,48,0C,00,CC,F0,5F,45,3B,
108236909,01E2402C,true,Rx,1,8,8F,50,00,0D,C2,10,00,00,
108246883,02620028,true,Rx,1,8,88,0C,00,48,F0,5F,45,3B,
108256949,01E2402C,true,Rx,1,8,CF,50,00,0D,C2,10,00,00,
108276945,01E2402C,true,Rx,1,8,0F,50,00,0D,C2,10,00,00,
108277505,02620028,true,Rx,1,8,C0,0C,00,48,F0,5F,45,3B,
108281930,00E00024,true,Rx,1,8,00,00,00,00,00,00,3F,C0,
108291797,0242C07C,true,Rx,1,8,15,13,03,01,02,02,01,01,
108297359,01E2402C,true,Rx,1,8,4F,50,00,0D,C2,10,00,00,
108306826,02620028,true,Rx,1,8,08,0C,00,48,F0,5F,45,3B,
108316913,01E2402C,true,Rx,1,8,8F,50,00,0D,C2,10,00,00,
108336898,01E2402C,true,Rx,1,8,CF,50,00,0D,C2,10,00,00,
108337448,02620028,true,Rx,1,8,48,0C,00,48,F0,5F,45,3B,
108351876,00E00024,true,Rx,1,8,40,00,00,00,00,00,3F,E0,
108356920,01E2402C,true,Rx,1,8,0F,50,00,0D,C2,10,00,00,
108366851,02620028,true,Rx,1,8,88,0C,00,48,F0,5F,45,3B,
108377002,01E2402C,true,Rx,1,8,4F,50,00,0D,C2,11,00,00,
108396862,01E2402C,true,Rx,1,8,8F,50,00,0D,C2,10,00,00,
108397422,02620028,true,Rx,1,8,C0,0C,00,48,F0,5F,45,3B,
108416934,01E2402C,true,Rx,1,8,CF,50,00,0D,C2,10,00,00,
108426950,00E00024,true,Rx,1,8,80,00,00,00,00,00,3F,00,
108427510,02620028,true,Rx,1,8,08,0C,00,48,F0,5F,45,3B,
108436882,01E2402C,true,Rx,1,8,0F,50,00,0D,C2,10,00,00,
108456952,01E2402C,true,Rx,1,8,4F,50,00,0D,C2,10,00,00,
108457500,02620028,true,Rx,1,8,48,0C,00,48,F0,5F,45,3B,
108476940,01E2402C,true,Rx,1,8,8F,50,00,0D,C2,10,00,00,
108486914,02620028,true,Rx,1,8,88,0C,00,48,F0,5F,45,3B,
108497024,00E00024,true,Rx,1,8,C0,00,00,00,00,00,3F,20,
108497604,01E2402C,true,Rx,1,8,CF,50,00,0D,C2,10,00,00,
108516863,01E2402C,true,Rx,1,8,0F,50,00,0D,C2,10,00,00,
108517432,02620028,true,Rx,1,8,C0,0C,00,48,F0,5F,45,3B,
108536913,01E2402C,true,Rx,1,8,4F,50,00,0D,C2,10,00,00,
108546822,02620028,true,Rx,1,8,08,0C,00,48,F0,5F,45,3B,
108556962,01E2402C,true,Rx,1,8,8F,50,00,0D,C2,10,00,00,
108567071,00E00024,true,Rx,1,8,00,00,00,00,00,00,3F,40,
108571789,0242C07C,true,Rx,1,8,01,03,5E,73,F7,B4,FE,F8,
108576929,01E2402C,true,Rx,1,8,CF,50,00,0D,C2,11,00,00,
108577488,02620028,true,Rx,1,8,48,0C,00,48,F0,5F,45,3B,
108596917,01E2402C,true,Rx,1,8,0F,50,00,2D,C2,10,00,00,
108606857,02620028,true,Rx,1,8,88,0C,00,CC,F0,5F,45,3B,
108616924,01E2402C,true,Rx,1,8,4F,50,00,0D,C2,10,00,00,
108636941,00E00024,true,Rx,1,8,40,00,00,00,00,00,3F,60,
108637522,01E2402C,true,Rx,1,8,8F,50,00,0D,C2,10,00,00,
108638086,02620028,true,Rx,1,8,C0,0C,00,48,F0,5F,45,3B,
108656978,01E2402C,true,Rx,1,8,CF,50,00,0D,C2,10,00,00,
108666846,02620028,true,Rx,1,8,08,0C,00,48,F0,5F,45,3B,
108676903,01E2402C,true,Rx,1,8,0F,50,00,0D,C2,10,00,00,
108696888,01E2402C,true,Rx,1,8,4F,50,00,0D,C2,10,00,00,
108697448,02620028,true,Rx,1,8,48,0C,00,48,F0,5F,45,3B,
108706936,00E00024,true,Rx,1,8,80,00,00,00,00,00,3F,80,
108716888,01E2402C,true,Rx,1,8,8F,50,00,0D,C2,10,00,00,
108726923,02620028,true,Rx,1,8,88,0C,00,48,F0,5F,45,3B,
108736928,01E2402C,true,Rx,1,8,CF,50,00,0D,C2,10,00,00,
108756882,01E2402C,true,Rx,1,8,0F,50,00,0D,C2,10,00,00,
108757453,02620028,true,Rx,1,8,C0,0C,00,48,F0,5F,45,3B,
108777173,00E00024,true,Rx,1,8,C0,00,00,00,00,00,3F,A0,
108777744,01E2402C,true,Rx,1,8,4F,50,00,0D,C2,11,00,00,
108786792,02620028,true,Rx,1,8,08,0C,00,48,F0,5F,45,3B,
108796900,01E2402C,true,Rx,1,8,8F,50,00,0D,C2,10,00,00,
108816897,01E2402C,true,Rx,1,8,CF,50,00,0D,C2,10,00,00,
108817457,02620028,true,Rx,1,8,48,0C,00,48,F0,5F,45,3B,
108836956,01E2402C,true,Rx,1,8,0F,50,00,0D,C2,10,00,00,
108846961,00E00024,true,Rx,1,8,00,00,00,00,00,00,3F,C0,
108847510,02620028,true,Rx,1,8,88,0C,00,48,F0,5F,45,3B,
108851809,0242C07C,true,Rx,1,8,02,51,5C,52,71,06,DC,BC,
108856918,01E2402C,true,Rx,1,8,4F,50,00,0D,C2,10,00,00,
108876872,01E2402C,true,Rx,1,8,8F,50,00,0D,C2,10,00,00,
108877443,02620028,true,Rx,1,8,C0,0C,00,48,F0,5F,45,3B,
108896934,01E2402C,true,Rx,1,8,CF,50,00,0D,C2,10,00,00,
108906876,02620028,true,Rx,1,8,08,0C,00,48,F0,5F,45,3B,
108916967,00E00024,true,Rx,1,8,40,00,00,00,00,00,3F,E0,
108917538,01E2402C,true,Rx,1,8,0F,50,00,0D,C2,10,00,00,
108936891,01E2402C,true,Rx,1,8,4F,50,00,0D,C2,10,00,00,
108937441,02620028,true,Rx,1,8,48,0C,00,48,F0,5F,45,3B,
108956901,01E2402C,true,Rx,1,8,8F,50,00,0D,C2,10,00,00,
108967073,02620028,true,Rx,1,8,88,0C,00,CC,F0,5F,45,3B,
108976971,01E2402C,true,Rx,1,8,CF,50,00,2D,C2,31,00,00,
108991871,00E00024,true,Rx,1,8,80,00,00,00,00,00,3F,00,
108996876,01E2402C,true,Rx,1,8,0F,50,00,0D,C2,10,00,00,
108997445,02620028,true,Rx,1,8,C0,0C,00,48,F0,5F,45,3B,
109016957,01E2402C,true,Rx,1,8,4F,50,00,0D,C2,10,00,00,
109026834,02620028,true,Rx,1,8,08,0C,00,48,F0,5F,45,3B,
109036892,01E2402C,true,Rx,1,8,8F,50,00,0D,C2,10,00,00,
109056929,01E2402C,true,Rx,1,8,CF,50,00,0D,C2,10,00,00,
109057488,02620028,true,Rx,1,8,48,0C,00,48,F0,5F,45,3B,
109066936,00E00024,true,Rx,1,8,C0,00,00,00,00,00,3F,20,
109076951,01E2402C,true,Rx,1,8,0F,50,00,0D,C2,10,00,00,
109086850,02620028,true,Rx,1,8,88,0C,00,48,F0,5F,45,3B,
109096916,01E2402C,true,Rx,1,8,4F,50,00,0D,C2,10,00,00,
109116931,01E2402C,true,Rx,1,8,8F,50,00,0D,C2,10,00,00,
109117491,02620028,true,Rx,1,8,C0,0C,00,48,F0,5F,45,3B,
109131824,0242C07C,true,Rx,1,8,11,04,04,05,01,01,01,05,
109137006,00E00024,true,Rx,1,8,00,00,00,00,00,00,3F,40,
109137578,01E2402C,true,Rx,1,8,CF,50,00,0D,C2,10,00,00,
109146823,02620028,true,Rx,1,8,08,0C,00,48,F0,5F,45,3B,
109156931,01E2402C,true,Rx,1,8,0F,50,00,0D,C2,10,00,00,
109176926,01E2402C,true,Rx,1,8,4F,50,00,0D,C2,11,00,00,
109177487,02620028,true,Rx,1,8,48,0C,00,48,F0,5F,45,3B,
109196883,01E2402C,true,Rx,1,8,8F,50,00,0D,C2,10,00,00,
109206950,00E00024,true,Rx,1,8,40,00,00,00,00,00,3F,60,
109207510,02620028,true,Rx,1,8,88,0C,00,48,F0,5F,45,3B,
109216903,01E2402C,true,Rx,1,8,CF,50,00,0D,C2,10,00,00,
109236836,01E2402C,true,Rx,1,8,0F,50,00,0D,C2,10,00,00,
109237406,02620028,true,Rx,1,8,C0,0C,00,48,F0,5F,45,3B,
109256980,01E2402C,true,Rx,1,8,4F,50,00,0D,C2,10,00,00,
109266795,02620028,true,Rx,1,8,08,0C,00,48,F0,5F,45,3B,
109277009,00E00024,true,Rx,1,8,80,00,00,00,00,00,3F,80,
109277581,01E2402C,true,Rx,1,8,8F,50,00,0D,C2,10,00,00,
109296903,01E2402C,true,Rx,1,8,CF,50,00,0D,C2,10,00,00,
109297453,02620028,true,Rx,1,8,48,0C,00,48,F0,5F,45,3B,
109316900,01E2402C,true,Rx,1,8,0F,50,00,0D,C2,10,00,00,
109326945,02620028,true,Rx,1,8,88,0C,00,48,F0,5F,45,3B,
109336897,01E2402C,true,Rx,1,8,4F,50,00,0D,C2,10,00,00,
109352092,00E00024,true,Rx,1,8,C0,00,00,00,00,00,3F,A0,
109356854,01E2402C,true,Rx,1,8,8F,50,00,2D,C2,10,00,00,
109357424,02620028,true,Rx,1,8,C0,0C,00,CC,F0,5F,45,3B,
109376967,01E2402C,true,Rx,1,8,CF,50,00,0D,C2,11,00,00,
109386814,02620028,true,Rx,1,8,08,0C,00,48,F0,5F,45,3B,
109396945,01E2402C,true,Rx,1,8,0F,50,00,0D,C2,10,00,00,
109411782,0242C07C,true,Rx,1,8,16,01,46,02,02,02,01,01,
109416870,01E2402C,true,Rx,1,8,4F,50,00,0D,C2,10,00,00,
109417430,02620028,true,Rx,1,8,48,0C,00,48,F0,5F,45,3B,
109422340,00E00024,true,Rx,1,8,00,00,00,00,00,00,3F,C0,
109436894,01E2402C,true,Rx,1,8,8F,50,00,0D,C2,10,00,00,
109446844,02620028,true,Rx,1,8,88,0C,00,48,F0,5F,45,3B,
109456943,01E2402C,true,Rx,1,8,CF,50,00,0D,C2,10,00,00,
109477222,01E2402C,true,Rx,1,8,0F,50,00,0D,C2,10,00,00,
109477783,02620028,true,Rx,1,8,C0,0C,00,48,F0,5F,45,3B,
109491883,00E00024,true,Rx,1,8,40,00,00,00,00,00,3F,E0,
109496960,01E2402C,true,Rx,1,8,4F,50,00,0D,C2,10,00,00,
109506795,02620028,true,Rx,1,8,08,0C,00,48,F0,5F,45,3B,
109516862,01E2402C,true,Rx,1,8,8F,50,00,0D,C2,10,00,00,
109536889,01E2402C,true,Rx,1,8,CF,50,00,0D,C2,10,00,00,
109537447,02620028,true,Rx,1,8,48,0C,00,48,F0,5F,45,3B,
109556896,01E2402C,true,Rx,1,8,0F,50,00,0D,C2,10,00,00,
109561940,00E00024,true,Rx,1,8,80,00,00,00,00,00,3F,00,
109566871,02620028,true,Rx,1,8,88,0C,00,48,F0,5F,45,3B,
109576990,01E2402C,true,Rx,1,8,4F,50,00,0D,C2,11,00,00,
109596857,01E2402C,true,Rx,1,8,8F,50,00,0D,C2,10,00,00,
109597417,02620028,true,Rx,1,8,C0,0C,00,48,F0,5F,45,3B,
109616939,01E2402C,true,Rx,1,8,CF,50,00,0D,C2,10,00,00,
109626827,02620028,true,Rx,1,8,08,0C,00,48,F0,5F,45,3B,
109631923,00E00024,true,Rx,1,8,C0,00,00,00,00,00,3F,20,
109636865,01E2402C,true,Rx,1,8,0F,50,00,0D,C2,10,00,00,
109656934,01E2402C,true,Rx,1,8,4F,50,00,0D,C2,10,00,00,
109657495,02620028,true,Rx,1,8,48,0C,00,48,F0,5F,45,3B,
109676963,01E2402C,true,Rx,1,8,8F,50,00,0D,C2,10,00,00,
109686841,02620028,true,Rx,1,8,88,0C,00,48,F0,5F,45,3B,
109691833,0242C07C,true,Rx,1,8,01,03,5E,73,F7,C0,01,07,
109696900,01E2402C,true,Rx,1,8,CF,50,00,0D,C2,10,00,00,
109701946,00E00024,true,Rx,1,8,00,00,00,00,00,00,3F,40,
109716877,01E2402C,true,Rx,1,8,0F,50,00,0D,C2,10,00,00,
109717447,02620028,true,Rx,1,8,C0,0C,00,48,F0,5F,45,3B,
109736906,01E2402C,true,Rx,1,8,4F,50,00,0D,C2,10,00,00,
109746847,02620028,true,Rx,1,8,08,0C,00,CC,F0,5F,45,3B,
109756883,01E2402C,true,Rx,1,8,8F,50,00,2D,C2,10,00,00,
109777024,00E00024,true,Rx,1,8,40,00,00,00,00,00,3F,60,
109777596,01E2402C,true,Rx,1,8,CF,50,00,0D,C2,11,00,00,
109778150,02620028,true,Rx,1,8,48,0C,00,48,F0,5F,45,3B,
109796882,01E2402C,true,Rx,1,8,0F,50,00,0D,C2,10,00,00,
109806855,02620028,true,Rx,1,8,88,0C,00,48,F0,5F,45,3B,
109816891,01E2402C,true,Rx,1,8,4F,50,00,0D,C2,10,00,00,
109836834,01E2402C,true,Rx,1,8,8F,50,00,0D,C2,10,00,00,
109837394,02620028,true,Rx,1,8,C0,0C,00,48,F0,5F,45,3B,
109846988,00E00024,true,Rx,1,8,80,00,00,00,00,00,3F,80,
109856960,01E2402C,true,Rx,1,8,CF,50,00,0D,C2,10,00,00,
109866786,02620028,true,Rx,1,8,08,0C,00,48,F0,5F,45,3B,
109876936,01E2402C,true,Rx,1,8,0F,50,00,0D,C2,10,00,00,
109896880,01E2402C,true,Rx,1,8,4F,50,00,0D,C2,10,00,00,
109897440,02620028,true,Rx,1,8,48,0C,00,48,F0,5F,45,3B,
109916995,00E00024,true,Rx,1,8,C0,00,00,00,00,00,3F,A0,
109917565,01E2402C,true,Rx,1,8,8F,50,00,0D,C2,10,00,00,
109926950,02620028,true,Rx,1,8,88,0C,00,48,F0,5F,45,3B,
109936893,01E2402C,true,Rx,1,8,CF,50,00,0D,C2,10,00,00,
109956920,01E2402C,true,Rx,1,8,0F,50,00,0D,C2,10,00,00,
109957489,02620028,true,Rx,1,8,C0,0C,00,48,F0,5F,45,3B,
109971810,0242C07C,true,Rx,1,8,05,00,3F,9A,00,02,07,A8,
109976961,01E2402C,true,Rx,1,8,4F,50,00,0D,C2,31,00,00,
109986913,00E00024,true,Rx,1,8,00,00,00,00,00,00,3F,C0,
109987471,02620028,true,Rx,1,8,08,0C,00,48,F0,5F,45,3B,
109996888,01E2402C,true,Rx,1,8,8F,50,00,0D,C2,10,00,00,
110016884,01E2402C,true,Rx,1,8,CF,50,00,0D,C2,10,00,00,
110017443,02620028,true,Rx,1,8,48,0C,00,48,F0,5F,45,3B,
110036872,01E2402C,true,Rx,1,8,0F,50,00,0D,C2,10,00,00,
110046834,02620028,true,Rx,1,8,88,0C,00,48,F0,5F,45,3B,
110056911,01E2402C,true,Rx,1,8,4F,50,00,0D,C2,10,00,00,
110061977,00E00024,true,Rx,1,8,40,00,00,00,00,00,3F,E0,
110076867,01E2402C,true,Rx,1,8,8F,50,00,0D,C2,10,00,00,
110077427,02620028,true,Rx,1,8,C0,0C,00,48,F0,5F,45,3B,
110096929,01E2402C,true,Rx,1,8,CF,50,00,0D,C2,10,00,00,
110106796,02620028,true,Rx,1,8,08,0C,00,48,F0,5F,45,3B,
110116864,01E2402C,true,Rx,1,8,0F,50,00,0D,C2,10,00,00,
110131920,00E00024,true,Rx,1,8,80,00,00,00,00,00,3F,00,
110136935,01E2402C,true,Rx,1,8,4F,50,00,2D,C2,10,00,00,
110137495,02620028,true,Rx,1,8,48,0C,00,CC,F0,5F,45,3B,
110156943,01E2402C,true,Rx,1,8,8F,50,00,0D,C2,10,00,00,
110166894,02620028,true,Rx,1,8,88,0C,00,48,F0,5F,45,3B,
110176919,01E2402C,true,Rx,1,8,CF,50,00,0D,C2,11,00,00,
110196831,01E2402C,true,Rx,1,8,0F,50,00,0D,C2,10,00,00,
110197401,02620028,true,Rx,1,8,C0,0C,00,48,F0,5F,45,3B,
110202267,00E00024,true,Rx,1,8,C0,00,00,00,00,00,3F,20,
110216904,01E2402C,true,Rx,1,8,4F,50,00,0D,C2,10,00,00,
110226845,02620028,true,Rx,1,8,08,0C,00,48,F0,5F,45,3B,
110236923,01E2402C,true,Rx,1,8,8F,50,00,0D,C2,10,00,00,
110251782,0242C07C,true,Rx,1,8,12,04,02,02,02,02,05,01,
110256910,01E2402C,true,Rx,1,8,CF,50,00,0D,C2,10,00,00,
110257470,02620028,true,Rx,1,8,48,0C,00,48,F0,5F,45,3B,
110271929,00E00024,true,Rx,1,8,00,00,00,00,00,00,3F,40,
110276933,01E2402C,true,Rx,1,8,0F,50,00,0D,C2,10,00,00,
110286833,02620028,true,Rx,1,8,88,0C,00,48,F0,5F,45,3B,
110296910,01E2402C,true,Rx,1,8,4F,50,00,0D,C2,10,00,00,
110316841,01E2402C,true,Rx,1,8,8F,50,00,0D,C2,10,00,00,
110317412,02620028,true,Rx,1,8,C0,0C,00,48,F0,5F,45,3B,
110336902,01E2402C,true,Rx,1,8,CF,50,00,0D,C2,10,00,00,
110346907,00E00024,true,Rx,1,8,40,00,00,00,00,00,3F,60,
110347467,02620028,true,Rx,1,8,08,0C,00,48,F0,5F,45,3B,
110356882,01E2402C,true,Rx,1,8,0F,50,00,0D,C2,10,00,00,
110376919,01E2402C,true,Rx,1,8,4F,50,00,0D,C2,11,00,00,
110377479,02620028,true,Rx,1,8,48,0C,00,48,F0,5F,45,3B,
110396876,01E2402C,true,Rx,1,8,8F,50,00,0D,C2,10,00,00,
110406860,02620028,true,Rx,1,8,88,0C,00,48,F0,5F,45,3B,
110417045,00E00024,true,Rx,1,8,80,00,00,00,00,00,3F,80,
110417615,01E2402C,true,Rx,1,8,CF,50,00,0D,C2,10,00,00,
110436855,01E2402C,true,Rx,1,8,0F,50,00,0D,C2,10,00,00,
110437414,02620028,true,Rx,1,8,C0,0C,00,48,F0,5F,45,3B,
110456947,01E2402C,true,Rx,1,8,4F,50,00,0D,C2,10,00,00,
110466792,02620028,true,Rx,1,8,08,0C,00,48,F0,5F,45,3B,
110476903,01E2402C,true,Rx,1,8,8F,50,00,0D,C2,10,00,00,
110487086,00E00024,true,Rx,1,8,C0,00,00,00,00,00,3F,A0,
110496882,01E2402C,true,Rx,1,8,CF,50,00,0D,C2,10,00,00,
110497440,02620028,true,Rx,1,8,48,0C,00,48,F0,5F,45,3B,
110516900,01E2402C,true,Rx,1,8,0F,50,00,2D,C2,10,00,00,
110526872,02620028,true,Rx,1,8,88,0C,00,CC,F0,5F,45,3B,
110531822,0242C07C,true,Rx,1,8,17,02,01,01,01,02,02,01,
110536900,01E2402C,true,Rx,1,8,4F,50,00,0D,C2,10,00,00,
110556991,00E00024,true,Rx,1,8,00,00,00,00,00,00,3F,C0,
110557562,01E2402C,true,Rx,1,8,8F,50,00,0D,C2,10,00,00,
110558125,02620028,true,Rx,1,8,C0,0C,00,48,F0,5F,45,3B,
110576952,01E2402C,true,Rx,1,8,CF,50,00,0D,C2,11,00,00,
110586851,02620028,true,Rx,1,8,08,0C,00,48,F0,5F,45,3B,
110596855,01E2402C,true,Rx,1,8,0F,50,00,0D,C2,10,00,00,
110616861,01E2402C,true,Rx,1,8,4F,50,00,0D,C2,10,00,00,
110617411,02620028,true,Rx,1,8,48,0C,00,48,F0,5F,45,3B,
110627016,00E00024,true,Rx,1,8,40,00,00,00,00,00,3F,E0,
110636873,01E2402C,true,Rx,1,8,8F,50,00,0D,C2,10,00,00,
110646866,02620028,true,Rx,1,8,88,0C,00,48,F0,5F,45,3B,
110657839,01E2402C,true,Rx,1,8,CF,50,00,0D,C2,10,00,00,
110676867,01E2402C,true,Rx,1,8,0F,50,00,0D,C2,10,00,00,
110677427,02620028,true,Rx,1,8,C0,0C,00,48,F0,5F,45,3B,
110697022,00E00024,true,Rx,1,8,80,00,00,00,00,00,3F,00,
110697594,01E2402C,true,Rx,1,8,4F,50,00,0D,C2,10,00,00,
110706787,02620028,true,Rx,1,8,08,0C,00,48,F0,5F,45,3B,
110716875,01E2402C,true,Rx,1,8,8F,50,00,0D,C2,10,00,00,
110736882,01E2402C,true,Rx,1,8,CF,50,00,0D,C2,10,00,00,
110737442,02620028,true,Rx,1,8,48,0C,00,48,F0,5F,45,3B,
110756912,01E2402C,true,Rx,1,8,0F,50,00,0D,C2,10,00,00,
110766990,00E00024,true,Rx,1,8,C0,00,00,00,00,00,3F,20,
110767552,02620028,true,Rx,1,8,88,0C,00,48,F0,5F,45,3B,
110776924,01E2402C,true,Rx,1,8,4F,50,00,0D,C2,11,00,00,
110796887,01E2402C,true,Rx,1,8,8F,50,00,0D,C2,10,00,00,
110797458,02620028,true,Rx,1,8,C0,0C,00,48,F0,5F,45,3B,
110811789,0242C07C,true,Rx,1,8,01,03,5E,73,F7,CA,FE,F8,
110816897,01E2402C,true,Rx,1,8,CF,50,00,0D,C2,10,00,00,
110826817,02620028,true,Rx,1,8,08,0C,00,48,F0,5F,45,3B,
110836991,00E00024,true,Rx,1,8,00,00,00,00,00,00,3F,40,
110837562,01E2402C,true,Rx,1,8,0F,50,00,0D,C2,10,00,00,
110856893,01E2402C,true,Rx,1,8,4F,50,00,0D,C2,10,00,00,
110857453,02620028,true,Rx,1,8,48,0C,00,48,F0,5F,45,3B,
110876903,01E2402C,true,Rx,1,8,8F,50,00,0D,C2,10,00,00,
110886834,02620028,true,Rx,1,8,88,0C,00,48,F0,5F,45,3B,
110897113,01E2402C,true,Rx,1,8,CF,50,00,2D,C2,10,00,00,
110911866,00E00024,true,Rx,1,8,40,00,00,00,00,00,3F,60,
110916829,01E2402C,true,Rx,1,8,0F,50,00,0D,C2,10,00,00,
110917398,02620028,true,Rx,1,8,C0,0C,00,CC,F0,5F,45,3B,
110936899,01E2402C,true,Rx,1,8,4F,50,00,0D,C2,10,00,00,
110946788,02620028,true,Rx,1,8,08,0C,00,48,F0,5F,45,3B,
110956886,01E2402C,true,Rx,1,8,8F,50,00,0D,C2,10,00,00,
110976934,01E2402C,true,Rx,1,8,CF,50,00,0D,C2,31,00,00,
110977482,02620028,true,Rx,1,8,48,0C,00,48,F0,5F,45,3B,
110981949,00E00024,true,Rx,1,8,80,00,00,00,00,00,3F,80,
110996881,01E2402C,true,Rx,1,8,0F,50,00,0D,C2,10,00,00,
111006895,02620028,true,Rx,1,8,88,0C,00,48,F0,5F,45,3B,
111016908,01E2402C,true,Rx,1,8,4F,50,00,0D,C2,10,00,00,
111036831,01E2402C,true,Rx,1,8,8F,50,00,0D,C2,10,00,00,
111037400,02620028,true,Rx,1,8,C0,0C,00,48,F0,5F,45,3B,
111051901,00E00024,true,Rx,1,8,C0,00,00,00,00,00,3F,A0,
111056947,01E2402C,true,Rx,1,8,CF,50,00,0D,C2,10,00,00,
111066804,02620028,true,Rx,1,8,08,0C,00,48,F0,5F,45,3B,
111076956,01E2402C,true,Rx,1,8,0F,50,00,0D,C2,10,00,00,
111091762,0242C07C,true,Rx,1,8,02,51,5C,52,72,06,DC,BC,
111096850,01E2402C,true,Rx,1,8,4F,50,00,0D,C2,10,00,00,
111097410,02620028,true,Rx,1,8,48,0C,00,48,F0,5F,45,3B,
111116899,01E2402C,true,Rx,1,8,8F,50,00,0D,C2,10,00,00,
111126988,00E00024,true,Rx,1,8,00,00,00,00,00,00,3F,C0,
111127549,02620028,true,Rx,1,8,88,0C,00,48,F0,5F,45,3B,
111136912,01E2402C,true,Rx,1,8,CF,50,00,0D,C2,10,00,00,
111156898,01E2402C,true,Rx,1,8,0F,50,00,0D,C2,10,00,00,
111157458,02620028,true,Rx,1,8,C0,0C,00,48,F0,5F,45,3B,
111176927,01E2402C,true,Rx,1,8,4F,50,00,0D,C2,11,00,00,
111186805,02620028,true,Rx,1,8,08,0C,00,48,F0,5F,45,3B,
111196904,01E2402C,true,Rx,1,8,8F,50,00,0D,C2,10,00,00,
111201887,00E00024,true,Rx,1,8,40,00,00,00,00,00,3F,E0,
111216851,01E2402C,true,Rx,1,8,CF,50,00,0D,C2,10,00,00,
111217411,02620028,true,Rx,1,8,48,0C,00,48,F0,5F,45,3B,
111236868,01E2402C,true,Rx,1,8,0F,50,00,0D,C2,10,00,00,
111247125,02620028,true,Rx,1,8,88,0C,00,48,F0,5F,45,3B,
111256939,01E2402C,true,Rx,1,8,4F,50,00,0D,C2,10,00,00,
111271893,00E00024,true,Rx,1,8,80,00,00,00,00,00,3F,00,
111277077,01E2402C,true,Rx,1,8,8F,50,00,2D,C2,10,00,00,
111277648,02620028,true,Rx,1,8,C0,0C,00,CC,F0,5F,45,3B,
111296928,01E2402C,true,Rx,1,8,CF,50,00,0D,C2,10,00,00,
111306797,02620028,true,Rx,1,8,08,0C,00,48,F0,5F,45,3B,
111316853,01E2402C,true,Rx,1,8,0F,50,00,0D,C2,10,00,00,
111336849,01E2402C,true,Rx,1,8,4F,50,00,0D,C2,10,00,00,
111337409,02620028,true,Rx,1,8,48,0C,00,48,F0,5F,45,3B,
111341888,00E00024,true,Rx,1,8,C0,00,00,00,00,00,3F,20,
111356956,01E2402C,true,Rx,1,8,8F,50,00,0D,C2,10,00,00,
111366865,02620028,true,Rx,1,8,88,0C,00,48,F0,5F,45,3B,
111371848,0242C07C,true,Rx,1,8,13,01,01,01,01,02,01,04,
111376914,01E2402C,true,Rx,1,8,CF,50,00,0D,C2,11,00,00,
111396827,01E2402C,true,Rx,1,8,0F,50,00,0D,C2,10,00,00,
111397386,02620028,true,Rx,1,8,C0,0C,00,48,F0,5F,45,3B,
111411897,00E00024,true,Rx,1,8,00,00,00,00,00,00,3F,40,
111416911,01E2402C,true,Rx,1,8,4F,50,00,0D,C2,10,00,00,
111426874,02620028,true,Rx,1,8,08,0C,00,48,F0,5F,45,3B,
111436877,01E2402C,true,Rx,1,8,8F,50,00,0D,C2,10,00,00,
111456904,01E2402C,true,Rx,1,8,CF,50,00,0D,C2,10,00,00,
111457462,02620028,true,Rx,1,8,48,0C,00,48,F0,5F,45,3B,
111476921,01E2402C,true,Rx,1,8,0F,50,00,0D,C2,10,00,00,
111481871,00E00024,true,Rx,1,8,40,00,00,00,00,00,3F,60,
111486855,02620028,true,Rx,1,8,88,0C,00,48,F0,5F,45,3B,
111496890,01E2402C,true,Rx,1,8,4F,50,00,0D,C2,10,00,00,
111516832,01E2402C,true,Rx,1,8,8F,50,00,0D,C2,10,00,00,
111517390,02620028,true,Rx,1,8,C0,0C,00,48,F0,5F,45,3B,
111536892,01E2402C,true,Rx,1,8,CF,50,00,0D,C2,10,00,00,
111546781,02620028,true,Rx,1,8,08,0C,00,48,F0,5F,45,3B,
111551899,00E00024,true,Rx,1,8,80,00,00,00,00,00,3F,80,
111556892,01E2402C,true,Rx,1,8,0F,50,00,0D,C2,10,00,00,
111576920,01E2402C,true,Rx,1,8,4F,50,00,0D,C2,11,00,00,
111577470,02620028,true,Rx,1,8,48,0C,00,48,F0,5F,45,3B,
111596867,01E2402C,true,Rx,1,8,8F,50,00,0D,C2,10,00,00,
111606829,02620028,true,Rx,1,8,88,0C,00,48,F0,5F,45,3B,
111616876,01E2402C,true,Rx,1,8,CF,50,00,0D,C2,10,00,00,
111622320,00E00024,true,Rx,1,8,C0,00,00,00,00,00,3F,A0,
111636894,01E2402C,true,Rx,1,8,0F,50,00,0D,C2,10,00,00,
111637465,02620028,true,Rx,1,8,C0,0C,00,48,F0,5F,45,3B,
111651776,0242C07C,true,Rx,1,8,18,01,01,03,02,12,06,01,
111656938,01E2402C,true,Rx,1,8,4F,50,00,0D,C2,10,00,00,
111666784,02620028,true,Rx,1,8,08,0C,00,CC,F0,5F,45,3B,
111676915,01E2402C,true,Rx,1,8,8F,50,00,2D,C2,10,00,00,
111697015,00E00024,true,Rx,1,8,00,00,00,00,00,00,3F,C0,
111697586,01E2402C,true,Rx,1,8,CF,50,00,0D,C2,10,00,00,
111698140,02620028,true,Rx,1,8,48,0C,00,48,F0,5F,45,3B,
111716883,01E2402C,true,Rx,1,8,0F,50,00,0D,C2,10,00,00,
111726867,02620028,true,Rx,1,8,88,0C,00,48,F0,5F,45,3B,
111736882,01E2402C,true,Rx,1,8,4F,50,00,0D,C2,10,00,00,
111756845,01E2402C,true,Rx,1,8,8F,50,00,0D,C2,10,00,00,
111757405,02620028,true,Rx,1,8,C0,0C,00,48,F0,5F,45,3B,
111767042,00E00024,true,Rx,1,8,40,00,00,00,00,00,3F,E0,
111776928,01E2402C,true,Rx,1,8,CF,50,00,0D,C2,11,00,00,
111786797,02620028,true,Rx,1,8,08,0C,00,48,F0,5F,45,3B,
111796843,01E2402C,true,Rx,1,8,0F,50,00,0D,C2,10,00,00,
111816850,01E2402C,true,Rx,1,8,4F,50,00,0D,C2,10,00,00,
111817410,02620028,true,Rx,1,8,48,0C,00,48,F0,5F,45,3B,
111837637,00E00024,true,Rx,1,8,80,00,00,00,00,00,3F,00,
111838207,01E2402C,true,Rx,1,8,8F,50,00,0D,C2,10,00,00,
111846949,02620028,true,Rx,1,8,88,0C,00,48,F0,5F,45,3B,
111856911,01E2402C,true,Rx,1,8,CF,50,00,0D,C2,10,00,00,
111876863,01E2402C,true,Rx,1,8,0F,50,00,0D,C2,10,00,00,
111877422,02620028,true,Rx,1,8,C0,0C,00,48,F0,5F,45,3B,
111896883,01E2402C,true,Rx,1,8,4F,50,00,0D,C2,10,00,00,
111906918,00E00024,true,Rx,1,8,C0,00,00,00,00,00,3F,20,
111907477,02620028,true,Rx,1,8,08,0C,00,48,F0,5F,45,3B,
111916914,01E2402C,true,Rx,1,8,8F,50,00,0D,C2,10,00,00,
111931772,0242C07C,true,Rx,1,8,01,03,5E,73,F7,D4,01,07,
111936850,01E2402C,true,Rx,1,8,CF,50,00,0D,C2,10,00,00,
111937409,02620028,true,Rx,1,8,48,0C,00,48,F0,5F,45,3B,
111956879,01E2402C,true,Rx,1,8,0F,50,00,0D,C2,10,00,00,
111966831,02620028,true,Rx,1,8,88,0C,00,48,F0,5F,45,3B,
111977034,00E00024,true,Rx,1,8,00,00,00,00,00,00,3F,40,
111977607,01E2402C,true,Rx,1,8,4F,50,00,0D,C2,31,00,00,
111996844,01E2402C,true,Rx,1,8,8F,50,00,0D,C2,10,00,00,
111997404,02620028,true,Rx,1,8,C0,0C,00,48,F0,5F,45,3B,
112016894,01E2402C,true,Rx,1,8,CF,50,00,0D,C2,10,00,00,
112026815,02620028,true,Rx,1,8,08,0C,00,48,F0,5F,45,3B,
112036851,01E2402C,true,Rx,1,8,0F,50,00,0D,C2,10,00,00,
112052108,00E00024,true,Rx,1,8,40,00,00,00,00,00,3F,60,
112056880,01E2402C,true,Rx,1,8,4F,50,00,2D,C2,10,00,00,
112057430,02620028,true,Rx,1,8,48,0C,00,CC,F0,5F,45,3B,
112076909,01E2402C,true,Rx,1,8,8F,50,00,0D,C2,10,00,00,
112086818,02620028,true,Rx,1,8,88,0C,00,48,F0,5F,45,3B,
112096876,01E2402C,true,Rx,1,8,CF,50,00,0D,C2,10,00,00,
112116838,01E2402C,true,Rx,1,8,0F,50,00,0D,C2,10,00,00,
112117409,02620028,true,Rx,1,8,C0,0C,00,48,F0,5F,45,3B,
112127171,00E00024,true,Rx,1,8,80,00,00,00,00,00,3F,80,
112136882,01E2402C,true,Rx,1,8,4F,50,00,0D,C2,10,00,00,
112146772,02620028,true,Rx,1,8,08,0C,00,48,F0,5F,45,3B,
112156903,01E2402C,true,Rx,1,8,8F,50,00,0D,C2,10,00,00,
112176909,01E2402C,true,Rx,1,8,CF,50,00,0D,C2,11,00,00,
112177459,02620028,true,Rx,1,8,48,0C,00,48,F0,5F,45,3B,
112197023,00E00024,true,Rx,1,8,C0,00,00,00,00,00,3F,A0,
112197594,01E2402C,true,Rx,1,8,0F,50,00,0D,C2,10,00,00,
112206860,02620028,true,Rx,1,8,88,0C,00,48,F0,5F,45,3B,
112211853,0242C07C,true,Rx,1,8,FF,00,00,00,00,00,00,00,
112216877,01E2402C,true,Rx,1,8,4F,50,00,0D,C2,10,00,00,
112236820,01E2402C,true,Rx,1,8,8F,50,00,0D,C2,10,00,00,
112237380,02620028,true,Rx,1,8,C0,0C,00,48,F0,5F,45,3B,
112256955,01E2402C,true,Rx,1,8,CF,50,00,0D,C2,10,00,00,
112266938,00E00024,true,Rx,1,8,00,00,00,00,00,00,3F,C0,
112267498,02620028,true,Rx,1,8,08,0C,00,48,F0,5F,45,3B,
112276913,01E2402C,true,Rx,1,8,0F,50,00,0D,C2,10,00,00,
112296856,01E2402C,true,Rx,1,8,4F,50,00,0D,C2,10,00,00,
112297416,02620028,true,Rx,1,8,48,0C,00,48,F0,5F,45,3B,
112316886,01E2402C,true,Rx,1,8,8F,50,00,0D,C2,10,00,00,
112326880,02620028,true,Rx,1,8,88,0C,00,48,F0,5F,45,3B,
112336979,00E00024,true,Rx,1,8,40,00,00,00,00,00,3F,E0,
112337550,01E2402C,true,Rx,1,8,CF,50,00,0D,C2,10,00,00,
112356841,01E2402C,true,Rx,1,8,0F,50,00,0D,C2,10,00,00,
112357400,02620028,true,Rx,1,8,C0,0C,00,48,F0,5F,45,3B,
112376922,01E2402C,true,Rx,1,8,4F,50,00,0D,C2,11,00,00,
112386802,02620028,true,Rx,1,8,08,0C,00,48,F0,5F,45,3B,
112396871,01E2402C,true,Rx,1,8,8F,50,00,0D,C2,10,00,00,
112407137,00E00024,true,Rx,1,8,80,00,00,00,00,00,3F,00,
112416847,01E2402C,true,Rx,1,8,CF,50,00,0D,C2,10,00,00,
112417406,02620028,true,Rx,1,8,48,0C,00,48,F0,5F,45,3B,
112436854,01E2402C,true,Rx,1,8,0F,50,00,2D,C2,10,00,00,
112446856,02620028,true,Rx,1,8,88,0C,00,CC,F0,5F,45,3B,
112456924,01E2402C,true,Rx,1,8,4F,50,00,0D,C2,10,00,00,
112477015,00E00024,true,Rx,1,8,C0,00,00,00,00,00,3F,20,
112477586,01E2402C,true,Rx,1,8,8F,50,00,0D,C2,10,00,00,
112478149,02620028,true,Rx,1,8,C0,0C,00,48,F0,5F,45,3B,
112491787,0242C07C,true,Rx,1,8,14,04,01,01,02,02,02,06,
112496885,01E2402C,true,Rx,1,8,CF,50,00,0D,C2,10,00,00,
112506773,02620028,true,Rx,1,8,08,0C,00,48,F0,5F,45,3B,
112516893,01E2402C,true,Rx,1,8,0F,50,00,0D,C2,10,00,00,
112536867,01E2402C,true,Rx,1,8,4F,50,00,0D,C2,10,00,00,
112537417,02620028,true,Rx,1,8,48,0C,00,48,F0,5F,45,3B,
112546978,00E00024,true,Rx,1,8,00,00,00,00,00,00,3F,40,
112556887,01E2402C,true,Rx,1,8,8F,50,00,0D,C2,10,00,00,
112566827,02620028,true,Rx,1,8,88,0C,00,48,F0,5F,45,3B,
112576915,01E2402C,true,Rx,1,8,CF,50,00,0D,C2,11,00,00,
112596836,01E2402C,true,Rx,1,8,0F,50,00,0D,C2,10,00,00,
112597406,02620028,true,Rx,1,8,C0,0C,00,48,F0,5F,45,3B,
112616876,01E2402C,true,Rx,1,8,4F,50,00,0D,C2,10,00,00,
112622300,00E00024,true,Rx,1,8,40,00,00,00,00,00,3F,60,
112626819,02620028,true,Rx,1,8,08,0C,00,48,F0,5F,45,3B,
112636866,01E2402C,true,Rx,1,8,8F,50,00,0D,C2,10,00,00,
112656893,01E2402C,true,Rx,1,8,CF,50,00,0D,C2,10,00,00,
112657453,02620028,true,Rx,1,8,48,0C,00,48,F0,5F,45,3B,
112676913,01E2402C,true,Rx,1,8,0F,50,00,0D,C2,10,00,00,
112686886,02620028,true,Rx,1,8,88,0C,00,48,F0,5F,45,3B,
112691910,00E00024,true,Rx,1,8,80,00,00,00,00,00,3F,80,
112696871,01E2402C,true,Rx,1,8,4F,50,00,0D,C2,10,00,00,
112716814,01E2402C,true,Rx,1,8,8F,50,00,0D,C2,10,00,00,
112717384,02620028,true,Rx,1,8,C0,0C,00,48,F0,5F,45,3B,
112736906,01E2402C,true,Rx,1,8,CF,50,00,0D,C2,10,00,00,
112746794,02620028,true,Rx,1,8,08,0C,00,48,F0,5F,45,3B,
112756924,01E2402C,true,Rx,1,8,0F,50,00,0D,C2,10,00,00,
112761876,00E00024,true,Rx,1,8,C0,00,00,00,00,00,3F,A0,
112771817,0242C07C,true,Rx,1,8,19,04,01,06,01,02,01,01,
112776883,01E2402C,true,Rx,1,8,4F,50,00,0D,C2,11,00,00,
112777432,02620028,true,Rx,1,8,48,0C,00,48,F0,5F,45,3B,
112796849,01E2402C,true,Rx,1,8,8F,50,00,0D,C2,10,00,00,
112806843,02620028,true,Rx,1,8,88,0C,00,48,F0,5F,45,3B,
112816900,01E2402C,true,Rx,1,8,CF,50,00,0D,C2,10,00,00,
112831894,00E00024,true,Rx,1,8,00,00,00,00,00,00,3F,C0,
112836812,01E2402C,true,Rx,1,8,0F,50,00,2D,C2,10,00,00,
112837383,02620028,true,Rx,1,8,C0,0C,00,CC,F0,5F,45,3B,
112856905,01E2402C,true,Rx,1,8,4F,50,00,0D,C2,10,00,00,
112866770,02620028,true,Rx,1,8,08,0C,00,48,F0,5F,45,3B,
112876903,01E2402C,true,Rx,1,8,8F,50,00,0D,C2,10,00,00,
112896845,01E2402C,true,Rx,1,8,CF,50,00,0D,C2,10,00,00,
112897404,02620028,true,Rx,1,8,48,0C,00,48,F0,5F,45,3B,
112902346,00E00024,true,Rx,1,8,40,00,00,00,00,00,3F,E0,
112916857,01E2402C,true,Rx,1,8,0F,50,00,0D,C2,10,00,00,
112926861,02620028,true,Rx,1,8,88,0C,00,48,F0,5F,45,3B,
112936876,01E2402C,true,Rx,1,8,4F,50,00,0D,C2,10,00,00,
112956871,01E2402C,true,Rx,1,8,8F,50,00,0D,C2,10,00,00,
112957441,02620028,true,Rx,1,8,C0,0C,00,48,F0,5F,45,3B,
112971898,00E00024,true,Rx,1,8,80,00,00,00,00,00,3F,00,
112976943,01E2402C,true,Rx,1,8,CF,50,00,0D,C2,31,00,00,
112986769,02620028,true,Rx,1,8,08,0C,00,48,F0,5F,45,3B,
112996846,01E2402C,true,Rx,1,8,0F,50,00,0D,C2,10,00,00,
113016842,01E2402C,true,Rx,1,8,4F,50,00,0D,C2,10,00,00,
113017402,02620028,true,Rx,1,8,48,0C,00,48,F0,5F,45,3B,
113036934,01E2402C,true,Rx,1,8,8F,50,00,0D,C2,10,00,00,
113046949,00E00024,true,Rx,1,8,C0,00,00,00,00,00,3F,20,
113047509,02620028,true,Rx,1,8,88,0C,00,48,F0,5F,45,3B,
113051860,0242C07C,true,Rx,1,8,01,03,5E,73,F7,E0,FE,F8,
113056905,01E2402C,true,Rx,1,8,CF,50,00,0D,C2,10,00,00,
113076848,01E2402C,true,Rx,1,8,0F,50,00,0D,C2,10,00,00,
113077408,02620028,true,Rx,1,8,C0,0C,00,48,F0,5F,45,3B,
113096908,01E2402C,true,Rx,1,8,4F,50,00,0D,C2,10,00,00,
113106829,02620028,true,Rx,1,8,08,0C,00,48,F0,5F,45,3B,
113116970,00E00024,true,Rx,1,8,00,00,00,00,00,00,3F,40,
113117541,01E2402C,true,Rx,1,8,8F,50,00,0D,C2,10,00,00,
113136852,01E2402C,true,Rx,1,8,CF,50,00,0D,C2,10,00,00,
113137402,02620028,true,Rx,1,8,48,0C,00,48,F0,5F,45,3B,
113156924,01E2402C,true,Rx,1,8,0F,50,00,0D,C2,10,00,00,
113166845,02620028,true,Rx,1,8,88,0C,00,48,F0,5F,45,3B,
113176912,01E2402C,true,Rx,1,8,4F,50,00,0D,C2,11,00,00,
113191876,00E00024,true,Rx,1,8,40,00,00,00,00,00,3F,60,
113196836,01E2402C,true,Rx,1,8,8F,50,00,0D,C2,10,00,00,
113197396,02620028,true,Rx,1,8,C0,0C,00,48,F0,5F,45,3B,
113216908,01E2402C,true,Rx,1,8,CF,50,00,2D,C2,10,00,00,
113226828,02620028,true,Rx,1,8,08,0C,00,CC,F0,5F,45,3B,
113236864,01E2402C,true,Rx,1,8,0F,50,00,0D,C2,10,00,00,
113256860,01E2402C,true,Rx,1,8,4F,50,00,0D,C2,10,00,00,
113257420,02620028,true,Rx,1,8,48,0C,00,48,F0,5F,45,3B,
113261877,00E00024,true,Rx,1,8,80,00,00,00,00,00,3F,80,
113276893,01E2402C,true,Rx,1,8,8F,50,00,0D,C2,10,00,00,
113286833,02620028,true,Rx,1,8,88,0C,00,48,F0,5F,45,3B,
113296870,01E2402C,true,Rx,1,8,CF,50,00,0D,C2,10,00,00,
113316878,01E2402C,true,Rx,1,8,0F,50,00,0D,C2,10,00,00,
113317436,02620028,true,Rx,1,8,C0,0C,00,48,F0,5F,45,3B,
113331894,00E00024,true,Rx,1,8,C0,00,00,00,00,00,3F,A0,
113332434,0242C07C,true,Rx,1,8,02,51,5C,52,72,06,DC,BC,
113336901,01E2402C,true,Rx,1,8,4F,50,00,0D,C2,10,00,00,
113346768,02620028,true,Rx,1,8,08,0C,00,48,F0,5F,45,3B,
113356867,01E2402C,true,Rx,1,8,8F,50,00,0D,C2,10,00,00,
113376893,01E2402C,true,Rx,1,8,CF,50,00,0D,C2,11,00,00,
113377452,02620028,true,Rx,1,8,48,0C,00,48,F0,5F,45,3B,
113396860,01E2402C,true,Rx,1,8,0F,50,00,0D,C2,10,00,00,
113401862,00E00024,true,Rx,1,8,00,00,00,00,00,00,3F,C0,
113406866,02620028,true,Rx,1,8,88,0C,00,48,F0,5F,45,3B,
113416871,01E2402C,true,Rx,1,8,4F,50,00,0D,C2,10,00,00,
113436813,01E2402C,true,Rx,1,8,8F,50,00,0D,C2,10,00,00,
113437382,02620028,true,Rx,1,8,C0,0C,00,48,F0,5F,45,3B,
113456905,01E2402C,true,Rx,1,8,CF,50,00,0D,C2,10,00,00,
113466762,02620028,true,Rx,1,8,08,0C,00,48,F0,5F,45,3B,
113476998,00E00024,true,Rx,1,8,40,00,00,00,00,00,3F,E0,
113477570,01E2402C,true,Rx,1,8,0F,50,00,0D,C2,10,00,00,
113496840,01E2402C,true,Rx,1,8,4F,50,00,0D,C2,10,00,00,
113497390,02620028,true,Rx,1,8,48,0C,00,48,F0,5F,45,3B,
113516867,01E2402C,true,Rx,1,8,8F,50,00,0D,C2,10,00,00,
113526925,02620028,true,Rx,1,8,88,0C,00,48,F0,5F,45,3B,
113536877,01E2402C,true,Rx,1,8,CF,50,00,0D,C2,10,00,00,
113546976,00E00024,true,Rx,1,8,80,00,00,00,00,00,3F,00,
113556835,01E2402C,true,Rx,1,8,0F,50,00,0D,C2,10,00,00,
113557405,02620028,true,Rx,1,8,C0,0C,00,48,F0,5F,45,3B,
113576917,01E2402C,true,Rx,1,8,4F,50,00,0D,C2,11,00,00,
113586994,02620028,true,Rx,1,8,08,0C,00,CC,F0,5F,45,3B,
113596893,01E2402C,true,Rx,1,8,8F,50,00,2D,C2,10,00,00,
113611751,0242C07C,true,Rx,1,8,1A,02,02,01,04,01,02,03,
113616974,00E00024,true,Rx,1,8,C0,00,00,00,00,00,3F,20,
113617556,01E2402C,true,Rx,1,8,CF,50,00,0D,C2,10,00,00,
113618109,02620028,true,Rx,1,8,48,0C,00,48,F0,5F,45,3B,
113636852,01E2402C,true,Rx,1,8,0F,50,00,0D,C2,10,00,00,
113646814,02620028,true,Rx,1,8,88,0C,00,48,F0,5F,45,3B,
113656934,01E2402C,true,Rx,1,8,4F,50,00,0D,C2,10,00,00,
113676845,01E2402C,true,Rx,1,8,8F,50,00,0D,C2,10,00,00,
113677416,02620028,true,Rx,1,8,C0,0C,00,48,F0,5F,45,3B,
113686988,00E00024,true,Rx,1,8,00,00,00,00,00,00,3F,40,
113696886,01E2402C,true,Rx,1,8,CF,50,00,0D,C2,10,00,00,
113706765,02620028,true,Rx,1,8,08,0C,00,48,F0,5F,45,3B,
113716841,01E2402C,true,Rx,1,8,0F,50,00,0D,C2,10,00,00,
113736836,01E2402C,true,Rx,1,8,4F,50,00,0D,C2,10,00,00,
113737396,02620028,true,Rx,1,8,48,0C,00,48,F0,5F,45,3B,
113756993,00E00024,true,Rx,1,8,40,00,00,00,00,00,3F,60,
113757563,01E2402C,true,Rx,1,8,8F,50,00,0D,C2,10,00,00,
113766809,02620028,true,Rx,1,8,88,0C,00,48,F0,5F,45,3B,
113776908,01E2402C,true,Rx,1,8,CF,50,00,0D,C2,11,00,00,
113796831,01E2402C,true,Rx,1,8,0F,50,00,0D,C2,10,00,00,
113797389,02620028,true,Rx,1,8,C0,0C,00,48,F0,5F,45,3B,
113816871,01E2402C,true,Rx,1,8,4F,50,00,0D,C2,10,00,00,
113826822,02620028,true,Rx,1,8,08,0C,00,48,F0,5F,45,3B,
113831897,00E00024,true,Rx,1,8,80,00,00,00,00,00,3F,80,
113836848,01E2402C,true,Rx,1,8,8F,50,00,0D,C2,10,00,00,
113856855,01E2402C,true,Rx,1,8,CF,50,00,0D,C2,10,00,00,
113857414,02620028,true,Rx,1,8,48,0C,00,48,F0,5F,45,3B,
113876948,01E2402C,true,Rx,1,8,0F,50,00,0D,C2,10,00,00,
113886816,02620028,true,Rx,1,8,88,0C,00,48,F0,5F,45,3B,
113891818,0242C07C,true,Rx,1,8,1F,01,02,03,02,01,22,00,
113896885,01E2402C,true,Rx,1,8,4F,50,00,0D,C2,10,00,00,
113901908,00E00024,true,Rx,1,8,C0,00,00,00,00,00,3F,A0,
113916808,01E2402C,true,Rx,1,8,8F,50,00,0D,C2,10,00,00,
113917378,02620028,true,Rx,1,8,C0,0C,00,48,F0,5F,45,3B,
113936869,01E2402C,true,Rx,1,8,CF,50,00,0D,C2,10,00,00,
113946842,02620028,true,Rx,1,8,08,0C,00,48,F0,5F,45,3B,
113956856,01E2402C,true,Rx,1,8,0F,50,00,0D,C2,10,00,00,
113971913,00E00024,true,Rx,1,8,00,00,00,00,00,00,3F,C0,
113977096,01E2402C,true,Rx,1,8,4F,50,00,2D,C2,31,00,00,
113977658,02620028,true,Rx,1,8,48,0C,00,CC,F0,5F,45,3B,
113996854,01E2402C,true,Rx,1,8,8F,50,00,0D,C2,10,00,00,
114006826,02620028,true,Rx,1,8,88,0C,00,48,F0,5F,45,3B,
114016861,01E2402C,true,Rx,1,8,CF,50,00,0D,C2,10,00,00,
114036836,01E2402C,true,Rx,1,8,0F,50,00,0D,C2,10,00,00,
114037396,02620028,true,Rx,1,8,C0,0C,00,48,F0,5F,45,3B,
114042272,00E00024,true,Rx,1,8,40,00,00,00,00,00,3F,E0,
114056908,01E2402C,true,Rx,1,8,4F,50,00,0D,C2,10,00,00,
114066765,02620028,true,Rx,1,8,08,0C,00,48,F0,5F,45,3B,
114076883,01E2402C,true,Rx,1,8,8F,50,00,0D,C2,10,00,00,
114096836,01E2402C,true,Rx,1,8,CF,50,00,0D,C2,10,00,00,
114097396,02620028,true,Rx,1,8,48,0C,00,48,F0,5F,45,3B,
114111876,00E00024,true,Rx,1,8,80,00,00,00,00,00,3F,00,
114116846,01E2402C,true,Rx,1,8,0F,50,00,0D,C2,10,00,00,
114126851,02620028,true,Rx,1,8,88,0C,00,48,F0,5F,45,3B,
114136866,01E2402C,true,Rx,1,8,4F,50,00,0D,C2,10,00,00,
114156915,01E2402C,true,Rx,1,8,8F,50,00,0D,C2,10,00,00,
114157475,02620028,true,Rx,1,8,C0,0C,00,48,F0,5F,45,3B,
114171777,0242C07C,true,Rx,1,8,01,03,5E,73,F7,EA,01,07,
114176906,01E2402C,true,Rx,1,8,CF,50,00,0D,C2,11,00,00,
114181931,00E00024,true,Rx,1,8,C0,00,00,00,00,00,3F,20,
114186766,02620028,true,Rx,1,8,08,0C,00,48,F0,5F,45,3B,
114196834,01E2402C,true,Rx,1,8,0F,50,00,0D,C2,10,00,00,
114216861,01E2402C,true,Rx,1,8,4F,50,00,0D,C2,10,00,00,
114217411,02620028,true,Rx,1,8,48,0C,00,48,F0,5F,45,3B,
114236847,01E2402C,true,Rx,1,8,8F,50,00,0D,C2,10,00,00,
114246861,02620028,true,Rx,1,8,88,0C,00,48,F0,5F,45,3B,
114256992,00E00024,true,Rx,1,8,00,00,00,00,00,00,3F,40,
114257563,01E2402C,true,Rx,1,8,CF,50,00,0D,C2,10,00,00,
114276853,01E2402C,true,Rx,1,8,0F,50,00,0D,C2,10,00,00,
114277411,02620028,true,Rx,1,8,C0,0C,00,48,F0,5F,45,3B,
114296873,01E2402C,true,Rx,1,8,4F,50,00,0D,C2,10,00,00,
114306760,02620028,true,Rx,1,8,08,0C,00,48,F0,5F,45,3B,
114316861,01E2402C,true,Rx,1,8,8F,50,00,0D,C2,10,00,00,
114327065,00E00024,true,Rx,1,8,40,00,00,00,00,00,3F,60,
114336837,01E2402C,true,Rx,1,8,CF,50,00,0D,C2,10,00,00,
114337396,02620028,true,Rx,1,8,48,0C,00,48,F0,5F,45,3B,
114357214,01E2402C,true,Rx,1,8,0F,50,00,2D,C2,10,00,00,
114366871,02620028,true,Rx,1,8,88,0C,00,CC,F0,5F,45,3B,
114376916,01E2402C,true,Rx,1,8,4F,50,00,0D,C2,11,00,00,
114396838,01E2402C,true,Rx,1,8,8F,50,00,0D,C2,10,00,00,
114397396,02620028,true,Rx,1,8,C0,0C,00,48,F0,5F,45,3B,
114402265,00E00024,true,Rx,1,8,80,00,00,00,00,00,3F,80,
114416879,01E2402C,true,Rx,1,8,CF,50,00,0D,C2,10,00,00,
114426841,02620028,true,Rx,1,8,08,0C,00,48,F0,5F,45,3B,
114436897,01E2402C,true,Rx,1,8,0F,50,00,0D,C2,10,00,00,
114451734,0242C07C,true,Rx,1,8,02,50,5C,52,72,06,DC,BC,
114456855,01E2402C,true,Rx,1,8,4F,50,00,0D,C2,10,00,00,
114457415,02620028,true,Rx,1,8,48,0C,00,48,F0,5F,45,3B,
114471904,00E00024,true,Rx,1,8,C0,00,00,00,00,00,3F,A0,
114476886,01E2402C,true,Rx,1,8,8F,50,00,0D,C2,10,00,00,
114486818,02620028,true,Rx,1,8,88,0C,00,48,F0,5F,45,3B,
114496916,01E2402C,true,Rx,1,8,CF,50,00,0D,C2,10,00,00,
114516806,01E2402C,true,Rx,1,8,0F,50,00,0D,C2,10,00,00,
114517366,02620028,true,Rx,1,8,C0,0C,00,48,F0,5F,45,3B,
114536876,01E2402C,true,Rx,1,8,4F,50,00,0D,C2,10,00,00,
114541943,00E00024,true,Rx,1,8,00,00,00,00,00,00,3F,C0,
114546756,02620028,true,Rx,1,8,08,0C,00,48,F0,5F,45,3B,
114556855,01E2402C,true,Rx,1,8,8F,50,00,0D,C2,10,00,00,
114576872,01E2402C,true,Rx,1,8,CF,50,00,0D,C2,11,00,00,
114577422,02620028,true,Rx,1,8,48,0C,00,48,F0,5F,45,3B,
114596859,01E2402C,true,Rx,1,8,0F,50,00,0D,C2,10,00,00,
114606822,02620028,true,Rx,1,8,88,0C,00,48,F0,5F,45,3B,
114611921,00E00024,true,Rx,1,8,40,00,00,00,00,00,3F,E0,
114616892,01E2402C,true,Rx,1,8,4F,50,00,0D,C2,10,00,00,
114636846,01E2402C,true,Rx,1,8,8F,50,00,0D,C2,10,00,00,
114637406,02620028,true,Rx,1,8,C0,0C,00,48,F0,5F,45,3B,
114656928,01E2402C,true,Rx,1,8,CF,50,00,0D,C2,10,00,00,
