Time Stamp,ID,Extended,Dir,Bus,LEN,D1,D2,D3,D4,D5,D6,D7,D8
637611417,00613DF8,true,Rx,0,8,03,00,06,00,00,00,00,00,
637616462,01213FFC,true,Rx,0,8,4C,00,4D,00,F0,41,88,00,
637617623,01E01266,true,Rx,0,8,40,00,02,00,00,00,40,00,
637619662,0140044A,true,Rx,0,8,C0,00,00,18,00,00,00,00,
637620802,0261300A,true,Rx,0,8,00,00,00,27,80,00,00,C0,
637621959,0240102A,true,Rx,0,8,40,00,00,00,00,00,00,00,
637626380,02A03028,true,Rx,0,8,00,90,D4,19,10,2B,80,00,
637631402,00613DF8,true,Rx,0,8,41,00,06,00,00,00,00,00,
637632585,01800028,true,Rx,0,8,C0,00,78,00,00,00,00,00,
637633705,02C13428,true,Rx,0,8,40,00,58,80,6C,00,20,00,
637634821,02E10DF4,true,Rx,0,8,40,A9,20,A0,90,30,08,10,
637637863,0280142A,true,Rx,0,8,C0,50,00,20,07,00,00,00,
637641384,01213FFC,true,Rx,0,8,8C,00,4D,00,F0,01,88,00,
637646212,01C030A2,true,Rx,0,8,C0,5B,40,01,89,01,14,00,
637649784,0261300A,true,Rx,0,8,40,00,00,27,80,00,00,C0,
637651379,00613DF8,true,Rx,0,8,83,00,06,00,00,00,00,00,
637652716,02001022,true,Rx,0,8,40,00,00,01,35,90,10,43,
637656862,0240102A,true,Rx,0,8,81,00,00,00,00,00,00,00,
637659689,0140044A,true,Rx,0,8,00,00,00,08,00,00,00,00,
637661356,02A03028,true,Rx,0,8,00,90,84,11,10,2B,00,00,
637662529,01E01266,true,Rx,0,8,80,00,02,00,00,00,40,00,
637666395,01213FFC,true,Rx,0,8,CC,00,4D,00,E0,01,88,00,
637667855,0280142A,true,Rx,0,8,00,10,00,20,07,00,00,00,
637671404,00613DF8,true,Rx,0,8,C1,00,06,00,00,00,00,00,
637672618,01800028,true,Rx,0,8,00,00,78,00,00,00,00,00,
637679761,00400066,true,Rx,0,8,00,00,00,07,01,5E,40,7F,
637680893,0261300A,true,Rx,0,8,80,00,00,27,80,00,00,C0,
637681993,01613FFC,true,Rx,0,8,02,4E,BC,43,61,04,98,5E,
637686415,02C13428,true,Rx,0,8,80,00,58,80,6C,00,20,00,
637687546,02E10DF4,true,Rx,0,8,80,A9,00,20,90,30,08,10,
637691029,01C030A2,true,Rx,0,8,00,5B,40,01,89,01,14,00,
637692192,00613DF8,true,Rx,0,8,03,00,06,00,00,00,00,00,
637693344,01213FFC,true,Rx,0,8,0C,00,4D,00,F0,01,88,00,
637694510,0240102A,true,Rx,0,8,C1,00,00,00,00,00,00,00,
637696345,02A03028,true,Rx,0,8,00,90,84,11,10,2B,00,00,
637697537,03200008,true,Rx,0,8,00,00,00,00,00,80,00,00,
637698672,02001022,true,Rx,0,8,80,00,00,01,35,90,10,43,
637699836,0140044A,true,Rx,0,8,40,00,00,08,00,00,00,00,
637700972,0280142A,true,Rx,0,8,40,50,00,28,07,00,00,00,
637707219,01E01266,true,Rx,0,8,C0,00,02,00,00,00,40,00,
637709722,0261300A,true,Rx,0,8,C0,00,00,27,80,00,00,C0,
637711400,00613DF8,true,Rx,0,8,41,00,06,00,00,00,00,00,
637712583,01800028,true,Rx,0,8,40,00,78,00,00,00,00,00,
637716448,01213FFC,true,Rx,0,8,4C,00,4D,00,E0,41,88,00,
637726849,0240102A,true,Rx,0,8,00,00,00,00,00,00,00,00,
637727991,0280142A,true,Rx,0,8,80,50,00,20,07,00,00,00,
637731403,00613DF8,true,Rx,0,8,83,00,06,00,00,00,00,00,
637732524,02A03028,true,Rx,0,8,00,90,C4,19,10,2B,00,00,
637736154,01C030A2,true,Rx,0,8,40,5B,40,01,89,01,14,00,
637739622,0140044A,true,Rx,0,8,80,00,00,18,00,00,00,00,
637740754,0261300A,true,Rx,0,8,00,00,00,27,80,00,00,C0,
637741895,01213FFC,true,Rx,0,8,8C,00,4D,00,F0,01,88,00,
637743020,02001022,true,Rx,0,8,C0,00,00,01,35,90,10,43,
637744154,02C13428,true,Rx,0,8,C0,00,58,80,6C,00,20,00,
637745258,02E10DF4,true,Rx,0,8,C0,A9,20,A0,90,30,08,10,
637751401,00613DF8,true,Rx,0,8,C1,00,06,00,00,00,00,00,
637752584,01800028,true,Rx,0,8,80,00,78,00,00,00,00,00,
637753745,01E01266,true,Rx,0,8,00,00,02,00,00,00,40,00,
637754891,00400066,true,Rx,0,8,40,00,00,00,01,5E,40,7F,
637757852,0280142A,true,Rx,0,8,C0,10,00,20,07,00,00,00,
637761840,0240102A,true,Rx,0,8,41,00,00,00,00,00,00,00,
637766407,01213FFC,true,Rx,0,8,CC,00,4D,00,F0,01,88,00,
637767537,02A03028,true,Rx,0,8,00,90,84,11,10,2B,00,00,
637770070,0261300A,true,Rx,0,8,40,00,00,27,80,00,00,C0,
637771356,00613DF8,true,Rx,0,8,03,00,06,00,00,00,00,00,
637772498,0340024C,true,Rx,0,8,C0,00,60,00,0C,96,00,00,
637776817,03C0002A,true,Rx,0,8,00,00,30,C0,2D,00,9F,00,
637779633,0140044A,true,Rx,0,8,C0,00,00,08,00,00,00,00,
637780867,01C030A2,true,Rx,0,8,80,5B,40,01,89,01,14,00,
637787607,02001022,true,Rx,0,8,00,00,00,01,35,90,10,43,
637788748,0280142A,true,Rx,0,8,00,50,00,20,07,00,00,00,
637791456,00613DF8,true,Rx,0,8,41,00,06,00,00,00,00,00,
637792607,01213FFC,true,Rx,0,8,0C,00,4D,00,E0,01,88,00,
637793790,01800028,true,Rx,0,8,C0,00,78,00,00,00,00,00,
637794915,03801028,true,Rx,0,8,4C,00,20,08,DC,43,00,00,
637796337,02C13428,true,Rx,0,8,00,00,58,80,6C,00,20,00,
637797482,01E01266,true,Rx,0,8,40,00,06,00,00,00,40,00,
637798647,0240102A,true,Rx,0,8,83,00,00,00,00,00,00,00,
637799779,02E10DF4,true,Rx,0,8,00,A9,00,20,90,30,08,10,
637800914,0261300A,true,Rx,0,8,80,00,00,27,80,00,00,C0,
637802037,02A03028,true,Rx,0,8,00,90,84,19,10,2B,00,00,
637803225,03200008,true,Rx,0,8,00,00,00,00,00,80,00,00,
637811377,00613DF8,true,Rx,0,8,83,00,06,00,00,00,00,00,
637816513,01213FFC,true,Rx,0,8,4C,00,4D,00,F0,41,88,00,
637817851,0280142A,true,Rx,0,8,40,50,00,20,07,00,00,00,
637819682,0140044A,true,Rx,0,8,00,00,00,18,00,00,00,00,
637820834,04000002,true,Rx,0,8,C0,00,01,00,B4,00,00,4E,
637826139,01C030A2,true,Rx,0,8,C0,5B,40,01,89,01,14,00,
637830082,00400066,true,Rx,0,8,80,00,00,01,01,5E,40,7F,
637831214,0261300A,true,Rx,0,8,C0,00,00,27,80,00,00,C0,
637832377,00613DF8,true,Rx,0,8,C1,00,06,00,00,00,00,00,
637833593,01800028,true,Rx,0,8,00,00,78,00,00,00,00,00,
637834717,02001022,true,Rx,0,8,40,00,00,01,35,90,10,43,
637835882,0240102A,true,Rx,0,8,C0,00,00,00,00,00,00,00,
637837016,02A03028,true,Rx,0,8,00,10,44,11,10,2B,00,00,
637841391,01213FFC,true,Rx,0,8,8C,00,4D,00,F0,01,88,00,
637842563,01E01266,true,Rx,0,8,80,00,02,00,00,00,40,00,
637847840,0280142A,true,Rx,0,8,80,10,00,20,07,00,00,00,
637851382,00613DF8,true,Rx,0,8,03,00,06,00,00,00,00,00,
637852502,02C13428,true,Rx,0,8,40,00,58,80,6C,00,20,00,
637853614,02E10DF4,true,Rx,0,8,40,A9,20,A0,90,30,08,10,
637859651,0140044A,true,Rx,0,8,40,00,00,08,00,00,00,00,
637860793,0261300A,true,Rx,0,8,00,00,00,27,80,00,00,C0,
637866349,01213FFC,true,Rx,0,8,CC,00,4D,00,E0,01,88,00,
637867522,0240102A,true,Rx,0,8,01,00,00,00,00,00,00,00,
637870994,01C030A2,true,Rx,0,8,00,5B,40,01,89,01,14,00,
637872148,00613DF8,true,Rx,0,8,41,00,06,00,00,00,00,00,
637873331,01800028,true,Rx,0,8,40,00,78,00,00,00,00,00,
637874466,02A03028,true,Rx,0,8,00,90,94,11,10,2B,80,00,
637877664,02001022,true,Rx,0,8,80,00,00,01,35,90,10,43,
637878804,0280142A,true,Rx,0,8,C0,50,00,20,07,00,00,00,
637887244,01E01266,true,Rx,0,8,C0,00,02,00,00,00,40,00,
637890214,0261300A,true,Rx,0,8,40,00,00,27,80,00,00,C0,
637891398,00613DF8,true,Rx,0,8,83,00,06,00,00,00,00,00,
637892549,01213FFC,true,Rx,0,8,0C,00,4D,00,F0,01,88,00,
637899647,0140044A,true,Rx,0,8,80,00,00,08,00,00,00,00,
637901820,0240102A,true,Rx,0,8,41,00,00,00,00,00,00,00,
637905147,00400066,true,Rx,0,8,C0,00,00,02,01,5E,40,7F,
637906411,02A03028,true,Rx,0,8,00,90,C4,19,10,2B,00,00,
637907523,02C13428,true,Rx,0,8,80,00,58,80,6C,00,20,00,
637908668,0280142A,true,Rx,0,8,00,50,00,28,07,00,00,00,
637909792,02E10DF4,true,Rx,0,8,80,A9,20,A0,90,30,08,10,
637910978,03200008,true,Rx,0,8,00,00,00,00,00,80,00,00,
637912134,00613DF8,true,Rx,0,8,C1,00,06,00,00,00,00,00,
637913316,01800028,true,Rx,0,8,80,00,78,00,00,00,00,00,
637916220,01C030A2,true,Rx,0,8,40,5B,40,01,89,01,14,00,
637917362,01213FFC,true,Rx,0,8,4C,00,4D,00,E0,41,88,00,
637920430,0261300A,true,Rx,0,8,80,00,00,27,80,00,00,C0,
637922797,02001022,true,Rx,0,8,C0,00,00,01,35,90,10,43,
637931384,00613DF8,true,Rx,0,8,03,00,06,00,00,00,00,00,
637932556,01E01266,true,Rx,0,8,00,00,02,00,00,00,40,00,
637936829,0240102A,true,Rx,0,8,81,00,00,00,00,00,00,00,
637937980,0280142A,true,Rx,0,8,40,10,00,20,07,00,00,00,
637939617,0140044A,true,Rx,0,8,C0,00,00,18,00,00,00,00,
637941399,01213FFC,true,Rx,0,8,8C,00,4D,00,F0,01,88,00,
637942534,02A03028,true,Rx,0,8,00,90,84,11,10,2B,00,00,
637950469,0261300A,true,Rx,0,8,C0,00,00,27,80,00,00,C0,
637951630,00613DF8,true,Rx,0,8,41,00,06,00,00,00,00,00,
637952813,01800028,true,Rx,0,8,C0,00,78,00,00,00,00,00,
637953958,0340024C,true,Rx,0,8,00,00,70,00,0C,96,00,00,
637960868,01C030A2,true,Rx,0,8,80,5B,40,01,89,01,14,00,
637962020,01613FFC,true,Rx,0,8,11,05,05,05,01,01,01,05,
637963141,02C13428,true,Rx,0,8,C0,00,58,80,6C,00,20,00,
637964267,02E10DF4,true,Rx,0,8,C0,A9,00,20,90,30,08,10,
637966347,01213FFC,true,Rx,0,8,CC,00,4D,00,F0,01,88,00,
637967787,02001022,true,Rx,0,8,00,00,00,01,35,90,10,43,
637968923,0280142A,true,Rx,0,8,80,50,00,20,07,00,00,00,
637971389,00613DF8,true,Rx,0,8,83,00,06,00,00,00,00,00,
637972550,0240102A,true,Rx,0,8,C0,00,00,00,00,00,00,00,
637976472,02A03028,true,Rx,0,8,00,90,84,11,10,2B,00,00,
637977644,01E01266,true,Rx,0,8,40,00,02,00,00,00,40,00,
637978764,03A00002,true,Rx,0,8,40,00,00,04,07,04,98,5E,
637979941,0140044A,true,Rx,0,8,00,00,00,08,00,00,00,00,
637981095,00400066,true,Rx,0,8,00,00,00,03,01,5E,40,7F,
637982220,0261300A,true,Rx,0,8,00,00,00,27,80,00,00,C0,
637991420,00613DF8,true,Rx,0,8,C1,00,06,00,00,00,00,00,
637992572,01213FFC,true,Rx,0,8,0C,00,4D,00,E0,01,88,00,
637993785,01800028,true,Rx,0,8,00,00,78,00,00,00,00,00,
637997803,0280142A,true,Rx,0,8,C0,50,00,20,07,00,00,00,
638006143,01C030A2,true,Rx,0,8,C0,5B,40,01,89,01,14,00,
638007315,0240102A,true,Rx,0,8,01,00,00,00,00,00,00,00,
638010736,0261300A,true,Rx,0,8,40,00,00,27,80,00,00,C0,
638011909,00613DF8,true,Rx,0,8,03,00,06,00,00,00,00,00,
638013029,02001022,true,Rx,0,8,40,00,00,01,35,90,10,43,
638014156,02A03028,true,Rx,0,8,00,90,C4,19,10,2B,00,00,
638015341,03200008,true,Rx,0,8,00,00,00,00,00,80,00,00,
638016518,01213FFC,true,Rx,0,8,4C,00,4D,00,F0,41,88,00,
638017650,02C13428,true,Rx,0,8,00,00,58,80,6C,00,20,00,
638018786,02E10DF4,true,Rx,0,8,00,A9,20,A0,90,30,08,10,
638019950,0140044A,true,Rx,0,8,40,00,00,18,00,00,00,00,
638022597,01E01266,true,Rx,0,8,80,00,02,00,00,00,40,00,
638027813,0280142A,true,Rx,0,8,00,10,00,20,07,00,00,00,
638031397,00613DF8,true,Rx,0,8,41,00,06,00,00,00,00,00,
638032580,01800028,true,Rx,0,8,40,00,78,00,00,00,00,00,
638040654,0261300A,true,Rx,0,8,80,00,00,27,80,00,00,C0,
638041796,01213FFC,true,Rx,0,8,8C,00,4D,00,F0,01,88,00,
638042958,0240102A,true,Rx,0,8,41,00,00,00,00,00,00,00,
638046336,02A03028,true,Rx,0,8,00,90,84,11,10,2B,00,00,
638050889,01C030A2,true,Rx,0,8,00,5B,40,01,89,01,14,00,
638052052,00613DF8,true,Rx,0,8,83,00,06,00,00,00,00,00,
638055619,00400066,true,Rx,0,8,40,00,00,04,01,5E,40,7F,
638057667,02001022,true,Rx,0,8,80,00,00,01,35,90,10,43,
638058829,0280142A,true,Rx,0,8,40,50,00,20,07,00,00,00,
638059980,0140044A,true,Rx,0,8,80,00,00,08,00,00,00,00,
638066405,01213FFC,true,Rx,0,8,CC,00,4D,00,E0,01,88,00,
638067567,01E01266,true,Rx,0,8,C0,00,02,00,00,00,40,00,
638071061,0261300A,true,Rx,0,8,C0,00,00,27,80,00,00,C0,
638072213,00613DF8,true,Rx,0,8,C1,00,06,00,00,00,00,00,
638073396,01800028,true,Rx,0,8,80,00,78,00,00,00,00,00,
638074510,02C13428,true,Rx,0,8,40,00,58,80,6C,00,20,00,
638075634,02E10DF4,true,Rx,0,8,40,A9,00,20,90,30,08,10,
638076871,0240102A,true,Rx,0,8,80,00,00,00,00,00,00,00,
638081348,02A03028,true,Rx,0,8,00,90,84,11,10,2B,00,00,
638087800,0280142A,true,Rx,0,8,81,50,00,20,07,00,00,00,
638091436,00613DF8,true,Rx,0,8,03,00,06,00,00,00,00,00,
638092578,01213FFC,true,Rx,0,8,0C,00,4D,00,F0,01,88,00,
638096260,01C030A2,true,Rx,0,8,40,5B,40,01,89,01,14,00,
638099646,0140044A,true,Rx,0,8,C0,00,00,08,00,00,00,00,
638100911,0261300A,true,Rx,0,8,00,00,00,27,80,00,00,C0,
638102681,02001022,true,Rx,0,8,C0,00,00,01,35,90,10,43,
638111763,00613DF8,true,Rx,0,8,41,00,06,00,00,00,00,00,
638112944,01800028,true,Rx,0,8,C0,00,78,00,00,00,00,00,
638114108,01E01266,true,Rx,0,8,00,00,02,00,00,00,40,00,
638115273,0240102A,true,Rx,0,8,C1,00,00,00,00,00,00,00,
638116397,03801028,true,Rx,0,8,8C,00,20,08,9C,43,00,00,
638117542,01213FFC,true,Rx,0,8,4C,00,4D,00,E0,41,88,00,
638118676,0280142A,true,Rx,0,8,C0,10,00,28,07,00,00,00,
638119820,02A03028,true,Rx,0,8,00,10,54,19,10,2B,80,00,
638120995,03200008,true,Rx,0,8,00,00,00,00,00,80,00,00,
638126356,02C13428,true,Rx,0,8,80,00,58,80,6C,00,20,00,
638127476,02E10DF4,true,Rx,0,8,80,A9,20,A0,90,30,08,10,
638131116,00400066,true,Rx,0,8,80,00,00,05,01,5E,40,7F,
638132267,00613DF8,true,Rx,0,8,83,00,06,00,00,00,00,00,
638133410,0261300A,true,Rx,0,8,40,00,00,27,80,00,00,C0,
638134544,0340024C,true,Rx,0,8,40,00,60,00,0C,96,00,00,
638139618,0140044A,true,Rx,0,8,00,00,00,18,00,00,00,00,
638140883,01C030A2,true,Rx,0,8,80,5B,40,01,89,01,14,00,
638142014,01213FFC,true,Rx,0,8,8C,00,4D,00,F0,01,88,00,
638146820,0240102A,true,Rx,0,8,03,00,00,00,00,00,00,00,
638147962,02001022,true,Rx,0,8,00,00,00,01,35,90,10,43,
638149104,0280142A,true,Rx,0,8,00,50,00,20,07,00,00,00,
638151430,00613DF8,true,Rx,0,8,C1,00,06,00,00,00,00,00,
638152648,01800028,true,Rx,0,8,00,00,78,00,00,00,00,00,
638153781,02A03028,true,Rx,0,8,00,90,84,11,10,2B,00,00,
638157379,01E01266,true,Rx,0,8,40,00,02,00,00,00,40,00,
638161355,0261300A,true,Rx,0,8,80,00,00,27,80,00,00,C0,
638166307,01213FFC,true,Rx,0,8,CC,00,4D,00,F0,01,88,00,
638171373,00613DF8,true,Rx,0,8,03,00,06,00,00,00,00,00,
638177796,0280142A,true,Rx,0,8,40,50,00,20,07,00,00,00,
638179588,0140044A,true,Rx,0,8,40,00,00,08,00,00,00,00,
638181369,02C13428,true,Rx,0,8,C0,00,58,80,6C,00,20,00,
638182532,0240102A,true,Rx,0,8,40,00,00,00,00,00,00,00,
638183646,02E10DF4,true,Rx,0,8,C0,A9,00,20,90,30,08,10,
638186204,01C030A2,true,Rx,0,8,C0,5B,40,01,89,01,14,00,
638187335,02A03028,true,Rx,0,8,00,90,84,11,10,2B,00,00,
638188477,03C0002A,true,Rx,0,8,00,00,30,C0,2D,00,1F,00,
638191452,0261300A,true,Rx,0,8,C0,00,00,27,80,00,00,C0,
638192604,00613DF8,true,Rx,0,8,41,00,06,00,00,00,00,00,
638193749,01213FFC,true,Rx,0,8,0C,00,4D,00,E0,01,88,00,
638194934,01800028,true,Rx,0,8,40,00,78,00,00,00,00,00,
638196069,02001022,true,Rx,0,8,40,00,00,01,35,90,10,43,
638202483,01E01266,true,Rx,0,8,80,00,02,00,00,00,40,00,
638206386,00400066,true,Rx,0,8,C0,00,00,06,01,5E,40,7F,
638207796,0280142A,true,Rx,0,8,80,10,00,20,07,00,00,00,
638211467,00613DF8,true,Rx,0,8,83,00,06,00,00,00,00,00,
638216512,01213FFC,true,Rx,0,8,4C,00,4D,00,F0,41,88,00,
638217676,0240102A,true,Rx,0,8,81,00,00,00,00,00,00,00,
638219630,0140044A,true,Rx,0,8,80,00,00,18,00,00,00,00,
638221339,02A03028,true,Rx,0,8,00,90,C4,19,10,2B,00,00,
638222476,0261300A,true,Rx,0,8,00,00,00,27,80,00,00,C0,
638223660,03200008,true,Rx,0,8,00,00,00,00,00,80,00,00,
638230897,01C030A2,true,Rx,0,8,00,5B,40,01,89,01,14,00,
638232058,00613DF8,true,Rx,0,8,C1,00,06,00,00,00,00,00,
638233232,01800028,true,Rx,0,8,80,00,78,00,00,00,00,00,
638236588,02C13428,true,Rx,0,8,00,00,58,80,6C,00,20,00,
638237730,02001022,true,Rx,0,8,80,00,00,01,35,90,10,43,
638238875,0280142A,true,Rx,0,8,C0,50,00,20,07,00,00,00,
638240009,02E10DF4,true,Rx,0,8,00,A9,20,A0,90,30,08,10,
638241397,01213FFC,true,Rx,0,8,8C,00,4D,00,F0,01,88,00,
638242533,01613FFC,true,Rx,0,8,16,01,43,04,01,02,01,01,
638247358,01E01266,true,Rx,0,8,C0,00,02,00,00,00,40,00,
638251365,00613DF8,true,Rx,0,8,03,00,06,00,00,00,00,00,
638252517,0240102A,true,Rx,0,8,C1,00,00,00,00,00,00,00,
638253658,0261300A,true,Rx,0,8,40,00,00,27,80,00,00,C0,
638256428,02A03028,true,Rx,0,8,00,90,84,11,10,2B,00,00,
638259631,0140044A,true,Rx,0,8,C0,00,00,08,00,00,00,00,
638266344,01213FFC,true,Rx,0,8,CC,00,4D,00,E0,01,88,00,
638267773,0280142A,true,Rx,0,8,00,50,00,20,07,00,00,00,
638271384,00613DF8,true,Rx,0,8,41,00,06,00,00,00,00,00,
638272566,01800028,true,Rx,0,8,C0,00,78,00,00,00,00,00,
638276186,01C030A2,true,Rx,0,8,40,5B,40,01,89,01,14,00,
638279580,04000002,true,Rx,0,8,00,00,01,00,F4,00,00,4E,
638282084,00400066,true,Rx,0,8,00,00,00,07,01,5E,40,7F,
638283217,02001022,true,Rx,0,8,C0,00,00,01,35,90,10,43,
638284358,0261300A,true,Rx,0,8,80,00,00,27,80,00,00,C0,
638286767,0240102A,true,Rx,0,8,01,00,00,00,00,00,00,00,
638291420,00613DF8,true,Rx,0,8,83,00,06,00,00,00,00,00,
638292571,01213FFC,true,Rx,0,8,0C,00,4D,00,F0,01,88,00,
638293744,01E01266,true,Rx,0,8,00,00,06,00,00,00,40,00,
638294879,02A03028,true,Rx,0,8,00,90,84,11,10,2B,00,00,
638296002,02C13428,true,Rx,0,8,40,00,58,80,6C,00,20,00,
638297127,02E10DF4,true,Rx,0,8,40,A9,00,20,90,30,08,10,
638298260,0280142A,true,Rx,0,8,40,10,00,28,07,00,00,00,
638299679,0140044A,true,Rx,0,8,00,00,00,08,00,00,00,00,
638311356,00613DF8,true,Rx,0,8,C1,00,06,00,00,00,00,00,
638312569,01800028,true,Rx,0,8,00,00,78,00,00,00,00,00,
638313700,0261300A,true,Rx,0,8,C0,00,00,27,80,00,00,C0,
638314856,0340024C,true,Rx,0,8,80,00,60,00,04,96,00,00,
638316423,01213FFC,true,Rx,0,8,4C,00,4D,00,E0,41,88,00,
638321004,01C030A2,true,Rx,0,8,80,5B,40,01,89,01,14,00,
638322158,0240102A,true,Rx,0,8,40,00,00,00,00,00,00,00,
638326348,02A03028,true,Rx,0,8,00,90,C4,19,10,2B,00,00,
638327531,03200008,true,Rx,0,8,00,00,00,00,00,80,00,00,
638328662,02001022,true,Rx,0,8,00,00,00,01,35,90,10,43,
638329808,0280142A,true,Rx,0,8,80,50,00,20,07,00,00,00,
638331344,00613DF8,true,Rx,0,8,03,00,06,00,00,00,00,00,
638337334,01E01266,true,Rx,0,8,40,00,02,00,00,00,40,00,
638339589,0140044A,true,Rx,0,8,40,00,00,18,00,00,00,00,
638341362,01213FFC,true,Rx,0,8,8C,00,4D,00,F0,01,88,00,
638342503,0261300A,true,Rx,0,8,00,00,00,27,80,00,00,C0,
638346330,02C13428,true,Rx,0,8,80,00,58,80,6C,00,20,00,
638347451,02E10DF4,true,Rx,0,8,80,A9,20,A0,90,30,08,10,
638351383,00613DF8,true,Rx,0,8,41,00,06,00,00,00,00,00,
638352564,01800028,true,Rx,0,8,40,00,78,00,00,00,00,00,
638356775,0240102A,true,Rx,0,8,81,00,00,00,00,00,00,00,
638357916,00400066,true,Rx,0,8,40,00,00,00,01,5E,40,7F,
638359058,0280142A,true,Rx,0,8,C0,50,00,20,07,00,00,00,
638361478,02A03028,true,Rx,0,8,00,90,94,11,10,2B,80,00,
638366162,01C030A2,true,Rx,0,8,C0,5B,40,01,89,01,14,00,
638367303,01213FFC,true,Rx,0,8,CC,00,4D,00,F0,01,88,00,
638371348,00613DF8,true,Rx,0,8,83,00,06,00,00,00,00,00,
638372870,02001022,true,Rx,0,8,40,00,00,01,35,90,10,43,
638374001,0261300A,true,Rx,0,8,40,00,00,27,80,00,00,C0,
638379575,0140044A,true,Rx,0,8,80,00,00,08,00,00,00,00,
638382494,01E01266,true,Rx,0,8,80,00,02,00,00,00,40,00,
638387767,0280142A,true,Rx,0,8,00,10,00,20,07,00,00,00,
638391412,00613DF8,true,Rx,0,8,C1,00,06,00,00,00,00,00,
638392553,01213FFC,true,Rx,0,8,0C,00,4D,00,E0,01,88,00,
638393726,01800028,true,Rx,0,8,80,00,78,00,00,00,00,00,
638394891,0240102A,true,Rx,0,8,C1,00,00,00,00,00,00,00,
638396025,03A00002,true,Rx,0,8,80,00,00,04,07,04,98,5E,
638397151,02A03028,true,Rx,0,8,00,10,04,11,10,2B,00,00,
638401366,02C13428,true,Rx,0,8,C0,00,58,80,6C,00,20,00,
638402486,02E10DF4,true,Rx,0,8,C0,A9,00,20,90,30,08,10,
638403618,0261300A,true,Rx,0,8,80,00,00,27,80,00,00,C0,
638410909,01C030A2,true,Rx,0,8,00,5B,40,01,89,01,14,00,
638412072,00613DF8,true,Rx,0,8,03,00,06,00,00,00,00,00,
638416542,01213FFC,true,Rx,0,8,4C,00,4D,00,F0,41,88,00,
638417734,02001022,true,Rx,0,8,80,00,00,01,35,90,10,43,
638418886,0280142A,true,Rx,0,8,40,50,00,20,07,00,00,00,
638420052,0140044A,true,Rx,0,8,C0,00,00,18,00,00,00,00,
638426743,0240102A,true,Rx,0,8,00,00,00,00,00,00,00,00,
638427915,01E01266,true,Rx,0,8,C0,00,02,00,00,00,40,00,
638431390,00613DF8,true,Rx,0,8,41,00,06,00,00,00,00,00,
638432583,01800028,true,Rx,0,8,C0,00,78,00,00,00,00,00,
638433735,00400066,true,Rx,0,8,80,00,00,01,01,5E,40,7F,
638434859,0261300A,true,Rx,0,8,C0,00,00,27,80,00,00,C0,
638435983,02A03028,true,Rx,0,8,00,90,C4,19,10,2B,00,00,
638437160,03200008,true,Rx,0,8,00,00,00,00,00,80,00,00,
638438294,03801028,true,Rx,0,8,CC,00,20,08,9C,43,00,00,
638441321,01213FFC,true,Rx,0,8,8C,00,4D,00,F0,01,88,00,
638447751,0280142A,true,Rx,0,8,80,50,00,20,07,00,00,00,
638451355,00613DF8,true,Rx,0,8,83,00,06,00,00,00,00,00,
638456192,01C030A2,true,Rx,0,8,40,5B,40,01,89,01,14,00,
638457323,02C13428,true,Rx,0,8,00,00,58,80,6C,00,20,00,
638458454,02E10DF4,true,Rx,0,8,00,A9,20,A0,90,30,08,10,
638459631,0140044A,true,Rx,0,8,00,00,00,08,00,00,00,00,
638461804,0240102A,true,Rx,0,8,41,00,00,00,00,00,00,00,
638462936,02001022,true,Rx,0,8,C0,00,00,01,35,90,10,43,
638464070,0261300A,true,Rx,0,8,00,00,00,27,80,00,00,C0,
638466370,01213FFC,true,Rx,0,8,CC,00,4D,00,E0,01,88,00,
638467501,02A03028,true,Rx,0,8,00,90,84,11,10,2B,00,00,
638471379,00613DF8,true,Rx,0,8,C1,00,06,00,00,00,00,00,
638472592,01800028,true,Rx,0,8,00,00,78,00,00,00,00,00,
638473765,01E01266,true,Rx,0,8,00,00,02,00,00,00,40,00,
638477752,0280142A,true,Rx,0,8,C0,10,00,20,07,00,00,00,
638491355,00613DF8,true,Rx,0,8,03,00,06,00,00,00,00,00,
638492506,01213FFC,true,Rx,0,8,0C,00,4D,00,F0,01,88,00,
638493638,0261300A,true,Rx,0,8,40,00,00,27,80,00,00,C0,
638494762,0340024C,true,Rx,0,8,C1,00,70,01,0C,96,00,00,
638496813,0240102A,true,Rx,0,8,83,00,00,00,00,00,00,00,
638499606,0140044A,true,Rx,0,8,40,00,00,08,00,00,00,00,
638500901,01C030A2,true,Rx,0,8,80,5B,40,01,89,01,14,00,
638502023,02A03028,true,Rx,0,8,00,90,C4,19,10,2B,00,00,
638507639,02001022,true,Rx,0,8,00,00,00,01,35,90,10,43,
638508781,0280142A,true,Rx,0,8,00,50,00,28,07,00,00,00,
638509922,00400066,true,Rx,0,8,C0,00,00,02,01,5E,40,7F,
638511429,00613DF8,true,Rx,0,8,41,00,06,00,00,00,00,00,
638512614,01800028,true,Rx,0,8,40,00,78,00,00,00,00,00,
638513734,02C13428,true,Rx,0,8,40,00,58,80,6C,00,20,00,
638514840,02E10DF4,true,Rx,0,8,40,A9,20,A0,90,30,08,10,
638516632,01213FFC,true,Rx,0,8,4C,00,4D,00,E0,41,88,00,
638517805,01E01266,true,Rx,0,8,40,00,02,00,00,00,40,00,
638521328,01613FFC,true,Rx,0,8,01,0F,B0,55,D2,3C,00,09,
638523953,0261300A,true,Rx,0,8,80,00,00,27,80,00,00,C0,
638531350,00613DF8,true,Rx,0,8,83,00,06,00,00,00,00,00,
638532501,0240102A,true,Rx,0,8,C0,00,00,00,00,00,00,00,
638536525,02A03028,true,Rx,0,8,00,90,84,11,10,2B,00,00,
638537707,03200008,true,Rx,0,8,00,00,00,00,00,80,00,00,
638538859,0280142A,true,Rx,0,8,40,50,00,20,07,00,00,00,
638540015,0140044A,true,Rx,0,8,80,00,00,18,00,00,00,00,
638541345,01213FFC,true,Rx,0,8,8C,00,4D,00,F0,01,88,00,
638546257,01C030A2,true,Rx,0,8,C0,5B,40,01,89,01,14,00,
638551363,00613DF8,true,Rx,0,8,C1,00,06,00,00,00,00,00,
638552536,01800028,true,Rx,0,8,80,00,78,00,00,00,00,00,
638553666,02001022,true,Rx,0,8,40,00,00,01,35,90,10,43,
638554792,0261300A,true,Rx,0,8,C0,00,00,27,80,00,00,C0,
638562519,01E01266,true,Rx,0,8,80,00,02,00,00,00,40,00,
638566330,01213FFC,true,Rx,0,8,CC,00,4D,00,F0,01,88,00,
638567511,0240102A,true,Rx,0,8,01,00,00,00,00,00,00,00,
638568664,0280142A,true,Rx,0,8,80,10,00,20,07,00,00,00,
638569778,02C13428,true,Rx,0,8,80,00,58,80,6C,00,20,00,
638570912,02E10DF4,true,Rx,0,8,80,A9,00,20,90,30,08,10,
638572078,00613DF8,true,Rx,0,8,03,00,06,00,00,00,00,00,
638573213,02A03028,true,Rx,0,8,00,90,84,11,10,2B,00,00,
638579585,0140044A,true,Rx,0,8,C0,00,00,08,00,00,00,00,
638584194,00400066,true,Rx,0,8,00,00,00,03,01,5E,40,7F,
638585335,0261300A,true,Rx,0,8,00,00,00,27,80,00,00,C0,
638590923,01C030A2,true,Rx,0,8,00,5B,40,01,89,01,14,00,
638592084,00613DF8,true,Rx,0,8,41,00,06,00,00,00,00,00,
638593228,01213FFC,true,Rx,0,8,0C,00,4D,00,E0,01,88,00,
638594435,01800028,true,Rx,0,8,C0,00,78,00,00,00,00,00,
638596774,03C0002A,true,Rx,0,8,00,00,30,C0,2D,00,9F,00,
638597916,02001022,true,Rx,0,8,80,00,00,01,35,90,10,43,
638599057,0280142A,true,Rx,0,8,C0,50,00,20,07,00,00,00,
638601724,0240102A,true,Rx,0,8,41,00,00,00,00,00,00,00,
638606356,02A03028,true,Rx,0,8,00,90,C4,19,10,2B,00,00,
638607528,01E01266,true,Rx,0,8,C0,00,02,00,00,00,40,00,
638611344,00613DF8,true,Rx,0,8,83,00,06,00,00,00,00,00,
638614336,0261300A,true,Rx,0,8,40,00,00,27,80,00,00,C0,
638616374,01213FFC,true,Rx,0,8,4C,00,4D,00,F0,41,88,00,
638619624,0140044A,true,Rx,0,8,00,00,00,18,00,00,00,00,
638621291,02C13428,true,Rx,0,8,C0,00,58,80,6C,00,20,00,
638622402,02E10DF4,true,Rx,0,8,C0,A9,20,A0,90,30,08,10,
638627727,0280142A,true,Rx,0,8,00,50,00,20,07,00,00,00,
638631363,00613DF8,true,Rx,0,8,C1,00,06,00,00,00,00,00,
638632577,01800028,true,Rx,0,8,00,00,78,00,00,00,00,00,
638636207,01C030A2,true,Rx,0,8,40,5B,40,01,89,01,14,00,
638637368,0240102A,true,Rx,0,8,81,00,00,00,00,00,00,00,
638641349,01213FFC,true,Rx,0,8,8C,00,4D,00,F0,01,88,00,
638642481,02A03028,true,Rx,0,8,00,90,94,11,10,2B,80,00,
638643601,02001022,true,Rx,0,8,C0,00,00,01,35,90,10,43,
638644737,0261300A,true,Rx,0,8,80,00,00,27,80,00,00,C0,
638645921,03200008,true,Rx,0,8,00,00,00,00,00,80,00,00,
638651381,00613DF8,true,Rx,0,8,03,00,06,00,00,00,00,00,
638652543,01E01266,true,Rx,0,8,00,00,02,00,00,00,40,00,
638657727,0280142A,true,Rx,0,8,40,10,00,20,07,00,00,00,
638659353,00400066,true,Rx,0,8,40,00,00,04,01,5E,40,7F,
638660516,0140044A,true,Rx,0,8,40,00,00,08,00,00,00,00,
638666371,01213FFC,true,Rx,0,8,CC,00,4D,00,E0,01,88,00,
638671332,00613DF8,true,Rx,0,8,41,00,06,00,00,00,00,00,
638672515,01800028,true,Rx,0,8,40,00,78,00,00,00,00,00,
638673676,0240102A,true,Rx,0,8,C0,00,00,00,00,00,00,00,
638674802,0261300A,true,Rx,0,8,C0,00,00,27,80,00,00,C0,
638675945,0340024C,true,Rx,0,8,01,00,60,01,0C,96,00,00,
638677070,02A03028,true,Rx,0,8,00,10,04,11,10,2B,00,00,
638678194,02C13428,true,Rx,0,8,00,00,58,80,6C,00,20,00,
638679330,02E10DF4,true,Rx,0,8,00,A9,00,20,90,30,08,10,
638680967,01C030A2,true,Rx,0,8,80,5B,40,01,89,01,14,00,
638687648,02001022,true,Rx,0,8,00,00,00,01,35,90,10,43,
638688788,0280142A,true,Rx,0,8,80,50,00,20,07,00,00,00,
638691393,00613DF8,true,Rx,0,8,83,00,06,00,00,00,00,00,
638692545,01213FFC,true,Rx,0,8,0C,00,4D,00,F0,01,88,00,
638697426,01E01266,true,Rx,0,8,40,00,02,00,00,00,40,00,
638699600,0140044A,true,Rx,0,8,80,00,00,08,00,00,00,00,
638704593,0261300A,true,Rx,0,8,00,00,00,27,80,00,00,C0,
638706712,0240102A,true,Rx,0,8,01,00,00,00,00,00,00,00,
638711425,00613DF8,true,Rx,0,8,C1,00,06,00,00,00,00,00,
638712597,01800028,true,Rx,0,8,80,00,78,00,00,00,00,00,
638713718,02A03028,true,Rx,0,8,00,90,C4,19,10,2B,00,00,
638716580,01213FFC,true,Rx,0,8,4C,00,4D,00,E0,41,88,00,
638717753,0280142A,true,Rx,0,8,C0,50,00,28,07,00,00,00,
638726177,01C030A2,true,Rx,0,8,C0,5B,40,01,89,01,14,00,
638731343,00613DF8,true,Rx,0,8,03,00,06,00,00,00,00,00,
638732465,02C13428,true,Rx,0,8,40,00,58,80,6C,00,20,00,
638733585,02001022,true,Rx,0,8,40,00,00,01,35,90,10,43,
638734721,00400066,true,Rx,0,8,80,00,00,05,01,5E,40,7F,
638735864,0261300A,true,Rx,0,8,40,00,00,27,80,00,00,C0,
638736969,02E10DF4,true,Rx,0,8,40,A9,20,A0,90,30,08,10,
638739556,0140044A,true,Rx,0,8,C0,00,00,18,00,00,00,00,
638740698,04000002,true,Rx,0,8,40,00,01,00,B4,00,00,4E,
638741839,01213FFC,true,Rx,0,8,8C,00,4D,00,F0,01,88,00,
638743005,01E01266,true,Rx,0,8,80,00,02,00,00,00,40,00,
638744171,0240102A,true,Rx,0,8,41,00,00,00,00,00,00,00,
638746404,02A03028,true,Rx,0,8,00,90,84,11,10,2B,00,00,
638747591,03200008,true,Rx,0,8,00,00,00,00,00,80,00,00,
638748734,0280142A,true,Rx,0,8,00,10,00,20,07,00,00,00,
638751370,00613DF8,true,Rx,0,8,41,00,06,00,00,00,00,00,
638752553,01800028,true,Rx,0,8,C0,00,78,00,00,00,00,00,
638753684,03801028,true,Rx,0,8,04,00,20,08,DC,43,00,00,
638764624,0261300A,true,Rx,0,8,80,00,00,27,80,00,00,C0,
638766250,01213FFC,true,Rx,0,8,CC,00,4D,00,F0,01,88,00,
638771041,01C030A2,true,Rx,0,8,00,5B,40,01,89,01,14,00,
638772195,00613DF8,true,Rx,0,8,83,00,06,00,00,00,00,00,
638776715,0240102A,true,Rx,0,8,80,00,00,00,00,00,00,00,
638777857,02001022,true,Rx,0,8,80,00,00,01,35,90,10,43,
638779018,0280142A,true,Rx,0,8,40,50,00,20,07,00,00,00,
638780186,0140044A,true,Rx,0,8,00,00,00,08,00,00,00,00,
638781392,02A03028,true,Rx,0,8,00,90,84,11,10,2B,00,00,
638786365,02C13428,true,Rx,0,8,80,00,58,80,6C,00,20,00,
638787517,01E01266,true,Rx,0,8,C0,00,06,00,00,00,40,00,
638788648,02E10DF4,true,Rx,0,8,80,A9,00,20,90,30,08,10,
638791388,00613DF8,true,Rx,0,8,C1,00,06,00,00,00,00,00,
638792539,01213FFC,true,Rx,0,8,0C,00,4D,00,E0,01,88,00,
638793747,01800028,true,Rx,0,8,00,00,78,00,00,00,00,00,
638794880,0261300A,true,Rx,0,8,C0,00,00,27,80,00,00,C0,
638801317,01613FFC,true,Rx,0,8,05,00,3C,9A,00,00,07,A8,
638807356,03A00002,true,Rx,0,8,C0,00,00,04,07,04,98,5E,
638808498,0280142A,true,Rx,0,8,80,50,00,20,07,00,00,00,
638809783,00400066,true,Rx,0,8,C0,00,00,06,01,5E,40,7F,
638811393,00613DF8,true,Rx,0,8,03,00,06,00,00,00,00,00,
638812556,0240102A,true,Rx,0,8,C1,00,00,00,00,00,00,00,
638816208,01C030A2,true,Rx,0,8,40,5B,40,01,89,01,14,00,
638817348,01213FFC,true,Rx,0,8,4C,00,4D,00,F0,41,88,00,
638818470,02A03028,true,Rx,0,8,00,90,C4,19,10,2B,00,00,
638819625,0140044A,true,Rx,0,8,40,00,00,18,00,00,00,00,
638822823,02001022,true,Rx,0,8,C0,00,00,01,35,90,10,43,
638824757,0261300A,true,Rx,0,8,00,00,00,27,80,00,00,C0,
638831386,00613DF8,true,Rx,0,8,41,00,06,00,00,00,00,00,
638832568,01800028,true,Rx,0,8,40,00,78,00,00,00,00,00,
638833741,01E01266,true,Rx,0,8,00,00,02,00,00,00,40,00,
638837708,0280142A,true,Rx,0,8,C0,10,00,20,07,00,00,00,
638841364,01213FFC,true,Rx,0,8,8C,00,4D,00,F0,01,88,00,
638842484,02C13428,true,Rx,0,8,C0,00,58,80,6C,00,20,00,
638843606,02E10DF4,true,Rx,0,8,C0,A9,20,A0,90,30,08,10,
638846789,0240102A,true,Rx,0,8,03,00,00,00,00,00,00,00,
638851333,00613DF8,true,Rx,0,8,83,00,06,00,00,00,00,00,
638852454,02A03028,true,Rx,0,8,00,90,94,11,10,2B,80,00,
638853637,03200008,true,Rx,0,8,00,00,00,00,00,80,00,00,
638854781,0340024C,true,Rx,0,8,40,00,70,00,0C,96,00,00,
638855915,0261300A,true,Rx,0,8,40,00,00,27,80,00,00,C0,
638859582,0140044A,true,Rx,0,8,80,00,00,08,00,00,00,00,
638860919,01C030A2,true,Rx,0,8,80,5B,40,01,89,01,14,00,
638866343,01213FFC,true,Rx,0,8,CC,00,4D,00,E0,01,88,00,
638867700,0280142A,true,Rx,0,8,00,50,00,20,07,00,00,00,
638868831,02001022,true,Rx,0,8,00,00,00,01,35,90,10,43,
638871375,00613DF8,true,Rx,0,8,C1,00,06,00,00,00,00,00,
638872557,01800028,true,Rx,0,8,80,00,78,00,00,00,00,00,
638877414,01E01266,true,Rx,0,8,40,00,02,00,00,00,40,00,
638881669,0240102A,true,Rx,0,8,40,00,00,00,00,00,00,00,
638885023,00400066,true,Rx,0,8,00,00,00,07,01,5E,40,7F,
638886156,0261300A,true,Rx,0,8,80,00,00,27,80,00,00,C0,
638887286,02A03028,true,Rx,0,8,00,90,84,11,10,2B,00,00,
638891503,00613DF8,true,Rx,0,8,03,00,06,00,00,00,00,00,
638892654,01213FFC,true,Rx,0,8,0C,00,4D,00,F0,01,88,00,
638896275,02C13428,true,Rx,0,8,00,00,58,80,6C,00,20,00,
638897407,02E10DF4,true,Rx,0,8,00,A9,00,20,90,30,08,10,
638898547,0280142A,true,Rx,0,8,40,50,00,28,07,00,00,00,
638899714,0140044A,true,Rx,0,8,C0,00,00,08,00,00,00,00,
638906188,01C030A2,true,Rx,0,8,C0,5B,40,01,89,01,14,00,
638911355,00613DF8,true,Rx,0,8,41,00,06,00,00,00,00,00,
638912537,01800028,true,Rx,0,8,C0,00,78,00,00,00,00,00,
638913669,02001022,true,Rx,0,8,40,00,00,01,35,90,10,43,
638915207,0261300A,true,Rx,0,8,C0,00,00,27,80,00,00,C0,
638916423,01213FFC,true,Rx,0,8,4C,00,4D,00,E0,41,88,00,
638917586,0240102A,true,Rx,0,8,81,00,00,00,00,00,00,00,
638921326,02A03028,true,Rx,0,8,00,90,C4,19,10,2B,00,00,
638922725,01E01266,true,Rx,0,8,80,00,02,00,00,00,40,00,
638927692,0280142A,true,Rx,0,8,80,10,00,20,07,00,00,00,
638931329,00613DF8,true,Rx,0,8,83,00,06,00,00,00,00,00,
638939566,0140044A,true,Rx,0,8,00,00,00,18,00,00,00,00,
638941294,01213FFC,true,Rx,0,8,8C,00,4D,00,F0,01,88,00,
638945279,0261300A,true,Rx,0,8,00,00,00,27,80,00,00,C0,
638950942,01C030A2,true,Rx,0,8,00,5B,40,01,89,01,14,00,
638952095,00613DF8,true,Rx,0,8,C1,00,06,00,00,00,00,00,
638953319,01800028,true,Rx,0,8,00,00,78,00,00,00,00,00,
638954475,0240102A,true,Rx,0,8,C1,00,00,00,00,00,00,00,
638955598,02C13428,true,Rx,0,8,40,00,58,80,6C,00,20,00,
638956703,02E10DF4,true,Rx,0,8,40,A9,20,A0,90,30,08,10,
638957845,02001022,true,Rx,0,8,80,00,00,01,35,90,10,43,
638958992,0280142A,true,Rx,0,8,C0,50,00,20,07,00,00,00,
638960125,02A03028,true,Rx,0,8,00,10,04,11,10,2B,00,00,
638961268,00400066,true,Rx,0,8,40,00,00,00,01,5E,40,7F,
638962454,03200008,true,Rx,0,8,00,00,00,00,00,80,00,00,
638966440,01213FFC,true,Rx,0,8,CC,00,4D,00,F0,01,88,00,
638967601,01E01266,true,Rx,0,8,C0,00,02,00,00,00,40,00,
638971334,00613DF8,true,Rx,0,8,03,00,06,00,00,00,00,00,
638975351,0261300A,true,Rx,0,8,40,00,00,27,80,00,00,C0,
638979535,0140044A,true,Rx,0,8,40,00,00,08,00,00,00,00,
638986681,0240102A,true,Rx,0,8,01,00,00,00,00,00,00,00,
638987832,0280142A,true,Rx,0,8,00,50,00,20,07,00,00,00,
638991411,00613DF8,true,Rx,0,8,41,00,06,00,00,00,00,00,
638992553,01213FFC,true,Rx,0,8,0C,00,4D,00,E0,01,88,00,
638993735,01800028,true,Rx,0,8,40,00,78,00,00,00,00,00,
638994870,02A03028,true,Rx,0,8,00,90,84,11,10,2B,00,00,
638996302,01C030A2,true,Rx,0,8,40,5B,40,01,89,01,14,00,
639002717,02001022,true,Rx,0,8,C0,00,00,01,35,90,10,43,
639005720,0261300A,true,Rx,0,8,80,00,00,27,80,00,00,C0,
639006840,02C13428,true,Rx,0,8,80,00,58,80,6C,00,20,00,
639007962,02E10DF4,true,Rx,0,8,80,A9,20,A0,90,30,08,10,
639009096,03C0002A,true,Rx,0,8,00,00,30,C0,2D,00,1F,00,
639011570,00613DF8,true,Rx,0,8,83,00,06,00,00,00,00,00,
639012743,01E01266,true,Rx,0,8,00,00,02,00,00,00,40,00,
639016287,01213FFC,true,Rx,0,8,4C,00,4D,00,F0,41,88,00,
639017676,0280142A,true,Rx,0,8,40,10,00,20,07,00,00,00,
639019581,0140044A,true,Rx,0,8,80,00,00,18,00,00,00,00,
639021742,0240102A,true,Rx,0,8,40,00,00,00,00,00,00,00,
639026379,02A03028,true,Rx,0,8,00,90,C4,19,10,2B,00,00,
639031320,00613DF8,true,Rx,0,8,C1,00,06,00,00,00,00,00,
639032503,01800028,true,Rx,0,8,80,00,78,00,00,00,00,00,
639033664,0340024C,true,Rx,0,8,80,00,60,00,04,96,00,00,
639035733,00400066,true,Rx,0,8,80,00,00,01,01,5E,40,7F,
639036857,0261300A,true,Rx,0,8,C0,00,00,27,80,00,00,C0,
639040928,01C030A2,true,Rx,0,8,80,5B,40,01,89,01,14,00,
639042058,01213FFC,true,Rx,0,8,8C,00,4D,00,F0,01,88,00,
639047667,0280142A,true,Rx,0,8,80,50,00,20,07,00,00,00,
639048799,02001022,true,Rx,0,8,00,00,00,01,35,90,10,43,
639051352,00613DF8,true,Rx,0,8,03,00,06,00,00,00,00,00,
639056695,0240102A,true,Rx,0,8,81,00,00,00,00,00,00,00,
639057857,01E01266,true,Rx,0,8,40,00,02,00,00,00,40,00,
639059576,0140044A,true,Rx,0,8,C0,00,00,08,00,00,00,00,
639061336,02A03028,true,Rx,0,8,00,90,84,11,10,2B,00,00,
639062471,02C13428,true,Rx,0,8,C0,00,58,80,6C,00,20,00,
639063583,02E10DF4,true,Rx,0,8,C0,A9,00,20,90,30,08,10,
639064777,03200008,true,Rx,0,8,00,00,00,00,00,80,00,00,
639065912,0261300A,true,Rx,0,8,00,00,00,27,80,00,00,C0,
639067045,01213FFC,true,Rx,0,8,CC,00,4D,00,E0,01,88,00,
639071384,00613DF8,true,Rx,0,8,41,00,06,00,00,00,00,00,
639072568,01800028,true,Rx,0,8,C0,00,78,00,00,00,00,00,
639073708,03801028,true,Rx,0,8,4C,00,20,08,9C,43,00,00,
639077664,0280142A,true,Rx,0,8,C0,50,00,20,07,00,00,00,
639081330,01613FFC,true,Rx,0,8,12,01,01,02,05,02,05,01,
639086271,01C030A2,true,Rx,0,8,C0,5B,40,01,89,01,14,00,
639091365,00613DF8,true,Rx,0,8,83,00,06,00,00,00,00,00,
639092517,01213FFC,true,Rx,0,8,0C,00,4D,00,F0,01,88,00,
639093651,02001022,true,Rx,0,8,40,00,00,01,35,90,10,43,
639094805,0240102A,true,Rx,0,8,C1,00,00,00,00,00,00,00,
639095948,0261300A,true,Rx,0,8,40,00,00,27,80,00,00,C0,
639097084,02A03028,true,Rx,0,8,00,90,84,11,10,2B,00,00,
639099589,0140044A,true,Rx,0,8,00,00,00,08,00,00,00,00,
639102663,01E01266,true,Rx,0,8,80,00,02,00,00,00,40,00,
639107664,0280142A,true,Rx,0,8,01,10,00,28,07,00,00,00,
639110999,00400066,true,Rx,0,8,C0,00,00,02,01,5E,40,7F,
639112151,00613DF8,true,Rx,0,8,C1,00,06,00,00,00,00,00,
639113375,01800028,true,Rx,0,8,00,00,78,00,00,00,00,00,
639116546,01213FFC,true,Rx,0,8,4C,00,4D,00,E0,41,88,00,
639117677,02C13428,true,Rx,0,8,00,00,58,80,6C,00,20,00,
639118813,02E10DF4,true,Rx,0,8,00,A9,20,A0,90,30,08,10,
639126126,0261300A,true,Rx,0,8,80,00,00,27,80,00,00,C0,
639127299,0240102A,true,Rx,0,8,00,00,00,00,00,00,00,00,
639130948,01C030A2,true,Rx,0,8,00,5B,40,01,89,01,14,00,
639132121,00613DF8,true,Rx,0,8,03,00,06,00,00,00,00,00,
639133232,02A03028,true,Rx,0,8,00,90,D4,19,10,2B,80,00,
639137663,0280142A,true,Rx,0,8,40,50,00,20,07,00,00,00,
639138815,02001022,true,Rx,0,8,80,00,00,01,35,90,10,43,
639139977,0140044A,true,Rx,0,8,40,00,00,18,00,00,00,00,
639141350,01213FFC,true,Rx,0,8,8C,00,4D,00,F0,01,88,00,
639147440,01E01266,true,Rx,0,8,C0,00,02,00,00,00,40,00,
639151343,00613DF8,true,Rx,0,8,41,00,06,00,00,00,00,00,
639152526,01800028,true,Rx,0,8,40,00,78,00,00,00,00,00,
639156249,0261300A,true,Rx,0,8,C0,00,00,27,80,00,00,C0,
639161634,0240102A,true,Rx,0,8,41,00,00,00,00,00,00,00,
639166305,01213FFC,true,Rx,0,8,CC,00,4D,00,F0,01,88,00,
639167445,02A03028,true,Rx,0,8,00,90,84,11,10,2B,00,00,
639168588,0280142A,true,Rx,0,8,80,50,00,20,07,00,00,00,
639169773,03200008,true,Rx,0,8,00,00,00,00,00,80,00,00,
639171320,00613DF8,true,Rx,0,8,83,00,06,00,00,00,00,00,
639172442,02C13428,true,Rx,0,8,40,00,58,80,6C,00,20,00,
639173566,02E10DF4,true,Rx,0,8,40,A9,00,20,90,30,08,10,
639176277,01C030A2,true,Rx,0,8,40,5B,40,01,89,01,14,00,
639179527,0140044A,true,Rx,0,8,80,00,00,08,00,00,00,00,
639182726,02001022,true,Rx,0,8,C0,00,00,01,35,90,10,43,
639186391,00400066,true,Rx,0,8,00,00,00,03,01,5E,40,7F,
639187522,0261300A,true,Rx,0,8,00,00,00,27,80,00,00,C0,
639191504,00613DF8,true,Rx,0,8,C1,00,06,00,00,00,00,00,
639192655,01213FFC,true,Rx,0,8,0C,00,4D,00,E0,01,88,00,
639193828,01800028,true,Rx,0,8,80,00,78,00,00,00,00,00,
639194994,01E01266,true,Rx,0,8,00,00,02,00,00,00,40,00,
639196715,0240102A,true,Rx,0,8,83,00,00,00,00,00,00,00,
639197867,0280142A,true,Rx,0,8,C0,10,00,20,07,00,00,00,
639199570,04000002,true,Rx,0,8,80,00,01,00,F4,00,00,4E,
639201393,02A03028,true,Rx,0,8,00,90,84,19,10,2B,00,00,
639211306,00613DF8,true,Rx,0,8,03,00,06,00,00,00,00,00,
639212437,0340024C,true,Rx,0,8,C0,00,60,00,0C,96,00,00,
639216314,01213FFC,true,Rx,0,8,4C,00,4D,00,F0,41,88,00,
639217455,0261300A,true,Rx,0,8,40,00,00,27,80,00,00,C0,
639219566,0140044A,true,Rx,0,8,C0,00,00,18,00,00,00,00,
639221047,01C030A2,true,Rx,0,8,80,5B,40,01,89,01,14,00,
639222662,03A00002,true,Rx,0,8,00,00,00,04,07,04,98,5E,
639226351,02C13428,true,Rx,0,8,80,00,58,80,6C,00,20,00,
639227472,02E10DF4,true,Rx,0,8,80,A9,20,A0,90,30,08,10,
639228603,02001022,true,Rx,0,8,00,00,00,01,35,90,10,43,
639229748,0280142A,true,Rx,0,8,00,50,00,20,07,00,00,00,
639231325,00613DF8,true,Rx,0,8,41,00,06,00,00,00,00,00,
639232508,01800028,true,Rx,0,8,C0,00,78,00,00,00,00,00,
639233673,0240102A,true,Rx,0,8,C0,00,00,00,00,00,00,00,
639236497,02A03028,true,Rx,0,8,00,10,44,11,10,2B,00,00,
639237660,01E01266,true,Rx,0,8,40,00,02,00,00,00,40,00,
639241299,01213FFC,true,Rx,0,8,8C,00,4D,00,F0,01,88,00,
639246902,0261300A,true,Rx,0,8,80,00,00,27,80,00,00,C0,
639251356,00613DF8,true,Rx,0,8,83,00,06,00,00,00,00,00,
639257654,0280142A,true,Rx,0,8,40,50,00,20,07,00,00,00,
639259578,0140044A,true,Rx,0,8,00,00,00,08,00,00,00,00,
639261802,00400066,true,Rx,0,8,40,00,00,04,01,5E,40,7F,
639266204,01C030A2,true,Rx,0,8,C0,5B,40,01,89,01,14,00,
639267346,01213FFC,true,Rx,0,8,CC,00,4D,00,E0,01,88,00,
639268519,0240102A,true,Rx,0,8,01,00,00,00,00,00,00,00,
639271362,00613DF8,true,Rx,0,8,C1,00,06,00,00,00,00,00,
639272575,01800028,true,Rx,0,8,00,00,78,00,00,00,00,00,
639273702,02001022,true,Rx,0,8,40,00,00,01,35,90,10,43,
639274834,02A03028,true,Rx,0,8,00,90,84,11,10,2B,00,00,
639276021,03200008,true,Rx,0,8,00,00,00,00,00,80,00,00,
639277155,0261300A,true,Rx,0,8,C0,00,00,27,80,00,00,C0,
639281291,02C13428,true,Rx,0,8,C0,00,58,80,6C,00,20,00,
639282413,02E10DF4,true,Rx,0,8,C0,A9,00,20,90,30,08,10,
639283595,01E01266,true,Rx,0,8,80,00,06,00,00,00,40,00,
639287644,0280142A,true,Rx,0,8,80,10,00,20,07,00,00,00,
639291682,00613DF8,true,Rx,0,8,03,00,06,00,00,00,00,00,
639292835,01213FFC,true,Rx,0,8,0C,00,4D,00,F0,01,88,00,
639299561,0140044A,true,Rx,0,8,40,00,00,08,00,00,00,00,
639301641,0240102A,true,Rx,0,8,41,00,00,00,00,00,00,00,
639306282,02A03028,true,Rx,0,8,00,90,C4,19,10,2B,00,00,
639307412,0261300A,true,Rx,0,8,00,00,00,27,80,00,00,C0,
639310958,01C030A2,true,Rx,0,8,00,5B,40,01,89,01,14,00,
639312122,00613DF8,true,Rx,0,8,41,00,06,00,00,00,00,00,
639313304,01800028,true,Rx,0,8,40,00,78,00,00,00,00,00,
639316568,01213FFC,true,Rx,0,8,4C,00,4D,00,E0,41,88,00,
639317709,0280142A,true,Rx,0,8,C0,50,00,28,07,00,00,00,
639318854,02001022,true,Rx,0,8,80,00,00,01,35,90,10,43,
639327405,01E01266,true,Rx,0,8,C0,00,02,00,00,00,40,00,
639331310,00613DF8,true,Rx,0,8,83,00,06,00,00,00,00,00,
639336332,02C13428,true,Rx,0,8,00,00,58,80,6C,00,20,00,
639337474,00400066,true,Rx,0,8,80,00,00,05,01,5E,40,7F,
639338636,0240102A,true,Rx,0,8,81,00,00,00,00,00,00,00,
639339792,0140044A,true,Rx,0,8,80,00,00,18,00,00,00,00,
639340925,0261300A,true,Rx,0,8,40,00,00,27,80,00,00,C0,
639342060,01213FFC,true,Rx,0,8,8C,00,4D,00,F0,01,88,00,
639343204,02A03028,true,Rx,0,8,00,90,84,11,10,2B,00,00,
639344340,02E10DF4,true,Rx,0,8,00,A9,20,A0,90,30,08,10,
639347635,0280142A,true,Rx,0,8,00,50,00,20,07,00,00,00,
639351333,00613DF8,true,Rx,0,8,C1,00,06,00,00,00,00,00,
639352515,01800028,true,Rx,0,8,80,00,78,00,00,00,00,00,
639356238,01C030A2,true,Rx,0,8,40,5B,40,01,89,01,14,00,
639361303,01613FFC,true,Rx,0,8,17,01,01,03,02,02,02,02,
639362794,02001022,true,Rx,0,8,C0,00,00,01,35,90,10,43,
639366259,01213FFC,true,Rx,0,8,CC,00,4D,00,F0,01,88,00,
639367391,0261300A,true,Rx,0,8,80,00,00,27,80,00,00,C0,
639371351,00613DF8,true,Rx,0,8,03,00,06,00,00,00,00,00,
639372523,01E01266,true,Rx,0,8,00,00,02,00,00,00,40,00,
639373675,0240102A,true,Rx,0,8,C0,00,00,00,00,00,00,00,
639376548,02A03028,true,Rx,0,8,00,90,94,11,10,2B,80,00,
639377699,0280142A,true,Rx,0,8,40,10,00,20,07,00,00,00,
639378876,03200008,true,Rx,0,8,00,00,00,00,00,80,00,00,
639380050,0140044A,true,Rx,0,8,C0,00,00,08,00,00,00,00,
639391335,00613DF8,true,Rx,0,8,41,00,06,00,00,00,00,00,
639392476,01213FFC,true,Rx,0,8,0C,00,4D,00,E0,01,88,00,
639393669,01800028,true,Rx,0,8,C0,00,78,00,00,00,00,00,
639394783,02C13428,true,Rx,0,8,40,00,58,80,6C,00,20,00,
639395907,02E10DF4,true,Rx,0,8,40,A9,00,20,90,30,08,10,
639397052,0340024C,true,Rx,0,8,00,00,70,00,0C,96,00,00,
639398177,0261300A,true,Rx,0,8,C0,00,00,27,80,00,00,C0,
639399301,03801028,true,Rx,0,8,8C,00,20,08,9C,43,00,00,
639400990,01C030A2,true,Rx,0,8,80,5B,40,01,89,01,14,00,
639406633,0240102A,true,Rx,0,8,01,00,00,00,00,00,00,00,
639407764,02001022,true,Rx,0,8,00,00,00,01,35,90,10,43,
639408916,0280142A,true,Rx,0,8,80,50,00,20,07,00,00,00,
639411356,00613DF8,true,Rx,0,8,83,00,06,00,00,00,00,00,
639412480,02A03028,true,Rx,0,8,00,90,C4,19,10,2B,00,00,
639413614,00400066,true,Rx,0,8,C0,00,00,06,01,5E,40,7F,
639416559,01213FFC,true,Rx,0,8,4C,00,4D,00,F0,41,88,00,
639417731,01E01266,true,Rx,0,8,40,00,02,00,00,00,40,00,
639418852,03C0002A,true,Rx,0,8,00,00,30,C0,2D,00,9F,00,
639420038,0140044A,true,Rx,0,8,00,00,00,18,00,00,00,00,
639427774,0261300A,true,Rx,0,8,00,00,00,27,80,00,00,C0,
639431357,00613DF8,true,Rx,0,8,C1,00,06,00,00,00,00,00,
639432580,01800028,true,Rx,0,8,00,00,78,00,00,00,00,00,
639437620,0280142A,true,Rx,0,8,C0,50,00,20,07,00,00,00,
639441317,01213FFC,true,Rx,0,8,8C,00,4D,00,F0,01,88,00,
639442479,0240102A,true,Rx,0,8,41,00,00,00,00,00,00,00,
639446295,01C030A2,true,Rx,0,8,C0,5B,40,01,89,01,14,00,
639447437,02A03028,true,Rx,0,8,00,90,84,11,10,2B,00,00,
639448557,02C13428,true,Rx,0,8,80,00,58,80,6C,00,20,00,
639449672,02E10DF4,true,Rx,0,8,80,A9,20,A0,90,30,08,10,
639451311,00613DF8,true,Rx,0,8,03,00,06,00,00,00,00,00,
639452843,02001022,true,Rx,0,8,40,00,00,01,35,90,10,43,
639457951,0261300A,true,Rx,0,8,40,00,00,27,80,00,00,C0,
639459546,0140044A,true,Rx,0,8,40,00,00,08,00,00,00,00,
639462649,01E01266,true,Rx,0,8,80,00,02,00,00,00,40,00,
639466324,01213FFC,true,Rx,0,8,CC,00,4D,00,E0,01,88,00,
639467651,0280142A,true,Rx,0,8,00,10,00,20,07,00,00,00,
639471343,00613DF8,true,Rx,0,8,41,00,06,00,00,00,00,00,
639472525,01800028,true,Rx,0,8,40,00,78,00,00,00,00,00,
639476632,0240102A,true,Rx,0,8,80,00,00,00,00,00,00,00,
639481303,02A03028,true,Rx,0,8,00,90,84,11,10,2B,00,00,
639482485,03200008,true,Rx,0,8,00,00,00,00,00,80,00,00,
639488188,00400066,true,Rx,0,8,00,00,00,07,01,5E,40,7F,
639489318,0261300A,true,Rx,0,8,80,00,00,27,80,00,00,C0,
639490963,01C030A2,true,Rx,0,8,00,5B,40,01,89,01,14,00,
639492121,00613DF8,true,Rx,0,8,83,00,06,00,00,00,00,00,
639493275,01213FFC,true,Rx,0,8,0C,00,4D,00,F0,01,88,00,
639497597,0280142A,true,Rx,0,8,40,50,00,28,07,00,00,00,
639498749,02001022,true,Rx,0,8,80,00,00,01,35,90,10,43,
639499911,0140044A,true,Rx,0,8,80,00,00,08,00,00,00,00,
639501335,02C13428,true,Rx,0,8,C0,00,58,80,6C,00,20,00,
639502448,02E10DF4,true,Rx,0,8,C0,A9,20,A0,90,30,08,10,
639507485,01E01266,true,Rx,0,8,C0,00,02,00,00,00,40,00,
639511328,00613DF8,true,Rx,0,8,C1,00,06,00,00,00,00,00,
639512511,01800028,true,Rx,0,8,80,00,78,00,00,00,00,00,
639513662,0240102A,true,Rx,0,8,C1,00,00,00,00,00,00,00,
639516381,01213FFC,true,Rx,0,8,4C,00,4D,00,E0,41,88,00,
639517511,02A03028,true,Rx,0,8,00,10,44,19,10,2B,00,00,
639518637,0261300A,true,Rx,0,8,C0,00,00,27,80,00,00,C0,
639527605,0280142A,true,Rx,0,8,80,50,00,20,07,00,00,00,
639531314,00613DF8,true,Rx,0,8,03,00,06,00,00,00,00,00,
639536254,01C030A2,true,Rx,0,8,40,5B,40,01,89,01,14,00,
639539507,0140044A,true,Rx,0,8,C0,00,00,18,00,00,00,00,
639541287,01213FFC,true,Rx,0,8,8C,00,4D,00,F0,01,88,00,
639542799,02001022,true,Rx,0,8,C0,00,00,01,35,90,10,43,
639546638,0240102A,true,Rx,0,8,03,00,00,00,00,00,00,00,
639548459,0261300A,true,Rx,0,8,00,00,00,27,80,00,00,C0,
639551388,00613DF8,true,Rx,0,8,41,00,06,00,00,00,00,00,
639552571,01800028,true,Rx,0,8,C0,00,78,00,00,00,00,00,
639553733,01E01266,true,Rx,0,8,00,00,02,00,00,00,40,00,
639554869,02A03028,true,Rx,0,8,00,90,84,11,10,2B,00,00,
639556271,02C13428,true,Rx,0,8,00,00,58,80,6C,00,20,00,
639557406,02E10DF4,true,Rx,0,8,00,A9,00,20,90,30,08,10,
639558560,0280142A,true,Rx,0,8,C0,10,00,20,07,00,00,00,
639563525,00400066,true,Rx,0,8,40,00,00,00,01,5E,40,7F,
639566414,01213FFC,true,Rx,0,8,CC,00,4D,00,F0,01,88,00,
639571270,00613DF8,true,Rx,0,8,83,00,06,00,00,00,00,00,
639572412,0340024C,true,Rx,0,8,40,00,60,00,04,96,00,00,
639578487,0261300A,true,Rx,0,8,40,00,00,27,80,00,00,C0,
639579670,0140044A,true,Rx,0,8,00,00,00,08,00,00,00,00,
639580956,01C030A2,true,Rx,0,8,80,5B,40,01,89,01,14,00,
639582112,0240102A,true,Rx,0,8,40,00,00,00,00,00,00,00,
639586358,02A03028,true,Rx,0,8,00,90,84,11,10,2B,00,00,
639587540,03200008,true,Rx,0,8,00,00,00,00,00,80,00,00,
639588672,02001022,true,Rx,0,8,00,00,00,01,35,90,10,43,
639589817,0280142A,true,Rx,0,8,00,50,00,20,07,00,00,00,
639591373,00613DF8,true,Rx,0,8,C1,00,06,00,00,00,00,00,
639592515,01213FFC,true,Rx,0,8,0C,00,4D,00,E0,01,88,00,
639593732,01800028,true,Rx,0,8,00,00,78,00,00,00,00,00,
639597554,01E01266,true,Rx,0,8,40,00,02,00,00,00,40,00,
639608681,0261300A,true,Rx,0,8,80,00,00,27,80,00,00,C0,
639611341,00613DF8,true,Rx,0,8,03,00,06,00,00,00,00,00,
639612462,02C13428,true,Rx,0,8,40,00,58,80,6C,00,20,00,
639613573,02E10DF4,true,Rx,0,8,40,A9,20,A0,90,30,08,10,
639616497,01213FFC,true,Rx,0,8,4C,00,4D,00,F0,41,88,00,
639617659,0240102A,true,Rx,0,8,81,00,00,00,00,00,00,00,
639618815,0280142A,true,Rx,0,8,40,50,00,20,07,00,00,00,
639619968,0140044A,true,Rx,0,8,40,00,00,18,00,00,00,00,
639621321,02A03028,true,Rx,0,8,00,90,D4,19,10,2B,80,00,
639626221,01C030A2,true,Rx,0,8,C0,5B,40,01,89,01,14,00,
639631327,00613DF8,true,Rx,0,8,41,00,06,00,00,00,00,00,
639632510,01800028,true,Rx,0,8,40,00,78,00,00,00,00,00,
639633630,02001022,true,Rx,0,8,40,00,00,01,35,90,10,43,
639637513,03A00002,true,Rx,0,8,40,00,00,04,07,04,98,5E,
639638665,00400066,true,Rx,0,8,80,00,00,01,01,5E,40,7F,
639639796,0261300A,true,Rx,0,8,C0,00,00,27,80,00,00,C0,
639641375,01213FFC,true,Rx,0,8,8C,00,4D,00,F0,01,88,00,
639642499,01613FFC,true,Rx,0,8,01,0F,B0,55,D2,46,FF,F6,
639643670,01E01266,true,Rx,0,8,80,00,02,00,00,00,40,00,
639647594,0280142A,true,Rx,0,8,80,10,00,20,07,00,00,00,
639651311,00613DF8,true,Rx,0,8,83,00,06,00,00,00,00,00,
639652463,0240102A,true,Rx,0,8,C1,00,00,00,00,00,00,00,
639656382,02A03028,true,Rx,0,8,00,90,84,11,10,2B,00,00,
639659529,0140044A,true,Rx,0,8,80,00,00,08,00,00,00,00,
639660680,04000002,true,Rx,0,8,C0,00,01,00,B4,00,00,4E,
639666270,01213FFC,true,Rx,0,8,CC,00,4D,00,E0,01,88,00,
639667390,02C13428,true,Rx,0,8,80,00,58,80,6C,00,20,00,
639668512,02E10DF4,true,Rx,0,8,80,A9,00,20,90,30,08,10,
639669657,0261300A,true,Rx,0,8,00,00,00,27,80,00,00,C0,
639671121,01C030A2,true,Rx,0,8,00,5B,40,01,89,01,14,00,
639672288,00613DF8,true,Rx,0,8,C1,00,06,00,00,00,00,00,
639673462,01800028,true,Rx,0,8,80,00,78,00,00,00,00,00,
639677588,0280142A,true,Rx,0,8,C0,50,00,20,07,00,00,00,
639678730,02001022,true,Rx,0,8,80,00,00,01,35,90,10,43,
639686597,0240102A,true,Rx,0,8,01,00,00,00,00,00,00,00,
639687760,01E01266,true,Rx,0,8,C0,00,02,00,00,00,40,00,
639691357,00613DF8,true,Rx,0,8,03,00,06,00,00,00,00,00,
639692509,01213FFC,true,Rx,0,8,0C,00,4D,00,F0,01,88,00,
639693640,02A03028,true,Rx,0,8,00,90,84,11,10,2B,00,00,
639694827,03200008,true,Rx,0,8,00,00,00,00,00,80,00,00,
639698896,0261300A,true,Rx,0,8,40,00,00,27,80,00,00,C0,
639700058,0140044A,true,Rx,0,8,C0,00,00,08,00,00,00,00,
639707576,0280142A,true,Rx,0,8,00,50,00,28,07,00,00,00,
639711323,00613DF8,true,Rx,0,8,41,00,06,00,00,00,00,00,
639712506,01800028,true,Rx,0,8,C0,00,78,00,00,00,00,00,
639713637,03801028,true,Rx,0,8,CC,00,20,08,DC,43,00,00,
639714784,00400066,true,Rx,0,8,C0,00,00,02,01,5E,40,7F,
639716258,01C030A2,true,Rx,0,8,40,5B,40,01,89,01,14,00,
639717399,01213FFC,true,Rx,0,8,4C,00,4D,00,E0,41,88,00,
639721386,02C13428,true,Rx,0,8,C0,00,58,80,6C,00,20,00,
639722547,0240102A,true,Rx,0,8,40,00,00,00,00,00,00,00,
639723679,02001022,true,Rx,0,8,C0,00,00,01,35,90,10,43,
639724783,02E10DF4,true,Rx,0,8,C0,A9,20,A0,90,30,08,10,
639726246,02A03028,true,Rx,0,8,00,90,C4,19,10,2B,00,00,
639729100,0261300A,true,Rx,0,8,80,00,00,27,80,00,00,C0,
639731332,00613DF8,true,Rx,0,8,83,00,06,00,00,00,00,00,
639732567,01E01266,true,Rx,0,8,00,00,02,00,00,00,40,00,
639737574,0280142A,true,Rx,0,8,40,10,00,20,07,00,00,00,
639739508,0140044A,true,Rx,0,8,00,00,00,18,00,00,00,00,
639741300,01213FFC,true,Rx,0,8,8C,00,4D,00,F0,01,88,00,
639751295,00613DF8,true,Rx,0,8,C1,00,06,00,00,00,00,00,
639752510,01800028,true,Rx,0,8,00,00,78,00,00,00,00,00,
639753641,0340024C,true,Rx,0,8,80,00,60,00,0C,96,00,00,
639756606,0240102A,true,Rx,0,8,81,00,00,00,00,00,00,00,
639759026,0261300A,true,Rx,0,8,C0,00,00,27,80,00,00,C0,
639760960,01C030A2,true,Rx,0,8,80,5B,40,01,89,01,14,00,
639762104,02A03028,true,Rx,0,8,00,90,84,11,10,2B,00,00,
639766279,01213FFC,true,Rx,0,8,CC,00,4D,00,F0,01,88,00,
639767616,0280142A,true,Rx,0,8,80,50,00,20,07,00,00,00,
639768746,02001022,true,Rx,0,8,00,00,00,01,35,90,10,43,
639771332,00613DF8,true,Rx,0,8,03,00,06,00,00,00,00,00,
639776368,02C13428,true,Rx,0,8,00,00,58,80,6C,00,20,00,
639777522,01E01266,true,Rx,0,8,40,00,06,00,00,00,40,00,
639778663,02E10DF4,true,Rx,0,8,00,A9,00,20,90,30,08,10,
639779819,0140044A,true,Rx,0,8,40,00,00,08,00,00,00,00,
639789183,00400066,true,Rx,0,8,00,00,00,03,01,5E,40,7F,
639790315,0261300A,true,Rx,0,8,00,00,00,27,80,00,00,C0,
639791488,00613DF8,true,Rx,0,8,41,00,06,00,00,00,00,00,
639792623,01213FFC,true,Rx,0,8,0C,00,4D,00,E0,01,88,00,
639793808,01800028,true,Rx,0,8,40,00,78,00,00,00,00,00,
639794973,0240102A,true,Rx,0,8,C1,00,00,00,00,00,00,00,
639796263,02A03028,true,Rx,0,8,00,10,04,11,10,2B,00,00,
639797446,03200008,true,Rx,0,8,00,00,00,00,00,80,00,00,
639798591,0280142A,true,Rx,0,8,C0,50,00,20,07,00,00,00,
639806234,01C030A2,true,Rx,0,8,C0,5B,40,01,89,01,14,00,
639811288,00613DF8,true,Rx,0,8,83,00,06,00,00,00,00,00,
639812811,02001022,true,Rx,0,8,40,00,00,01,35,90,10,43,
639816359,01213FFC,true,Rx,0,8,4C,00,4D,00,F0,41,88,00,
639819289,0261300A,true,Rx,0,8,40,00,00,27,80,00,00,C0,
639820452,0140044A,true,Rx,0,8,80,00,00,18,00,00,00,00,
639822757,01E01266,true,Rx,0,8,80,00,02,00,00,00,40,00,
639826596,0240102A,true,Rx,0,8,00,00,00,00,00,00,00,00,
639827737,0280142A,true,Rx,0,8,00,10,00,20,07,00,00,00,
639828878,03C0002A,true,Rx,0,8,00,00,30,C0,2D,00,1F,00,
639831526,00613DF8,true,Rx,0,8,C1,00,06,00,00,00,00,00,
639832698,01800028,true,Rx,0,8,80,00,78,00,00,00,00,00,
639833823,02A03028,true,Rx,0,8,00,90,C4,19,10,2B,00,00,
639834936,02C13428,true,Rx,0,8,40,00,58,80,6C,00,20,00,
639836051,02E10DF4,true,Rx,0,8,40,A9,20,A0,90,30,08,10,
639841281,01213FFC,true,Rx,0,8,8C,00,4D,00,F0,01,88,00,
639849330,0261300A,true,Rx,0,8,80,00,00,27,80,00,00,C0,
639850975,01C030A2,true,Rx,0,8,00,5B,40,01,89,01,14,00,
639852149,00613DF8,true,Rx,0,8,03,00,06,00,00,00,00,00,
639857568,0280142A,true,Rx,0,8,40,50,00,20,07,00,00,00,
639858719,02001022,true,Rx,0,8,80,00,00,01,35,90,10,43,
639859883,0140044A,true,Rx,0,8,C0,00,00,08,00,00,00,00,
639861632,0240102A,true,Rx,0,8,41,00,00,00,00,00,00,00,
639864289,00400066,true,Rx,0,8,40,00,00,04,01,5E,40,7F,
639866523,01213FFC,true,Rx,0,8,CC,00,4D,00,E0,01,88,00,
639867684,01E01266,true,Rx,0,8,C0,00,02,00,00,00,40,00,
639868808,02A03028,true,Rx,0,8,00,90,94,11,10,2B,80,00,
639871313,00613DF8,true,Rx,0,8,41,00,06,00,00,00,00,00,
639872495,01800028,true,Rx,0,8,C0,00,78,00,00,00,00,00,
639879304,0261300A,true,Rx,0,8,C0,00,00,27,80,00,00,C0,
639886234,02C13428,true,Rx,0,8,80,00,58,80,6C,00,20,00,
639887365,02E10DF4,true,Rx,0,8,80,A9,00,20,90,30,08,10,
639888506,0280142A,true,Rx,0,8,80,50,00,20,07,00,00,00,
639891328,00613DF8,true,Rx,0,8,83,00,06,00,00,00,00,00,
639892479,01213FFC,true,Rx,0,8,0C,00,4D,00,F0,01,88,00,
639896352,01C030A2,true,Rx,0,8,40,5B,40,01,89,01,14,00,
639897504,0240102A,true,Rx,0,8,83,00,00,00,00,00,00,00,
639899531,0140044A,true,Rx,0,8,00,00,00,08,00,00,00,00,
639901291,02A03028,true,Rx,0,8,00,90,C4,19,10,2B,00,00,
639902473,03200008,true,Rx,0,8,00,00,00,00,00,80,00,00,
639903609,02001022,true,Rx,0,8,C0,00,00,01,35,90,10,43,
639909457,0261300A,true,Rx,0,8,00,00,00,27,80,00,00,C0,
639911341,00613DF8,true,Rx,0,8,C1,00,06,00,00,00,00,00,
639912554,01800028,true,Rx,0,8,00,00,78,00,00,00,00,00,
639913727,01E01266,true,Rx,0,8,00,00,02,00,00,00,40,00,
639916538,01213FFC,true,Rx,0,8,4C,00,4D,00,E0,41,88,00,
639917679,0280142A,true,Rx,0,8,C0,10,00,28,07,00,00,00,
639921264,01613FFC,true,Rx,0,8,02,4E,BC,43,61,04,98,5E,
639931270,00613DF8,true,Rx,0,8,03,00,06,00,00,00,00,00,
639932432,0240102A,true,Rx,0,8,C0,00,00,00,00,00,00,00,
639933553,0340024C,true,Rx,0,8,C1,00,70,01,0C,96,00,00,
639936333,02A03028,true,Rx,0,8,00,90,84,11,10,2B,00,00,
639939434,00400066,true,Rx,0,8,80,00,00,05,01,5E,40,7F,
639940586,0140044A,true,Rx,0,8,40,00,00,18,00,00,00,00,
639941727,01213FFC,true,Rx,0,8,8C,00,4D,00,F0,01,88,00,
639942832,01C030A2,true,Rx,0,8,80,5B,40,01,89,01,14,00,
639943964,0261300A,true,Rx,0,8,40,00,00,27,80,00,00,C0,
639945090,02C13428,true,Rx,0,8,C0,00,58,80,6C,00,20,00,
639946203,02E10DF4,true,Rx,0,8,C0,A9,20,A0,90,30,08,10,
639947551,0280142A,true,Rx,0,8,00,50,00,20,07,00,00,00,
639948685,02001022,true,Rx,0,8,00,00,00,01,35,90,10,43,
639951346,00613DF8,true,Rx,0,8,41,00,06,00,00,00,00,00,
639952528,01800028,true,Rx,0,8,40,00,78,00,00,00,00,00,
639957546,01E01266,true,Rx,0,8,40,00,02,00,00,00,40,00,
639966208,01213FFC,true,Rx,0,8,CC,00,4D,00,F0,01,88,00,
639967381,0240102A,true,Rx,0,8,01,00,00,00,00,00,00,00,
639969543,0261300A,true,Rx,0,8,80,00,00,27,80,00,00,C0,
639971313,00613DF8,true,Rx,0,8,83,00,06,00,00,00,00,00,
639972455,02A03028,true,Rx,0,8,00,90,84,11,10,2B,00,00,
639977560,0280142A,true,Rx,0,8,40,50,00,20,07,00,00,00,
639979475,0140044A,true,Rx,0,8,80,00,00,08,00,00,00,00,
639986249,01C030A2,true,Rx,0,8,C0,5B,40,01,89,01,14,00,
639991338,00613DF8,true,Rx,0,8,C1,00,06,00,00,00,00,00,
639992490,01213FFC,true,Rx,0,8,0C,00,4D,00,E0,01,88,00,
639993662,01800028,true,Rx,0,8,80,00,78,00,00,00,00,00,
639994787,02001022,true,Rx,0,8,40,00,00,01,35,90,10,43,
639996229,02C13428,true,Rx,0,8,00,00,58,80,6C,00,20,00,
639997365,02E10DF4,true,Rx,0,8,00,A9,00,20,90,30,08,10,
639999436,0261300A,true,Rx,0,8,C0,00,00,27,80,00,00,C0,
640001578,0240102A,true,Rx,0,8,41,00,00,00,00,00,00,00,
640002843,01E01266,true,Rx,0,8,80,00,02,00,00,00,40,00,
640006308,02A03028,true,Rx,0,8,00,90,C4,19,10,2B,00,00,
640007490,03200008,true,Rx,0,8,00,00,00,00,00,80,00,00,
640008642,0280142A,true,Rx,0,8,80,10,00,20,07,00,00,00,
640011288,00613DF8,true,Rx,0,8,03,00,06,00,00,00,00,00,
640014625,00400066,true,Rx,0,8,C0,00,00,06,01,5E,40,7F,
640016365,01213FFC,true,Rx,0,8,4C,00,4D,00,F0,41,88,00,
640019510,0140044A,true,Rx,0,8,C0,00,00,18,00,00,00,00,
640029612,0261300A,true,Rx,0,8,00,00,00,27,80,00,00,C0,
640030990,01C030A2,true,Rx,0,8,00,5B,40,01,89,01,14,00,
640032153,00613DF8,true,Rx,0,8,41,00,06,00,00,00,00,00,
640033330,01800028,true,Rx,0,8,C0,00,78,00,00,00,00,00,
640034473,03801028,true,Rx,0,8,0C,00,20,08,9C,43,00,00,
640036563,0240102A,true,Rx,0,8,81,00,00,00,00,00,00,00,
640037714,0280142A,true,Rx,0,8,C0,50,00,20,07,00,00,00,
640038850,02001022,true,Rx,0,8,80,00,00,01,35,90,10,43,
640041333,01213FFC,true,Rx,0,8,8C,00,4D,00,F0,01,88,00,
640042465,02A03028,true,Rx,0,8,00,90,84,11,10,2B,00,00,
640047573,01E01266,true,Rx,0,8,C0,00,02,00,00,00,40,00,
640051290,00613DF8,true,Rx,0,8,83,00,06,00,00,00,00,00,
640052401,02C13428,true,Rx,0,8,40,00,58,80,6C,00,20,00,
640053521,02E10DF4,true,Rx,0,8,40,A9,20,A0,90,30,08,10,
640054656,03A00002,true,Rx,0,8,80,00,00,04,07,04,98,5E,
640059522,0140044A,true,Rx,0,8,00,00,00,08,00,00,00,00,
640060664,0261300A,true,Rx,0,8,40,00,00,27,80,00,00,C0,
640066304,01213FFC,true,Rx,0,8,CC,00,4D,00,E0,01,88,00,
640067579,0280142A,true,Rx,0,8,00,50,00,20,07,00,00,00,
640071312,00613DF8,true,Rx,0,8,C1,00,06,00,00,00,00,00,
640072527,01800028,true,Rx,0,8,00,00,78,00,00,00,00,00,
640073688,0240102A,true,Rx,0,8,C0,00,00,00,00,00,00,00,
640076275,01C030A2,true,Rx,0,8,40,5B,40,01,89,01,14,00,
640077406,02A03028,true,Rx,0,8,00,10,04,11,10,2B,00,00,
640082769,02001022,true,Rx,0,8,C0,00,00,01,35,90,10,43,
640089639,00400066,true,Rx,0,8,00,00,00,07,01,5E,40,7F,
640090769,0261300A,true,Rx,0,8,80,00,00,27,80,00,00,C0,
640091942,00613DF8,true,Rx,0,8,03,00,06,00,00,00,00,00,
640093098,01213FFC,true,Rx,0,8,0C,00,4D,00,F0,01,88,00,
640094264,01E01266,true,Rx,0,8,00,00,02,00,00,00,40,00,
640097507,0280142A,true,Rx,0,8,41,10,00,28,07,00,00,00,
640099504,0140044A,true,Rx,0,8,40,00,00,08,00,00,00,00,
640106308,02C13428,true,Rx,0,8,80,00,58,80,6C,00,20,00,
640107490,0240102A,true,Rx,0,8,01,00,00,00,00,00,00,00,
640108612,02E10DF4,true,Rx,0,8,80,A9,20,A0,90,30,08,10,
640111300,00613DF8,true,Rx,0,8,41,00,06,00,00,00,00,00,
640112483,01800028,true,Rx,0,8,40,00,78,00,00,00,00,00,
640113608,02A03028,true,Rx,0,8,00,90,D4,19,10,2B,80,00,
640114793,03200008,true,Rx,0,8,00,00,00,00,00,80,00,00,
640115928,0340024C,true,Rx,0,8,01,00,60,01,0C,96,00,00,
640117072,01213FFC,true,Rx,0,8,4C,00,4D,00,E0,41,88,00,
640119502,04000002,true,Rx,0,8,00,00,01,00,F4,00,00,4E,
640120633,0261300A,true,Rx,0,8,C0,00,00,27,80,00,00,C0,
640121738,01C030A2,true,Rx,0,8,80,5B,40,01,89,01,14,00,
640127526,0280142A,true,Rx,0,8,80,50,00,20,07,00,00,00,
640128668,02001022,true,Rx,0,8,00,00,00,01,35,90,10,43,
640131315,00613DF8,true,Rx,0,8,83,00,06,00,00,00,00,00,
640137538,01E01266,true,Rx,0,8,40,00,02,00,00,00,40,00,
640139465,0140044A,true,Rx,0,8,80,00,00,18,00,00,00,00,
640141266,01213FFC,true,Rx,0,8,8C,00,4D,00,F0,01,88,00,
640142429,0240102A,true,Rx,0,8,41,00,00,00,00,00,00,00,
640146264,02A03028,true,Rx,0,8,00,90,84,11,10,2B,00,00,
640149886,0261300A,true,Rx,0,8,00,00,00,27,80,00,00,C0,
640151306,00613DF8,true,Rx,0,8,C1,00,06,00,00,00,00,00,
640152479,01800028,true,Rx,0,8,80,00,78,00,00,00,00,00,
640157524,0280142A,true,Rx,0,8,C0,50,00,20,07,00,00,00,
640161282,02C13428,true,Rx,0,8,C0,00,58,80,6C,00,20,00,
640162404,02E10DF4,true,Rx,0,8,C0,A9,00,20,90,30,08,10,
640164904,00400066,true,Rx,0,8,40,00,00,00,01,5E,40,7F,
640166315,01213FFC,true,Rx,0,8,CC,00,4D,00,F0,01,88,00,
640167435,01C030A2,true,Rx,0,8,C0,5B,40,01,89,01,14,00,
640171389,00613DF8,true,Rx,0,8,03,00,06,00,00,00,00,00,
640172932,02001022,true,Rx,0,8,40,00,00,01,35,90,10,43,
640176543,0240102A,true,Rx,0,8,80,00,00,00,00,00,00,00,
640179473,0140044A,true,Rx,0,8,C0,00,00,08,00,00,00,00,
640180604,0261300A,true,Rx,0,8,40,00,00,27,80,00,00,C0,
640181746,02A03028,true,Rx,0,8,00,90,84,11,10,2B,00,00,
640182912,01E01266,true,Rx,0,8,80,00,02,00,00,00,40,00,
640187520,0280142A,true,Rx,0,8,00,10,00,20,07,00,00,00,
640191340,00613DF8,true,Rx,0,8,41,00,06,00,00,00,00,00,
640192482,01213FFC,true,Rx,0,8,0C,00,4D,00,E0,01,88,00,
640193664,01800028,true,Rx,0,8,C0,00,78,00,00,00,00,00,
640201259,01613FFC,true,Rx,0,8,13,01,01,01,01,01,01,02,
640210043,0261300A,true,Rx,0,8,80,00,00,27,80,00,00,C0,
640211156,01C030A2,true,Rx,0,8,00,5B,40,01,89,01,14,00,
640212318,00613DF8,true,Rx,0,8,83,00,06,00,00,00,00,00,
640213473,0240102A,true,Rx,0,8,C1,00,00,00,00,00,00,00,
640216515,01213FFC,true,Rx,0,8,4C,00,4D,00,F0,41,88,00,
640217668,0280142A,true,Rx,0,8,40,50,00,20,07,00,00,00,
640218819,02001022,true,Rx,0,8,80,00,00,01,35,90,10,43,
640219995,0140044A,true,Rx,0,8,00,00,00,18,00,00,00,00,
640221109,02A03028,true,Rx,0,8,00,90,C4,19,10,2B,00,00,
640222244,02C13428,true,Rx,0,8,00,00,58,80,6C,00,20,00,
640223377,02E10DF4,true,Rx,0,8,00,A9,20,A0,90,30,08,10,
640224564,03200008,true,Rx,0,8,00,00,00,00,00,80,00,00,
640227640,01E01266,true,Rx,0,8,C0,00,02,00,00,00,40,00,
640231295,00613DF8,true,Rx,0,8,C1,00,06,00,00,00,00,00,
640232510,01800028,true,Rx,0,8,00,00,78,00,00,00,00,00,
640236512,03C0002A,true,Rx,0,8,00,00,30,C0,2D,00,9F,00,
640240073,00400066,true,Rx,0,8,80,00,00,01,01,5E,40,7F,
640241205,0261300A,true,Rx,0,8,C0,00,00,27,80,00,00,C0,
640242336,01213FFC,true,Rx,0,8,8C,00,4D,00,F0,01,88,00,
640246550,0240102A,true,Rx,0,8,03,00,00,00,00,00,00,00,
640247692,0280142A,true,Rx,0,8,80,50,00,20,07,00,00,00,
640251312,00613DF8,true,Rx,0,8,03,00,06,00,00,00,00,00,
640252443,02A03028,true,Rx,0,8,00,90,84,11,10,2B,00,00,
640256290,01C030A2,true,Rx,0,8,40,5B,40,01,89,01,14,00,
640259498,0140044A,true,Rx,0,8,40,00,00,08,00,00,00,00,
640262769,02001022,true,Rx,0,8,C0,00,00,01,35,90,10,43,
640266250,01213FFC,true,Rx,0,8,CC,00,4D,00,E0,01,88,00,
640270174,0261300A,true,Rx,0,8,00,00,00,27,80,00,00,C0,
640271337,00613DF8,true,Rx,0,8,41,00,06,00,00,00,00,00,
640272519,01800028,true,Rx,0,8,40,00,78,00,00,00,00,00,
640273696,01E01266,true,Rx,0,8,00,00,06,00,00,00,40,00,
640274818,02C13428,true,Rx,0,8,40,00,58,80,6C,00,20,00,
640275933,02E10DF4,true,Rx,0,8,40,A9,00,20,90,30,08,10,
640277511,0280142A,true,Rx,0,8,C0,10,00,20,07,00,00,00,
640281545,0240102A,true,Rx,0,8,40,00,00,00,00,00,00,00,
640286308,02A03028,true,Rx,0,8,00,90,84,11,10,2B,00,00,
640291281,00613DF8,true,Rx,0,8,83,00,06,00,00,00,00,00,
640292433,01213FFC,true,Rx,0,8,0C,00,4D,00,F0,01,88,00,
640293555,0340024C,true,Rx,0,8,41,00,60,01,04,96,00,00,
640299499,0140044A,true,Rx,0,8,80,00,00,08,00,00,00,00,
640300631,0261300A,true,Rx,0,8,40,00,00,27,80,00,00,C0,
640301731,01C030A2,true,Rx,0,8,80,5B,40,01,89,01,14,00,
640307500,0280142A,true,Rx,0,8,00,50,00,28,07,00,00,00,
640308641,02001022,true,Rx,0,8,00,00,00,01,35,90,10,43,
640311330,00613DF8,true,Rx,0,8,C1,00,06,00,00,00,00,00,
640312501,01800028,true,Rx,0,8,80,00,78,00,00,00,00,00,
640315210,00400066,true,Rx,0,8,C0,00,00,02,01,5E,40,7F,
640316412,01213FFC,true,Rx,0,8,4C,00,4D,00,E0,41,88,00,
640317579,0240102A,true,Rx,0,8,81,00,00,00,00,00,00,00,
640318742,01E01266,true,Rx,0,8,40,00,02,00,00,00,40,00,
640321379,02A03028,true,Rx,0,8,00,90,C4,19,10,2B,00,00,
640322561,03200008,true,Rx,0,8,00,00,00,00,00,80,00,00,
640326179,02C13428,true,Rx,0,8,80,00,58,80,6C,00,20,00,
640327300,02E10DF4,true,Rx,0,8,80,A9,20,A0,90,30,08,10,
640330286,0261300A,true,Rx,0,8,80,00,00,27,80,00,00,C0,
640331459,00613DF8,true,Rx,0,8,03,00,06,00,00,00,00,00,
640337503,0280142A,true,Rx,0,8,40,50,00,20,07,00,00,00,
640339458,0140044A,true,Rx,0,8,C0,00,00,18,00,00,00,00,
640341302,01213FFC,true,Rx,0,8,8C,00,4D,00,F0,01,88,00,
640346355,01C030A2,true,Rx,0,8,C0,5B,40,01,89,01,14,00,
640351297,00613DF8,true,Rx,0,8,41,00,06,00,00,00,00,00,
640352479,01800028,true,Rx,0,8,C0,00,78,00,00,00,00,00,
640353611,02001022,true,Rx,0,8,40,00,00,01,35,90,10,43,
640354766,0240102A,true,Rx,0,8,C1,00,00,00,00,00,00,00,
640355889,03801028,true,Rx,0,8,44,00,20,08,9C,43,00,00,
640357034,02A03028,true,Rx,0,8,00,10,14,11,10,2B,80,00,
640360203,0261300A,true,Rx,0,8,C0,00,00,27,80,00,00,C0,
640362811,01E01266,true,Rx,0,8,80,00,02,00,00,00,40,00,
640366291,01213FFC,true,Rx,0,8,CC,00,4D,00,F0,01,88,00,
640367546,0280142A,true,Rx,0,8,80,10,00,20,07,00,00,00,
640371270,00613DF8,true,Rx,0,8,83,00,06,00,00,00,00,00,
640379462,0140044A,true,Rx,0,8,00,00,00,08,00,00,00,00,
640381233,02C13428,true,Rx,0,8,C0,00,58,80,6C,00,20,00,
640382353,02E10DF4,true,Rx,0,8,C0,A9,00,20,90,30,08,10,
640386562,0240102A,true,Rx,0,8,01,00,00,00,00,00,00,00,
640390320,00400066,true,Rx,0,8,00,00,00,03,01,5E,40,7F,
640391482,00613DF8,true,Rx,0,8,C1,00,06,00,00,00,00,00,
640392624,01213FFC,true,Rx,0,8,0C,00,4D,00,E0,01,88,00,
640393840,01800028,true,Rx,0,8,00,00,78,00,00,00,00,00,
640394954,01C030A2,true,Rx,0,8,00,5B,40,01,89,01,14,00,
640396088,0261300A,true,Rx,0,8,00,00,00,27,80,00,00,C0,
640397234,02A03028,true,Rx,0,8,00,90,84,11,10,2B,00,00,
640398368,02001022,true,Rx,0,8,80,00,00,01,35,90,10,43,
640399523,0280142A,true,Rx,0,8,C0,50,00,20,07,00,00,00,
640407534,01E01266,true,Rx,0,8,C0,00,02,00,00,00,40,00,
640411282,00613DF8,true,Rx,0,8,03,00,06,00,00,00,00,00,
640416336,01213FFC,true,Rx,0,8,4C,00,4D,00,F0,41,88,00,
640419484,0140044A,true,Rx,0,8,40,00,00,18,00,00,00,00,
640420748,0261300A,true,Rx,0,8,40,00,00,27,80,00,00,C0,
640421900,0240102A,true,Rx,0,8,40,00,00,00,00,00,00,00,
640426302,02A03028,true,Rx,0,8,00,90,C4,19,10,2B,00,00,
640427486,03200008,true,Rx,0,8,00,00,00,00,00,80,00,00,
640428626,0280142A,true,Rx,0,8,00,50,00,20,07,00,00,00,
640431296,00613DF8,true,Rx,0,8,41,00,06,00,00,00,00,00,
640432478,01800028,true,Rx,0,8,40,00,78,00,00,00,00,00,
640436299,01C030A2,true,Rx,0,8,40,5B,40,01,89,01,14,00,
640437421,02C13428,true,Rx,0,8,00,00,58,80,6C,00,20,00,
640438562,02E10DF4,true,Rx,0,8,00,A9,20,A0,90,30,08,10,
640441250,01213FFC,true,Rx,0,8,8C,00,4D,00,F0,01,88,00,
640442875,02001022,true,Rx,0,8,C0,00,00,01,35,90,10,43,
640450883,0261300A,true,Rx,0,8,80,00,00,27,80,00,00,C0,
640452046,00613DF8,true,Rx,0,8,83,00,06,00,00,00,00,00,
640453218,01E01266,true,Rx,0,8,00,00,02,00,00,00,40,00,
640456514,0240102A,true,Rx,0,8,81,00,00,00,00,00,00,00,
640457655,0280142A,true,Rx,0,8,40,10,00,20,07,00,00,00,
640459477,0140044A,true,Rx,0,8,80,00,00,08,00,00,00,00,
640461299,02A03028,true,Rx,0,8,00,90,84,11,10,2B,00,00,
640465855,00400066,true,Rx,0,8,40,00,00,04,01,5E,40,7F,
640466986,01213FFC,true,Rx,0,8,CC,00,4D,00,E0,01,88,00,
640468130,03A00002,true,Rx,0,8,C0,00,00,04,07,04,98,5E,
640471383,00613DF8,true,Rx,0,8,C1,00,06,00,00,00,00,00,
640472556,01800028,true,Rx,0,8,80,00,78,00,00,00,00,00,
640473690,0340024C,true,Rx,0,8,80,00,70,00,0C,96,00,00,
640480860,0261300A,true,Rx,0,8,C0,00,00,27,80,00,00,C0,
640482012,01613FFC,true,Rx,0,8,18,01,01,01,02,01,05,01,
640483123,01C030A2,true,Rx,0,8,80,5B,40,01,89,01,14,00,
640487482,0280142A,true,Rx,0,8,80,50,00,20,07,00,00,00,
640488614,02001022,true,Rx,0,8,00,00,00,01,35,90,10,43,
640491331,00613DF8,true,Rx,0,8,03,00,06,00,00,00,00,00,
640492484,01213FFC,true,Rx,0,8,0C,00,4D,00,F0,01,88,00,
640493645,0240102A,true,Rx,0,8,C1,00,00,00,00,00,00,00,
640494760,02C13428,true,Rx,0,8,40,00,58,80,6C,00,20,00,
640495883,02E10DF4,true,Rx,0,8,40,A9,00,20,90,30,08,10,
640497017,02A03028,true,Rx,0,8,00,90,84,11,10,2B,00,00,
640498194,01E01266,true,Rx,0,8,40,00,02,00,00,00,40,00,
640499535,0140044A,true,Rx,0,8,C0,00,00,08,00,00,00,00,
640510839,0261300A,true,Rx,0,8,00,00,00,27,80,00,00,C0,
640512002,00613DF8,true,Rx,0,8,41,00,06,00,00,00,00,00,
640513186,01800028,true,Rx,0,8,C0,00,78,00,00,00,00,00,
640516460,01213FFC,true,Rx,0,8,4C,00,4D,00,E0,41,88,00,
640517601,0280142A,true,Rx,0,8,C0,50,00,28,07,00,00,00,
640526266,01C030A2,true,Rx,0,8,C0,5B,40,01,89,01,14,00,
640527448,0240102A,true,Rx,0,8,00,00,00,00,00,00,00,00,
640531285,00613DF8,true,Rx,0,8,83,00,06,00,00,00,00,00,
640532406,02A03028,true,Rx,0,8,00,90,C4,19,10,2B,00,00,
640533537,02001022,true,Rx,0,8,40,00,00,01,35,90,10,43,
640534714,03200008,true,Rx,0,8,00,00,00,00,00,80,00,00,
640539455,0140044A,true,Rx,0,8,00,00,00,18,00,00,00,00,
640540760,00400066,true,Rx,0,8,80,00,00,05,01,5E,40,7F,
640541892,01213FFC,true,Rx,0,8,8C,00,4D,00,F0,01,88,00,
640543058,01E01266,true,Rx,0,8,80,00,02,00,00,00,40,00,
640544203,0261300A,true,Rx,0,8,40,00,00,27,80,00,00,C0,
640546498,02C13428,true,Rx,0,8,80,00,58,80,6C,00,20,00,
640547639,0280142A,true,Rx,0,8,00,10,00,20,07,00,00,00,
640548754,02E10DF4,true,Rx,0,8,80,A9,20,A0,90,30,08,10,
640551289,00613DF8,true,Rx,0,8,C1,00,06,00,00,00,00,00,
640552513,01800028,true,Rx,0,8,00,00,78,00,00,00,00,00,
640561458,0240102A,true,Rx,0,8,41,00,00,00,00,00,00,00,
640566203,01213FFC,true,Rx,0,8,CC,00,4D,00,F0,01,88,00,
640567344,02A03028,true,Rx,0,8,00,90,84,11,10,2B,00,00,
640570921,0261300A,true,Rx,0,8,80,00,00,27,80,00,00,C0,
640572093,00613DF8,true,Rx,0,8,03,00,06,00,00,00,00,00,
640573215,01C030A2,true,Rx,0,8,00,5B,40,01,89,01,14,00,
640577472,0280142A,true,Rx,0,8,40,50,00,20,07,00,00,00,
640578614,02001022,true,Rx,0,8,80,00,00,01,35,90,10,43,
640579775,0140044A,true,Rx,0,8,40,00,00,08,00,00,00,00,
640580922,04000002,true,Rx,0,8,40,00,01,00,B4,00,00,4E,
640587550,01E01266,true,Rx,0,8,C0,00,02,00,00,00,40,00,
640591340,00613DF8,true,Rx,0,8,41,00,06,00,00,00,00,00,
640592482,01213FFC,true,Rx,0,8,0C,00,4D,00,E0,01,88,00,
640593664,01800028,true,Rx,0,8,40,00,78,00,00,00,00,00,
640596548,0240102A,true,Rx,0,8,83,00,00,00,00,00,00,00,
640600768,0261300A,true,Rx,0,8,C0,00,00,27,80,00,00,C0,
640601888,02A03028,true,Rx,0,8,00,90,84,19,10,2B,00,00,
640603019,02C13428,true,Rx,0,8,C0,00,58,80,6C,00,20,00,
640604135,02E10DF4,true,Rx,0,8,C0,A9,00,20,90,30,08,10,
640607468,0280142A,true,Rx,0,8,80,50,00,20,07,00,00,00,
640611268,00613DF8,true,Rx,0,8,83,00,06,00,00,00,00,00,
640615886,00400066,true,Rx,0,8,C0,00,00,06,01,5E,40,7F,
640617027,01213FFC,true,Rx,0,8,4C,00,4D,00,F0,41,88,00,
640618128,01C030A2,true,Rx,0,8,40,5B,40,01,89,01,14,00,
640619511,0140044A,true,Rx,0,8,80,00,00,18,00,00,00,00,
640622875,02001022,true,Rx,0,8,C0,00,00,01,35,90,10,43,
640630873,0261300A,true,Rx,0,8,00,00,00,27,80,00,00,C0,
640632034,00613DF8,true,Rx,0,8,C1,00,06,00,00,00,00,00,
640633208,01800028,true,Rx,0,8,80,00,78,00,00,00,00,00,
640634374,01E01266,true,Rx,0,8,00,00,02,00,00,00,40,00,
640635538,0240102A,true,Rx,0,8,C0,00,00,00,00,00,00,00,
640636663,02A03028,true,Rx,0,8,00,10,54,11,10,2B,80,00,
640637817,0280142A,true,Rx,0,8,C0,10,00,20,07,00,00,00,
640638999,03200008,true,Rx,0,8,00,00,00,00,00,80,00,00,
640641285,01213FFC,true,Rx,0,8,8C,00,4D,00,F0,01,88,00,
640646485,03C0002A,true,Rx,0,8,00,00,30,C0,2D,00,1F,00,
640651415,00613DF8,true,Rx,0,8,03,00,06,00,00,00,00,00,
640652556,0340024C,true,Rx,0,8,C0,00,60,00,0C,96,00,00,
640656444,02C13428,true,Rx,0,8,00,00,58,80,6C,00,20,00,
640657586,02E10DF4,true,Rx,0,8,00,A9,20,A0,90,30,08,10,
640659469,0140044A,true,Rx,0,8,C0,00,00,08,00,00,00,00,
640660837,0261300A,true,Rx,0,8,40,00,00,27,80,00,00,C0,
640661941,01C030A2,true,Rx,0,8,80,5B,40,01,89,01,14,00,
640666301,01213FFC,true,Rx,0,8,CC,00,4D,00,E0,01,88,00,
640667483,0240102A,true,Rx,0,8,01,00,00,00,00,00,00,00,
640668615,02001022,true,Rx,0,8,00,00,00,01,35,90,10,43,
640669760,0280142A,true,Rx,0,8,00,50,00,20,07,00,00,00,
640671297,00613DF8,true,Rx,0,8,41,00,06,00,00,00,00,00,
640672480,01800028,true,Rx,0,8,C0,00,78,00,00,00,00,00,
640673615,02A03028,true,Rx,0,8,00,90,84,11,10,2B,00,00,
640674748,03801028,true,Rx,0,8,8C,00,20,08,DC,43,00,00,
640677714,01E01266,true,Rx,0,8,40,00,02,00,00,00,40,00,
640690888,00400066,true,Rx,0,8,00,00,00,07,01,5E,40,7F,
640692049,00613DF8,true,Rx,0,8,83,00,06,00,00,00,00,00,
640693203,01213FFC,true,Rx,0,8,0C,00,4D,00,F0,01,88,00,
640694338,0261300A,true,Rx,0,8,80,00,00,27,80,00,00,C0,
640697442,0280142A,true,Rx,0,8,40,50,00,28,07,00,00,00,
640699480,0140044A,true,Rx,0,8,00,00,00,08,00,00,00,00,
640701488,0240102A,true,Rx,0,8,41,00,00,00,00,00,00,00,
640706283,01C030A2,true,Rx,0,8,C0,5B,40,01,89,01,14,00,
640707403,02A03028,true,Rx,0,8,00,90,C4,19,10,2B,00,00,
640711281,00613DF8,true,Rx,0,8,C1,00,06,00,00,00,00,00,
640712495,01800028,true,Rx,0,8,00,00,78,00,00,00,00,00,
640713626,02001022,true,Rx,0,8,40,00,00,01,35,90,10,43,
640714741,02C13428,true,Rx,0,8,40,00,58,80,6C,00,20,00,
640715853,02E10DF4,true,Rx,0,8,40,A9,20,A0,90,30,08,10,
640716999,01213FFC,true,Rx,0,8,4C,00,4D,00,E0,41,88,00,
640721505,0261300A,true,Rx,0,8,C0,00,00,27,80,00,00,C0,
640722893,01E01266,true,Rx,0,8,80,00,02,00,00,00,40,00,
640727457,0280142A,true,Rx,0,8,80,10,00,20,07,00,00,00,
640731276,00613DF8,true,Rx,0,8,03,00,06,00,00,00,00,00,
640736475,0240102A,true,Rx,0,8,81,00,00,00,00,00,00,00,
640739425,0140044A,true,Rx,0,8,40,00,00,18,00,00,00,00,
640741236,01213FFC,true,Rx,0,8,8C,00,4D,00,F0,01,88,00,
640742378,02A03028,true,Rx,0,8,00,90,84,11,10,2B,00,00,
640743560,03200008,true,Rx,0,8,00,00,00,00,00,80,00,00,
640751027,01C030A2,true,Rx,0,8,00,5B,40,01,89,01,14,00,
640752191,00613DF8,true,Rx,0,8,41,00,06,00,00,00,00,00,
640753373,01800028,true,Rx,0,8,40,00,78,00,00,00,00,00,
640754509,0261300A,true,Rx,0,8,00,00,00,27,80,00,00,C0,
640757438,0280142A,true,Rx,0,8,C0,50,00,20,07,00,00,00,
640758578,02001022,true,Rx,0,8,80,00,00,01,35,90,10,43,
640761266,01613FFC,true,Rx,0,8,01,0F,B0,55,D2,52,00,09,
640766257,01213FFC,true,Rx,0,8,CC,00,4D,00,F0,01,88,00,
640767399,00400066,true,Rx,0,8,40,00,00,00,01,5E,40,7F,
640768550,01E01266,true,Rx,0,8,C0,00,06,00,00,00,40,00,
640769674,02C13428,true,Rx,0,8,80,00,58,80,6C,00,20,00,
640770798,02E10DF4,true,Rx,0,8,80,A9,00,20,90,30,08,10,
640771963,00613DF8,true,Rx,0,8,83,00,06,00,00,00,00,00,
640773119,0240102A,true,Rx,0,8,C0,00,00,00,00,00,00,00,
640776393,02A03028,true,Rx,0,8,00,90,84,11,10,2B,00,00,
640779426,0140044A,true,Rx,0,8,80,00,00,08,00,00,00,00,
640781784,0261300A,true,Rx,0,8,40,00,00,27,80,00,00,C0,
640787441,0280142A,true,Rx,0,8,00,50,00,20,07,00,00,00,
640791314,00613DF8,true,Rx,0,8,C1,00,06,00,00,00,00,00,
640792455,01213FFC,true,Rx,0,8,0C,00,4D,00,E0,01,88,00,
640793628,01800028,true,Rx,0,8,80,00,78,00,00,00,00,00,
640796398,01C030A2,true,Rx,0,8,40,5B,40,01,89,01,14,00,
640802794,02001022,true,Rx,0,8,C0,00,00,01,35,90,10,43,
640806458,0240102A,true,Rx,0,8,01,00,00,00,00,00,00,00,
640811286,00613DF8,true,Rx,0,8,03,00,06,00,00,00,00,00,
640812418,0261300A,true,Rx,0,8,80,00,00,27,80,00,00,C0,
640813591,01E01266,true,Rx,0,8,00,00,02,00,00,00,40,00,
640814715,02A03028,true,Rx,0,8,00,90,C4,19,10,2B,00,00,
640816507,01213FFC,true,Rx,0,8,4C,00,4D,00,F0,41,88,00,
640817649,0280142A,true,Rx,0,8,40,10,00,20,07,00,00,00,
640819450,0140044A,true,Rx,0,8,C0,00,00,18,00,00,00,00,
640821267,02C13428,true,Rx,0,8,C0,00,58,80,6C,00,20,00,
640822379,02E10DF4,true,Rx,0,8,C0,A9,20,A0,90,30,08,10,
640831241,00613DF8,true,Rx,0,8,41,00,06,00,00,00,00,00,
640832433,01800028,true,Rx,0,8,C0,00,78,00,00,00,00,00,
640833586,0340024C,true,Rx,0,8,00,00,60,00,04,96,00,00,
640841011,01C030A2,true,Rx,0,8,80,5B,40,01,89,01,14,00,
640842165,00400066,true,Rx,0,8,80,00,00,01,01,5E,40,7F,
640843306,01213FFC,true,Rx,0,8,8C,00,4D,00,F0,01,88,00,
640844472,0240102A,true,Rx,0,8,41,00,00,00,00,00,00,00,
640845595,0261300A,true,Rx,0,8,C0,00,00,27,80,00,00,C0,
640846730,02A03028,true,Rx,0,8,00,90,84,11,10,2B,00,00,
640847874,02001022,true,Rx,0,8,00,00,00,01,35,90,10,43,
640849010,0280142A,true,Rx,0,8,80,50,00,20,07,00,00,00,
640850196,03200008,true,Rx,0,8,00,00,00,00,00,80,00,00,
640851358,00613DF8,true,Rx,0,8,83,00,06,00,00,00,00,00,
640857624,01E01266,true,Rx,0,8,40,00,02,00,00,00,40,00,
640859476,0140044A,true,Rx,0,8,00,00,00,08,00,00,00,00,
640866199,01213FFC,true,Rx,0,8,CC,00,4D,00,E0,01,88,00,
640871285,00613DF8,true,Rx,0,8,C1,00,06,00,00,00,00,00,
640872498,01800028,true,Rx,0,8,00,00,78,00,00,00,00,00,
640873629,0261300A,true,Rx,0,8,00,00,00,27,80,00,00,C0,
640876461,0240102A,true,Rx,0,8,80,00,00,00,00,00,00,00,
640877602,0280142A,true,Rx,0,8,C0,50,00,20,07,00,00,00,
640878726,02C13428,true,Rx,0,8,00,00,58,80,6C,00,20,00,
640879860,02E10DF4,true,Rx,0,8,00,A9,00,20,90,30,08,10,
640881285,02A03028,true,Rx,0,8,00,90,94,11,10,2B,80,00,
640882696,03A00002,true,Rx,0,8,00,00,00,04,07,04,98,5E,
640886337,01C030A2,true,Rx,0,8,C0,5B,40,01,89,01,14,00,
640891287,00613DF8,true,Rx,0,8,03,00,06,00,00,00,00,00,
640892438,01213FFC,true,Rx,0,8,0C,00,4D,00,F0,01,88,00,
640893570,02001022,true,Rx,0,8,40,00,00,01,35,90,10,43,
640899453,0140044A,true,Rx,0,8,40,00,00,08,00,00,00,00,
640902310,0261300A,true,Rx,0,8,40,00,00,27,80,00,00,C0,
640903472,01E01266,true,Rx,0,8,80,00,02,00,00,00,40,00,
640907412,0280142A,true,Rx,0,8,00,10,00,28,07,00,00,00,
640911284,00613DF8,true,Rx,0,8,41,00,06,00,00,00,00,00,
640912467,01800028,true,Rx,0,8,40,00,78,00,00,00,00,00,
640913629,0240102A,true,Rx,0,8,C1,00,00,00,00,00,00,00,
640916367,01213FFC,true,Rx,0,8,4C,00,4D,00,E0,41,88,00,
640917509,00400066,true,Rx,0,8,C0,00,00,02,01,5E,40,7F,
640918644,02A03028,true,Rx,0,8,00,10,44,19,10,2B,00,00,
640931043,01C030A2,true,Rx,0,8,00,5B,40,01,89,01,14,00,
640932196,00613DF8,true,Rx,0,8,83,00,06,00,00,00,00,00,
640933337,0261300A,true,Rx,0,8,80,00,00,27,80,00,00,C0,
640934462,02C13428,true,Rx,0,8,40,00,58,80,6C,00,20,00,
640935575,02E10DF4,true,Rx,0,8,40,A9,20,A0,90,30,08,10,
640937427,0280142A,true,Rx,0,8,40,50,00,20,07,00,00,00,
640938572,02001022,true,Rx,0,8,80,00,00,01,35,90,10,43,
640939726,0140044A,true,Rx,0,8,80,00,00,18,00,00,00,00,
640941270,01213FFC,true,Rx,0,8,8C,00,4D,00,F0,01,88,00,
640946469,0240102A,true,Rx,0,8,03,00,00,00,00,00,00,00,
640947692,01E01266,true,Rx,0,8,C0,00,02,00,00,00,40,00,
640951301,00613DF8,true,Rx,0,8,C1,00,06,00,00,00,00,00,
640952474,01800028,true,Rx,0,8,80,00,78,00,00,00,00,00,
640953605,02A03028,true,Rx,0,8,00,90,84,11,10,2B,00,00,
640954792,03200008,true,Rx,0,8,00,00,00,00,00,80,00,00,
640962829,0261300A,true,Rx,0,8,C0,00,00,27,80,00,00,C0,
640966235,01213FFC,true,Rx,0,8,CC,00,4D,00,F0,01,88,00,
640967449,0280142A,true,Rx,0,8,80,50,00,20,07,00,00,00,
640971255,00613DF8,true,Rx,0,8,03,00,06,00,00,00,00,00,
640976319,01C030A2,true,Rx,0,8,40,5B,40,01,89,01,14,00,
640979414,0140044A,true,Rx,0,8,C0,00,00,08,00,00,00,00,
640981420,0240102A,true,Rx,0,8,40,00,00,00,00,00,00,00,
640982799,02001022,true,Rx,0,8,C0,00,00,01,35,90,10,43,
640986254,02A03028,true,Rx,0,8,00,90,84,11,10,2B,00,00,
640987366,02C13428,true,Rx,0,8,80,00,58,80,6C,00,20,00,
640988497,02E10DF4,true,Rx,0,8,80,A9,00,20,90,30,08,10,
640991308,00613DF8,true,Rx,0,8,41,00,06,00,00,00,00,00,
640992451,01213FFC,true,Rx,0,8,0C,00,4D,00,E0,01,88,00,
640993596,00400066,true,Rx,0,8,00,00,00,03,01,5E,40,7F,
640994782,01800028,true,Rx,0,8,C0,00,78,00,00,00,00,00,
640995947,01E01266,true,Rx,0,8,00,00,02,00,00,00,40,00,
640997081,0261300A,true,Rx,0,8,00,00,00,27,80,00,00,C0,
640998238,0280142A,true,Rx,0,8,C0,10,00,20,07,00,00,00,
640999363,03801028,true,Rx,0,8,CC,00,20,08,9C,43,00,00,
641011219,00613DF8,true,Rx,0,8,83,00,06,00,00,00,00,00,
641012349,0340024C,true,Rx,0,8,40,00,70,00,0C,96,00,00,
641016250,01213FFC,true,Rx,0,8,4C,00,4D,00,F0,41,88,00,
641017411,0240102A,true,Rx,0,8,81,00,00,00,00,00,00,00,
641019460,0140044A,true,Rx,0,8,00,00,00,18,00,00,00,00,
641021138,01C030A2,true,Rx,0,8,80,5B,40,01,89,01,14,00,
641022262,02A03028,true,Rx,0,8,00,90,C4,19,10,2B,00,00,
641023396,0261300A,true,Rx,0,8,40,00,00,27,80,00,00,C0,
641027397,0280142A,true,Rx,0,8,00,50,00,20,07,00,00,00,
641028539,02001022,true,Rx,0,8,00,00,00,01,35,90,10,43,
641031289,00613DF8,true,Rx,0,8,C1,00,06,00,00,00,00,00,
641032503,01800028,true,Rx,0,8,00,00,78,00,00,00,00,00,
641037665,01E01266,true,Rx,0,8,40,00,02,00,00,00,40,00,
641039395,04000002,true,Rx,0,8,80,00,01,00,B4,00,00,4E,
641041269,01213FFC,true,Rx,0,8,8C,00,4D,00,F0,01,88,00,
641042452,01613FFC,true,Rx,0,8,FF,00,00,00,00,00,00,00,
641043577,02C13428,true,Rx,0,8,C0,00,58,80,6C,00,20,00,
641044690,02E10DF4,true,Rx,0,8,C0,A9,20,A0,90,30,08,10,
641051251,00613DF8,true,Rx,0,8,03,00,06,00,00,00,00,00,
641052414,0240102A,true,Rx,0,8,C1,00,00,00,00,00,00,00,
641053544,0261300A,true,Rx,0,8,80,00,00,27,80,00,00,C0,
641056409,03C0002A,true,Rx,0,8,00,00,30,C0,2D,00,9F,00,
641057560,0280142A,true,Rx,0,8,40,50,00,20,07,00,00,00,
641058696,02A03028,true,Rx,0,8,00,90,84,11,10,2B,00,00,
641059859,0140044A,true,Rx,0,8,40,00,00,08,00,00,00,00,
641061046,03200008,true,Rx,0,8,00,00,00,00,00,80,00,00,
641066279,01213FFC,true,Rx,0,8,CC,00,4D,00,E0,01,88,00,
641067399,01C030A2,true,Rx,0,8,C0,5B,40,01,89,01,14,00,
641068726,00400066,true,Rx,0,8,40,00,00,04,01,5E,40,7F,
641071361,00613DF8,true,Rx,0,8,41,00,06,00,00,00,00,00,
641072545,01800028,true,Rx,0,8,40,00,78,00,00,00,00,00,
641073680,02001022,true,Rx,0,8,40,00,00,01,35,90,10,43,
641082804,01E01266,true,Rx,0,8,80,00,02,00,00,00,40,00,
641083936,0261300A,true,Rx,0,8,C0,00,00,27,80,00,00,C0,
641086408,0240102A,true,Rx,0,8,01,00,00,00,00,00,00,00,
641087570,0280142A,true,Rx,0,8,81,10,00,20,07,00,00,00,
641091322,00613DF8,true,Rx,0,8,83,00,06,00,00,00,00,00,
641092474,01213FFC,true,Rx,0,8,0C,00,4D,00,F0,01,88,00,
641093616,02A03028,true,Rx,0,8,00,90,84,11,10,2B,00,00,
641096510,02C13428,true,Rx,0,8,00,00,58,80,6C,00,20,00,
641097641,02E10DF4,true,Rx,0,8,00,A9,00,20,90,30,08,10,
641099442,0140044A,true,Rx,0,8,80,00,00,08,00,00,00,00,
641111046,01C030A2,true,Rx,0,8,00,5B,40,01,89,01,14,00,
641112209,00613DF8,true,Rx,0,8,C1,00,06,00,00,00,00,00,
641113382,01800028,true,Rx,0,8,80,00,78,00,00,00,00,00,
641114516,0261300A,true,Rx,0,8,00,00,00,27,80,00,00,C0,
641116495,01213FFC,true,Rx,0,8,4C,00,4D,00,E0,41,88,00,
641117637,0280142A,true,Rx,0,8,C0,50,00,28,07,00,00,00,
641118782,02001022,true,Rx,0,8,80,00,00,01,35,90,10,43,
641121454,0240102A,true,Rx,0,8,40,00,00,00,00,00,00,00,
641126250,02A03028,true,Rx,0,8,00,90,D4,19,10,2B,80,00,
641127689,01E01266,true,Rx,0,8,C0,00,02,00,00,00,40,00,
641131249,00613DF8,true,Rx,0,8,03,00,06,00,00,00,00,00,
641139402,0140044A,true,Rx,0,8,C0,00,00,18,00,00,00,00,
641141192,01213FFC,true,Rx,0,8,8C,00,4D,00,F0,01,88,00,
641143799,00400066,true,Rx,0,8,80,00,00,05,01,5E,40,7F,
641144929,0261300A,true,Rx,0,8,40,00,00,27,80,00,00,C0,
641147392,0280142A,true,Rx,0,8,00,50,00,20,07,00,00,00,
641151293,00613DF8,true,Rx,0,8,41,00,06,00,00,00,00,00,
641152476,01800028,true,Rx,0,8,C0,00,78,00,00,00,00,00,
641153596,02C13428,true,Rx,0,8,40,00,58,80,6C,00,20,00,
641154712,02E10DF4,true,Rx,0,8,40,A9,20,A0,90,30,08,10,
641156392,01C030A2,true,Rx,0,8,40,5B,40,01,89,01,14,00,
641157555,0240102A,true,Rx,0,8,81,00,00,00,00,00,00,00,
641161251,02A03028,true,Rx,0,8,00,90,84,11,10,2B,00,00,
641162434,03200008,true,Rx,0,8,00,00,00,00,00,80,00,00,
641163564,02001022,true,Rx,0,8,C0,00,00,01,35,90,10,43,
641166181,01213FFC,true,Rx,0,8,CC,00,4D,00,F0,01,88,00,
641171239,00613DF8,true,Rx,0,8,83,00,06,00,00,00,00,00,
641172720,01E01266,true,Rx,0,8,00,00,02,00,00,00,40,00,
641173852,0261300A,true,Rx,0,8,80,00,00,27,80,00,00,C0,
641177384,0280142A,true,Rx,0,8,40,10,00,20,07,00,00,00,
641179403,0140044A,true,Rx,0,8,00,00,00,08,00,00,00,00,
641191265,00613DF8,true,Rx,0,8,C1,00,06,00,00,00,00,00,
641192407,01213FFC,true,Rx,0,8,0C,00,4D,00,E0,01,88,00,
641193620,01800028,true,Rx,0,8,00,00,78,00,00,00,00,00,
641194786,0240102A,true,Rx,0,8,C1,00,00,00,00,00,00,00,
641195919,0340024C,true,Rx,0,8,80,00,60,00,0C,96,00,00,
641197045,02A03028,true,Rx,0,8,00,10,04,11,10,2B,00,00,
641201033,01C030A2,true,Rx,0,8,80,5B,40,01,89,01,14,00,
641204109,0261300A,true,Rx,0,8,C0,00,00,27,80,00,00,C0,
641206240,02C13428,true,Rx,0,8,80,00,58,80,6C,00,20,00,
641207361,02E10DF4,true,Rx,0,8,80,A9,20,A0,90,30,08,10,
641208493,02001022,true,Rx,0,8,00,00,00,01,35,90,10,43,
641209638,0280142A,true,Rx,0,8,80,50,00,20,07,00,00,00,
641211236,00613DF8,true,Rx,0,8,03,00,06,00,00,00,00,00,
641216315,01213FFC,true,Rx,0,8,4C,00,4D,00,F0,41,88,00,
641217724,01E01266,true,Rx,0,8,40,00,02,00,00,00,40,00,
641219341,00400066,true,Rx,0,8,C0,00,00,06,01,5E,40,7F,
641220503,0140044A,true,Rx,0,8,40,00,00,18,00,00,00,00,
641226416,0240102A,true,Rx,0,8,00,00,00,00,00,00,00,00,
641231286,00613DF8,true,Rx,0,8,41,00,06,00,00,00,00,00,
641232469,01800028,true,Rx,0,8,40,00,78,00,00,00,00,00,
641233590,02A03028,true,Rx,0,8,00,90,C4,19,10,2B,00,00,
641234724,0261300A,true,Rx,0,8,00,00,00,27,80,00,00,C0,
641237373,0280142A,true,Rx,0,8,C0,50,00,20,07,00,00,00,
641241267,01213FFC,true,Rx,0,8,8C,00,4D,00,F0,01,88,00,
641246392,01C030A2,true,Rx,0,8,C0,5B,40,01,89,01,14,00,
641251230,00613DF8,true,Rx,0,8,83,00,06,00,00,00,00,00,
641252865,02001022,true,Rx,0,8,40,00,00,01,35,90,10,43,
641259420,0140044A,true,Rx,0,8,80,00,00,08,00,00,00,00,
641261190,02C13428,true,Rx,0,8,C0,00,58,80,6C,00,20,00,
641262363,0240102A,true,Rx,0,8,41,00,00,00,00,00,00,00,
641263536,01E01266,true,Rx,0,8,80,00,06,00,00,00,40,00,
641264670,0261300A,true,Rx,0,8,40,00,00,27,80,00,00,C0,
641265793,02E10DF4,true,Rx,0,8,C0,A9,00,20,90,30,08,10,
641266928,01213FFC,true,Rx,0,8,CC,00,4D,00,E0,01,88,00,
641268071,0280142A,true,Rx,0,8,00,10,00,20,07,00,00,00,
641269208,02A03028,true,Rx,0,8,00,90,84,11,10,2B,00,00,
641270392,03200008,true,Rx,0,8,00,00,00,00,00,80,00,00,
641271554,00613DF8,true,Rx,0,8,C1,00,06,00,00,00,00,00,
641272731,01800028,true,Rx,0,8,80,00,78,00,00,00,00,00,
641291056,01C030A2,true,Rx,0,8,00,5B,40,01,89,01,14,00,
641292220,00613DF8,true,Rx,0,8,03,00,06,00,00,00,00,00,
641293371,01213FFC,true,Rx,0,8,0C,00,4D,00,F0,01,88,00,
641294630,00400066,true,Rx,0,8,00,00,00,07,01,5E,40,7F,
641295763,0261300A,true,Rx,0,8,80,00,00,27,80,00,00,C0,
641296930,0240102A,true,Rx,0,8,83,00,00,00,00,00,00,00,
641298074,02001022,true,Rx,0,8,80,00,00,01,35,90,10,43,
641299205,0280142A,true,Rx,0,8,40,50,00,28,07,00,00,00,
641300372,0140044A,true,Rx,0,8,C0,00,00,08,00,00,00,00,
641301495,02A03028,true,Rx,0,8,00,90,C4,19,10,2B,00,00,
641302620,03A00002,true,Rx,0,8,40,00,00,04,07,04,98,5E,
641307673,01E01266,true,Rx,0,8,C0,00,02,00,00,00,40,00,
641311256,00613DF8,true,Rx,0,8,41,00,06,00,00,00,00,00,
641312438,01800028,true,Rx,0,8,C0,00,78,00,00,00,00,00,
641313580,03801028,true,Rx,0,8,0C,00,20,08,9C,43,00,00,
641316329,01213FFC,true,Rx,0,8,4C,00,4D,00,E0,41,88,00,
641317461,02C13428,true,Rx,0,8,00,00,58,80,6C,00,20,00,
641318596,02E10DF4,true,Rx,0,8,00,A9,20,A0,90,30,08,10,
641321194,01613FFC,true,Rx,0,8,14,02,02,01,01,02,02,56,
641325045,0261300A,true,Rx,0,8,C0,00,00,27,80,00,00,C0,
641327364,0280142A,true,Rx,0,8,80,50,00,20,07,00,00,00,
641331267,00613DF8,true,Rx,0,8,83,00,06,00,00,00,00,00,
641332429,0240102A,true,Rx,0,8,C0,00,00,00,00,00,00,00,
641336348,02A03028,true,Rx,0,8,00,90,84,11,10,2B,00,00,
641337460,01C030A2,true,Rx,0,8,40,5B,40,01,89,01,14,00,
641339404,0140044A,true,Rx,0,8,00,00,00,18,00,00,00,00,
641341238,01213FFC,true,Rx,0,8,8C,00,4D,00,F0,01,88,00,
641342873,02001022,true,Rx,0,8,C0,00,00,01,35,90,10,43,
641351260,00613DF8,true,Rx,0,8,C1,00,06,00,00,00,00,00,
641352472,01800028,true,Rx,0,8,00,00,78,00,00,00,00,00,
641353645,01E01266,true,Rx,0,8,00,00,02,00,00,00,40,00,
641355069,0261300A,true,Rx,0,8,00,00,00,27,80,00,00,C0,
641357368,0280142A,true,Rx,0,8,C0,10,00,20,07,00,00,00,
641366234,01213FFC,true,Rx,0,8,CC,00,4D,00,F0,01,88,00,
641367407,0240102A,true,Rx,0,8,01,00,00,00,00,00,00,00,
641370301,00400066,true,Rx,0,8,40,00,00,00,01,5E,40,7F,
641371462,00613DF8,true,Rx,0,8,03,00,06,00,00,00,00,00,
641372594,02A03028,true,Rx,0,8,00,90,94,11,10,2B,80,00,
641373718,02C13428,true,Rx,0,8,40,00,58,80,6C,00,20,00,
641374830,02E10DF4,true,Rx,0,8,40,A9,00,20,90,30,08,10,
641376017,03200008,true,Rx,0,8,00,00,00,00,00,80,00,00,
641377141,0340024C,true,Rx,0,8,C1,00,70,01,0C,96,00,00,
641379384,0140044A,true,Rx,0,8,40,00,00,08,00,00,00,00,
641381093,01C030A2,true,Rx,0,8,80,5B,40,01,89,01,14,00,
641385197,0261300A,true,Rx,0,8,40,00,00,27,80,00,00,C0,
641387349,0280142A,true,Rx,0,8,00,50,00,20,07,00,00,00,
641388490,02001022,true,Rx,0,8,00,00,00,01,35,90,10,43,
641391343,00613DF8,true,Rx,0,8,41,00,06,00,00,00,00,00,
641392483,01213FFC,true,Rx,0,8,0C,00,4D,00,E0,01,88,00,
641393666,01800028,true,Rx,0,8,40,00,78,00,00,00,00,00,
641397756,01E01266,true,Rx,0,8,40,00,02,00,00,00,40,00,
641401360,0240102A,true,Rx,0,8,41,00,00,00,00,00,00,00,
641406156,02A03028,true,Rx,0,8,00,90,C4,19,10,2B,00,00,
641411231,00613DF8,true,Rx,0,8,83,00,06,00,00,00,00,00,
641415383,0261300A,true,Rx,0,8,80,00,00,27,80,00,00,C0,
641416525,01213FFC,true,Rx,0,8,4C,00,4D,00,F0,41,88,00,
641417677,0280142A,true,Rx,0,8,40,50,00,20,07,00,00,00,
641419410,0140044A,true,Rx,0,8,80,00,00,18,00,00,00,00,
641426259,02C13428,true,Rx,0,8,80,00,58,80,6C,00,20,00,
641427380,01C030A2,true,Rx,0,8,C0,5B,40,01,89,01,14,00,
641428501,02E10DF4,true,Rx,0,8,80,A9,20,A0,90,30,08,10,
641431251,00613DF8,true,Rx,0,8,C1,00,06,00,00,00,00,00,
641432422,01800028,true,Rx,0,8,80,00,78,00,00,00,00,00,
641433558,02001022,true,Rx,0,8,40,00,00,01,35,90,10,43,
641436382,0240102A,true,Rx,0,8,81,00,00,00,00,00,00,00,
641441208,01213FFC,true,Rx,0,8,8C,00,4D,00,F0,01,88,00,
641442338,02A03028,true,Rx,0,8,00,90,84,11,10,2B,00,00,
641443511,01E01266,true,Rx,0,8,80,00,02,00,00,00,40,00,
641445466,00400066,true,Rx,0,8,80,00,00,01,01,5E,40,7F,
641446592,0261300A,true,Rx,0,8,C0,00,00,27,80,00,00,C0,
641447745,0280142A,true,Rx,0,8,80,10,00,20,07,00,00,00,
641451371,00613DF8,true,Rx,0,8,03,00,06,00,00,00,00,00,
641459421,0140044A,true,Rx,0,8,C0,00,00,08,00,00,00,00,
641466184,01213FFC,true,Rx,0,8,CC,00,4D,00,E0,01,88,00,
641467316,03C0002A,true,Rx,0,8,00,00,30,C0,2D,00,1F,00,
641471173,01C030A2,true,Rx,0,8,00,5B,40,01,89,01,14,00,
641472335,00613DF8,true,Rx,0,8,41,00,06,00,00,00,00,00,
641473518,01800028,true,Rx,0,8,C0,00,78,00,00,00,00,00,
641474674,0240102A,true,Rx,0,8,C0,00,00,00,00,00,00,00,
641475808,0261300A,true,Rx,0,8,00,00,00,27,80,00,00,C0,
641476942,02A03028,true,Rx,0,8,00,10,04,11,10,2B,00,00,
641478087,02001022,true,Rx,0,8,80,00,00,01,35,90,10,43,
641479222,0280142A,true,Rx,0,8,C0,50,00,20,07,00,00,00,
641480407,03200008,true,Rx,0,8,00,00,00,00,00,80,00,00,
641481538,02C13428,true,Rx,0,8,C0,00,58,80,6C,00,20,00,
641482663,02E10DF4,true,Rx,0,8,C0,A9,00,20,90,30,08,10,
641487705,01E01266,true,Rx,0,8,C0,00,02,00,00,00,40,00,
641491257,00613DF8,true,Rx,0,8,83,00,06,00,00,00,00,00,
641492409,01213FFC,true,Rx,0,8,0C,00,4D,00,F0,01,88,00,
641499427,0140044A,true,Rx,0,8,00,00,00,08,00,00,00,00,
641500578,04000002,true,Rx,0,8,C0,00,01,00,F4,00,00,4E,
641505482,0261300A,true,Rx,0,8,40,00,00,27,80,00,00,C0,
641506665,0240102A,true,Rx,0,8,01,00,00,00,00,00,00,00,
641507807,0280142A,true,Rx,0,8,00,50,00,28,07,00,00,00,
641511310,00613DF8,true,Rx,0,8,C1,00,06,00,00,00,00,00,
641512524,01800028,true,Rx,0,8,00,00,78,00,00,00,00,00,
641513644,02A03028,true,Rx,0,8,00,90,C4,19,10,2B,00,00,
641516394,01213FFC,true,Rx,0,8,4C,00,4D,00,E0,41,88,00,
641517498,01C030A2,true,Rx,0,8,40,5B,40,01,89,01,14,00,
641520729,00400066,true,Rx,0,8,C0,00,00,02,01,5E,40,7F,
641522933,02001022,true,Rx,0,8,C0,00,00,01,35,90,10,43,
641531241,00613DF8,true,Rx,0,8,03,00,06,00,00,00,00,00,
641532712,01E01266,true,Rx,0,8,00,00,02,00,00,00,40,00,
641535876,0261300A,true,Rx,0,8,80,00,00,27,80,00,00,C0,
641537008,02C13428,true,Rx,0,8,00,00,58,80,6C,00,20,00,
641538150,0280142A,true,Rx,0,8,40,10,00,20,07,00,00,00,
641539286,02E10DF4,true,Rx,0,8,00,A9,20,A0,90,30,08,10,
641540449,0140044A,true,Rx,0,8,40,00,00,18,00,00,00,00,
641541585,01213FFC,true,Rx,0,8,8C,00,4D,00,F0,01,88,00,
641542748,0240102A,true,Rx,0,8,41,00,00,00,00,00,00,00,
641546293,02A03028,true,Rx,0,8,00,90,84,11,10,2B,00,00,
641551223,00613DF8,true,Rx,0,8,41,00,06,00,00,00,00,00,
641552406,01800028,true,Rx,0,8,40,00,78,00,00,00,00,00,
641553536,0340024C,true,Rx,0,8,01,00,60,01,04,96,00,00,
641561057,01C030A2,true,Rx,0,8,80,5B,40,01,89,01,14,00,
641565913,0261300A,true,Rx,0,8,C0,00,00,27,80,00,00,C0,
641567055,01213FFC,true,Rx,0,8,CC,00,4D,00,F0,01,88,00,
641568187,02001022,true,Rx,0,8,00,00,00,01,35,90,10,43,
641569333,0280142A,true,Rx,0,8,80,50,00,20,07,00,00,00,
641571280,00613DF8,true,Rx,0,8,83,00,06,00,00,00,00,00,
641576361,0240102A,true,Rx,0,8,80,00,00,00,00,00,00,00,
641577760,01E01266,true,Rx,0,8,40,00,02,00,00,00,40,00,
641579366,0140044A,true,Rx,0,8,80,00,00,08,00,00,00,00,
641581239,02A03028,true,Rx,0,8,00,90,84,11,10,2B,00,00,
641582426,03200008,true,Rx,0,8,00,00,00,00,00,80,00,00,
641591295,00613DF8,true,Rx,0,8,C1,00,06,00,00,00,00,00,
641592447,01213FFC,true,Rx,0,8,0C,00,4D,00,E0,01,88,00,
641593619,01800028,true,Rx,0,8,80,00,78,00,00,00,00,00,
641594737,02C13428,true,Rx,0,8,40,00,58,80,6C,00,20,00,
641595859,02E10DF4,true,Rx,0,8,40,A9,00,20,90,30,08,10,
641597005,00400066,true,Rx,0,8,00,00,00,03,01,5E,40,7F,
641598139,0261300A,true,Rx,0,8,00,00,00,27,80,00,00,C0,
641599285,0280142A,true,Rx,0,8,C0,50,00,20,07,00,00,00,
641601366,01613FFC,true,Rx,0,8,19,05,01,01,01,02,01,01,
641606399,01C030A2,true,Rx,0,8,C0,5B,40,01,89,01,14,00,
641611225,00613DF8,true,Rx,0,8,03,00,06,00,00,00,00,00,
641612388,0240102A,true,Rx,0,8,C1,00,00,00,00,00,00,00,
641613518,02001022,true,Rx,0,8,40,00,00,01,35,90,10,43,
641616301,01213FFC,true,Rx,0,8,4C,00,4D,00,F0,41,88,00,
641617421,02A03028,true,Rx,0,8,00,90,D4,19,10,2B,80,00,
641619409,0140044A,true,Rx,0,8,C0,00,00,18,00,00,00,00,
641622982,01E01266,true,Rx,0,8,80,00,02,00,00,00,40,00,
641626023,0261300A,true,Rx,0,8,40,00,00,27,80,00,00,C0,
641627361,0280142A,true,Rx,0,8,00,10,00,20,07,00,00,00,
641631281,00613DF8,true,Rx,0,8,41,00,06,00,00,00,00,00,
641632464,01800028,true,Rx,0,8,C0,00,78,00,00,00,00,00,
641633584,03801028,true,Rx,0,8,44,00,20,08,DC,43,00,00,
641641178,01213FFC,true,Rx,0,8,8C,00,4D,00,F0,01,88,00,
641646128,02C13428,true,Rx,0,8,80,00,58,80,6C,00,20,00,
641647280,0240102A,true,Rx,0,8,03,00,00,00,00,00,00,00,
641648401,02E10DF4,true,Rx,0,8,80,A9,20,A0,90,30,08,10,
641651119,01C030A2,true,Rx,0,8,00,5B,40,01,89,01,14,00,
641652282,00613DF8,true,Rx,0,8,83,00,06,00,00,00,00,00,
641653418,02A03028,true,Rx,0,8,00,90,84,11,10,2B,00,00,
641656149,0261300A,true,Rx,0,8,80,00,00,27,80,00,00,C0,
641657362,0280142A,true,Rx,0,8,40,50,00,20,07,00,00,00,
641658504,02001022,true,Rx,0,8,80,00,00,01,35,90,10,43,
641659690,0140044A,true,Rx,0,8,00,00,00,08,00,00,00,00,
641666257,01213FFC,true,Rx,0,8,CC,00,4D,00,E0,01,88,00,
641667727,01E01266,true,Rx,0,8,C0,00,02,00,00,00,40,00,
641671234,00613DF8,true,Rx,0,8,C1,00,06,00,00,00,00,00,
641672376,00400066,true,Rx,0,8,40,00,00,04,01,5E,40,7F,
641673589,01800028,true,Rx,0,8,00,00,78,00,00,00,00,00,
641681308,0240102A,true,Rx,0,8,40,00,00,00,00,00,00,00,
641686206,02A03028,true,Rx,0,8,00,90,84,11,10,2B,00,00,
641687336,0261300A,true,Rx,0,8,C0,00,00,27,80,00,00,C0,
641688478,0280142A,true,Rx,0,8,80,50,00,20,07,00,00,00,
641689664,03200008,true,Rx,0,8,00,00,00,00,00,80,00,00,
641691282,00613DF8,true,Rx,0,8,03,00,06,00,00,00,00,00,
641692435,01213FFC,true,Rx,0,8,0C,00,4D,00,F0,01,88,00,
641696441,01C030A2,true,Rx,0,8,40,5B,40,01,89,01,14,00,
641699392,0140044A,true,Rx,0,8,40,00,00,08,00,00,00,00,
641701214,02C13428,true,Rx,0,8,C0,00,58,80,6C,00,20,00,
641702325,02E10DF4,true,Rx,0,8,C0,A9,20,A0,90,30,08,10,
641703455,02001022,true,Rx,0,8,C0,00,00,01,35,90,10,43,
641711244,00613DF8,true,Rx,0,8,41,00,06,00,00,00,00,00,
641712427,01800028,true,Rx,0,8,40,00,78,00,00,00,00,00,
641713599,01E01266,true,Rx,0,8,00,00,02,00,00,00,40,00,
641714734,03A00002,true,Rx,0,8,80,00,00,04,07,04,98,5E,
641716352,0240102A,true,Rx,0,8,81,00,00,00,00,00,00,00,
641717494,01213FFC,true,Rx,0,8,4C,00,4D,00,E0,41,88,00,
641718628,0261300A,true,Rx,0,8,00,00,00,27,80,00,00,C0,
641719762,0280142A,true,Rx,0,8,C0,10,00,28,07,00,00,00,
641721250,02A03028,true,Rx,0,8,00,90,C4,19,10,2B,00,00,
641731195,00613DF8,true,Rx,0,8,83,00,06,00,00,00,00,00,
641732317,0340024C,true,Rx,0,8,41,00,60,01,0C,96,00,00,
641739355,0140044A,true,Rx,0,8,80,00,00,18,00,00,00,00,
641741062,01C030A2,true,Rx,0,8,80,5B,40,01,89,01,14,00,
641742195,01213FFC,true,Rx,0,8,8C,00,4D,00,F0,01,88,00,
641747232,00400066,true,Rx,0,8,80,00,00,05,01,5E,40,7F,
641748364,02001022,true,Rx,0,8,00,00,00,01,35,90,10,43,
641749504,0261300A,true,Rx,0,8,40,00,00,27,80,00,00,C0,
641750650,0280142A,true,Rx,0,8,00,50,00,20,07,00,00,00,
641751804,00613DF8,true,Rx,0,8,C1,00,06,00,00,00,00,00,
641752980,01800028,true,Rx,0,8,80,00,78,00,00,00,00,00,
641754145,0240102A,true,Rx,0,8,C1,00,00,00,00,00,00,00,
641756471,02A03028,true,Rx,0,8,00,10,04,11,10,2B,00,00,
641757603,02C13428,true,Rx,0,8,00,00,58,80,6C,00,20,00,
641758748,01E01266,true,Rx,0,8,40,00,06,00,00,00,40,00,
641759881,02E10DF4,true,Rx,0,8,00,A9,00,20,90,30,08,10,
641766130,01213FFC,true,Rx,0,8,CC,00,4D,00,F0,01,88,00,
641771226,00613DF8,true,Rx,0,8,03,00,06,00,00,00,00,00,
641777202,0261300A,true,Rx,0,8,80,00,00,27,80,00,00,C0,
641778354,0280142A,true,Rx,0,8,40,50,00,20,07,00,00,00,
641779526,0140044A,true,Rx,0,8,C0,00,00,08,00,00,00,00,
641786322,0240102A,true,Rx,0,8,01,00,00,00,00,00,00,00,
641787444,01C030A2,true,Rx,0,8,C0,5B,40,01,89,01,14,00,
641791291,00613DF8,true,Rx,0,8,41,00,06,00,00,00,00,00,
641792442,01213FFC,true,Rx,0,8,0C,00,4D,00,E0,01,88,00,
641793625,01800028,true,Rx,0,8,C0,00,78,00,00,00,00,00,
641794750,02001022,true,Rx,0,8,40,00,00,01,35,90,10,43,
641795884,02A03028,true,Rx,0,8,00,90,84,11,10,2B,00,00,
641797069,03200008,true,Rx,0,8,00,00,00,00,00,80,00,00,
641802922,01E01266,true,Rx,0,8,80,00,02,00,00,00,40,00,
641807304,0280142A,true,Rx,0,8,80,10,00,20,07,00,00,00,
641808434,0261300A,true,Rx,0,8,C0,00,00,27,80,00,00,C0,
641811246,00613DF8,true,Rx,0,8,83,00,06,00,00,00,00,00,
641812366,02C13428,true,Rx,0,8,40,00,58,80,6C,00,20,00,
641813477,02E10DF4,true,Rx,0,8,40,A9,20,A0,90,30,08,10,
641816339,01213FFC,true,Rx,0,8,4C,00,4D,00,F0,41,88,00,
641819408,0140044A,true,Rx,0,8,00,00,00,18,00,00,00,00,
641821364,0240102A,true,Rx,0,8,40,00,00,00,00,00,00,00,
641822814,00400066,true,Rx,0,8,C0,00,00,06,01,5E,40,7F,
641826280,02A03028,true,Rx,0,8,00,90,C4,19,10,2B,00,00,
641831085,01C030A2,true,Rx,0,8,00,5B,40,01,89,01,14,00,
641832238,00613DF8,true,Rx,0,8,C1,00,06,00,00,00,00,00,
641833452,01800028,true,Rx,0,8,00,00,78,00,00,00,00,00,
641837295,0280142A,true,Rx,0,8,C0,50,00,20,07,00,00,00,
641838436,02001022,true,Rx,0,8,80,00,00,01,35,90,10,43,
641839578,0261300A,true,Rx,0,8,00,00,00,27,80,00,00,C0,
641841259,01213FFC,true,Rx,0,8,8C,00,4D,00,F0,01,88,00,
641847746,01E01266,true,Rx,0,8,C0,00,02,00,00,00,40,00,
641851215,00613DF8,true,Rx,0,8,03,00,06,00,00,00,00,00,
641856332,0240102A,true,Rx,0,8,81,00,00,00,00,00,00,00,
641859386,0140044A,true,Rx,0,8,40,00,00,08,00,00,00,00,
641861188,02A03028,true,Rx,0,8,00,90,94,11,10,2B,80,00,
641866198,01213FFC,true,Rx,0,8,CC,00,4D,00,E0,01,88,00,
641867340,0280142A,true,Rx,0,8,00,50,00,20,07,00,00,00,
641868481,0261300A,true,Rx,0,8,40,00,00,27,80,00,00,C0,
641869596,02C13428,true,Rx,0,8,80,00,58,80,6C,00,20,00,
641870729,02E10DF4,true,Rx,0,8,80,A9,00,20,90,30,08,10,
641871885,00613DF8,true,Rx,0,8,41,00,06,00,00,00,00,00,
641873070,01800028,true,Rx,0,8,40,00,78,00,00,00,00,00,
641876346,03C0002A,true,Rx,0,8,00,00,30,C0,2D,00,1F,00,
641877447,01C030A2,true,Rx,0,8,40,5B,40,01,89,01,14,00,
641881387,01613FFC,true,Rx,0,8,01,0F,B0,55,D2,5E,FF,F6,
641882899,02001022,true,Rx,0,8,C0,00,00,01,35,90,10,43,
641891235,00613DF8,true,Rx,0,8,83,00,06,00,00,00,00,00,
641892397,01213FFC,true,Rx,0,8,0C,00,4D,00,F0,01,88,00,
641893559,01E01266,true,Rx,0,8,00,00,02,00,00,00,40,00,
641894725,0240102A,true,Rx,0,8,C1,00,00,00,00,00,00,00,
641896189,02A03028,true,Rx,0,8,00,90,84,11,10,2B,00,00,
641897320,0280142A,true,Rx,0,8,40,10,00,28,07,00,00,00,
641898465,00400066,true,Rx,0,8,00,00,00,07,01,5E,40,7F,
641899629,0140044A,true,Rx,0,8,80,00,00,08,00,00,00,00,
641900764,0261300A,true,Rx,0,8,80,00,00,27,80,00,00,C0,
641901949,03200008,true,Rx,0,8,00,00,00,00,00,80,00,00,
641911213,00613DF8,true,Rx,0,8,C1,00,06,00,00,00,00,00,
641912385,01800028,true,Rx,0,8,80,00,78,00,00,00,00,00,
641913517,0340024C,true,Rx,0,8,80,00,70,00,0C,96,00,00,
641916245,01213FFC,true,Rx,0,8,4C,00,4D,00,E0,41,88,00,
641921161,02C13428,true,Rx,0,8,C0,00,58,80,6C,00,20,00,
641922260,01C030A2,true,Rx,0,8,80,5B,40,01,89,01,14,00,
641923372,02E10DF4,true,Rx,0,8,C0,A9,20,A0,90,30,08,10,
641926368,0240102A,true,Rx,0,8,00,00,00,00,00,00,00,00,
641927509,0280142A,true,Rx,0,8,80,50,00,20,07,00,00,00,
641928644,02001022,true,Rx,0,8,00,00,00,01,35,90,10,43,
641929777,0261300A,true,Rx,0,8,C0,00,00,27,80,00,00,C0,
641931259,00613DF8,true,Rx,0,8,03,00,06,00,00,00,00,00,
641932384,02A03028,true,Rx,0,8,00,90,C4,19,10,2B,00,00,
641937796,01E01266,true,Rx,0,8,40,00,02,00,00,00,40,00,
641939340,0140044A,true,Rx,0,8,C0,00,00,18,00,00,00,00,
641941194,01213FFC,true,Rx,0,8,8C,00,4D,00,F0,01,88,00,
641951230,00613DF8,true,Rx,0,8,41,00,06,00,00,00,00,00,
641952414,01800028,true,Rx,0,8,C0,00,78,00,00,00,00,00,
641953544,03801028,true,Rx,0,8,8C,00,20,08,9C,43,00,00,
641957284,0280142A,true,Rx,0,8,C0,50,00,20,07,00,00,00,
641958414,0261300A,true,Rx,0,8,00,00,00,27,80,00,00,C0,
641959577,04000002,true,Rx,0,8,00,00,01,00,B4,00,00,4E,
641961310,0240102A,true,Rx,0,8,41,00,00,00,00,00,00,00,
641966255,01213FFC,true,Rx,0,8,CC,00,4D,00,F0,01,88,00,
641967376,01C030A2,true,Rx,0,8,C0,5B,40,01,89,01,14,00,
641968517,02A03028,true,Rx,0,8,00,90,84,11,10,2B,00,00,
641971205,00613DF8,true,Rx,0,8,83,00,06,00,00,00,00,00,
641973006,02001022,true,Rx,0,8,40,00,00,01,35,90,10,43,
