Time Stamp,ID,Extended,Dir,Bus,LEN,D1,D2,D3,D4,D5,D6,D7,D8
17273614,0140044A,true,Rx,0,8,60,00,00,00,00,00,00,00,
17274775,04000002,true,Rx,0,8,60,00,01,00,30,00,00,53,
17277897,02A03028,true,Rx,0,8,00,B0,D1,09,00,00,80,00,
17282868,00613DF8,true,Rx,0,8,61,00,00,00,00,00,00,00,
17284051,01800028,true,Rx,0,8,60,00,00,00,00,00,00,00,
17292253,0102C02C,true,Rx,1,8,60,01,94,0D,C0,10,00,00,
17292877,01213FFC,true,Rx,0,8,6D,00,4C,00,70,01,08,00,
17297405,0360000A,true,Rx,0,8,60,00,00,00,00,14,00,80,
17298546,02C13428,true,Rx,0,8,60,00,08,80,00,00,00,00,
17299687,02E10DF4,true,Rx,0,8,60,A0,20,A0,90,00,08,00,
17302263,01200028,true,Rx,1,8,68,08,00,48,00,00,00,00,
17302901,00613DF8,true,Rx,0,8,83,00,00,00,00,00,00,00,
17312876,02A03028,true,Rx,0,8,00,90,81,01,00,00,00,00,
17314048,0140044A,true,Rx,0,8,80,00,00,18,10,00,00,00,
17316828,0261300A,true,Rx,0,8,00,00,00,27,80,00,00,C0,
17317230,0102C02C,true,Rx,1,8,80,01,94,0D,C0,10,00,00,
17317971,01213FFC,true,Rx,0,8,8D,00,4C,40,60,01,08,00,
17319816,0280142A,true,Rx,0,8,80,10,00,20,07,00,00,00,
17322977,00613DF8,true,Rx,0,8,C1,00,00,00,00,00,00,00,
17324171,01800028,true,Rx,0,8,80,00,00,00,00,00,00,00,
17332227,01200028,true,Rx,1,8,88,08,00,48,00,00,00,00,
17332791,0132C07C,true,Rx,1,8,01,0F,B0,55,D7,DC,01,05,
17332852,01613FFC,true,Rx,0,8,01,0F,B0,55,D7,DC,00,09,
17342246,0102C02C,true,Rx,1,8,CF,01,94,0D,C0,10,00,00,
17342901,00613DF8,true,Rx,0,8,03,00,00,00,00,00,00,00,
17344046,01213FFC,true,Rx,0,8,CD,00,4C,00,70,01,08,00,
17345160,01C030A2,true,Rx,0,8,C0,5B,40,01,89,01,14,00,
17347001,0261300A,true,Rx,0,8,40,00,00,27,80,00,00,C0,
17348148,02A03028,true,Rx,0,8,00,9F,81,01,00,00,00,00,
17349312,0240102A,true,Rx,0,8,60,00,00,00,00,00,00,00,
17350464,0280142A,true,Rx,0,8,C0,10,00,20,07,00,00,00,
17351650,03200008,true,Rx,0,8,00,00,00,00,00,80,00,00,
17352969,02C13428,true,Rx,0,8,80,00,08,80,00,00,00,00,
17354136,0140044A,true,Rx,0,8,C0,00,00,08,00,00,00,00,
17355280,02001022,true,Rx,0,8,40,00,00,01,15,90,10,00,
17356410,02E10DF4,true,Rx,0,8,8F,A0,2F,A0,90,00,08,00,
17362264,01200028,true,Rx,1,8,C8,00,00,48,00,00,00,00,
17362899,00613DF8,true,Rx,0,8,41,00,00,00,00,00,00,00,
17364085,01800028,true,Rx,0,8,C0,00,00,00,00,00,00,00,
17367163,0102C02C,true,Rx,1,8,0F,01,94,0D,C0,10,00,00,
17367818,01213FFC,true,Rx,0,8,0D,00,4C,00,60,41,08,00,
17377072,0261300A,true,Rx,0,8,80,00,00,27,80,00,00,C0,
17379795,0280142A,true,Rx,0,8,00,10,00,20,07,00,00,00,
17382962,00613DF8,true,Rx,0,8,83,00,00,00,00,00,00,00,
17384114,0240102A,true,Rx,0,8,83,00,00,00,00,00,00,00,
17385266,02A03028,true,Rx,0,8,00,9F,C1,09,00,00,00,00,
17389656,01C030A2,true,Rx,0,8,00,5B,40,01,89,01,14,00,
17392224,0102C02C,true,Rx,1,8,4F,01,94,0D,C0,10,00,00,
17392809,01200028,true,Rx,1,8,08,08,00,48,00,00,00,00,
17392871,01213FFC,true,Rx,0,8,4D,00,4C,40,70,01,08,00,
17394046,0140044A,true,Rx,0,8,00,00,00,18,00,00,00,00,
17395225,01E01266,true,Rx,0,8,60,00,00,00,00,00,00,00,
17396386,03A00002,true,Rx,0,8,60,00,00,00,00,00,00,00,
17398806,04200002,true,Rx,0,8,00,00,00,00,00,00,00,00,
17399951,02001022,true,Rx,0,8,80,00,00,01,15,90,10,00,
17402943,00613DF8,true,Rx,0,8,C1,00,00,00,00,00,00,00,
17404147,01800028,true,Rx,0,8,00,00,00,00,00,00,00,00,
17407154,0261300A,true,Rx,0,8,C0,00,00,27,80,00,00,C0,
17408286,02C13428,true,Rx,0,8,C0,00,08,80,00,00,00,00,
17409426,02E10DF4,true,Rx,0,8,CF,A0,0F,20,90,00,08,00,
17410572,0280142A,true,Rx,0,8,40,10,00,20,07,00,00,00,
17417140,0102C02C,true,Rx,1,8,8F,01,94,0D,C0,10,00,00,
17417805,01213FFC,true,Rx,0,8,8D,00,4C,00,70,01,08,00,
17418972,0240102A,true,Rx,0,8,C0,00,00,00,00,00,00,00,
17420127,02A03028,true,Rx,0,8,00,9F,81,01,00,00,00,00,
17422260,01200028,true,Rx,1,8,48,08,00,48,00,00,00,00,
17422898,00613DF8,true,Rx,0,8,03,00,00,00,00,00,00,00,
17424041,0340024C,true,Rx,0,8,60,00,00,00,0C,99,00,00,
17433607,0140044A,true,Rx,0,8,40,00,00,08,10,00,00,00,
17434707,01C030A2,true,Rx,0,8,40,5B,40,01,89,01,14,00,
17437106,0261300A,true,Rx,0,8,00,00,00,27,80,00,00,C0,
17439350,01E01266,true,Rx,0,8,80,00,06,00,00,00,40,00,
17440492,0280142A,true,Rx,0,8,80,10,00,28,07,00,00,00,
17442407,0102C02C,true,Rx,1,8,CF,C1,94,0D,C0,10,00,00,
17443045,00613DF8,true,Rx,0,8,41,00,00,00,00,00,00,00,
17444191,01213FFC,true,Rx,0,8,CD,00,4C,00,60,01,08,00,
17445377,01800028,true,Rx,0,8,40,00,00,00,00,00,00,00,
17446511,02001022,true,Rx,0,8,C0,00,00,01,15,90,10,00,
17452232,01200028,true,Rx,1,8,88,08,00,48,00,00,00,00,
17452867,02A03028,true,Rx,0,8,00,9F,01,01,1A,00,00,00,
17454044,0240102A,true,Rx,0,8,01,00,00,00,00,00,00,00,
17455230,03200008,true,Rx,0,8,00,00,00,00,00,80,00,00,
17462871,00613DF8,true,Rx,0,8,83,00,00,00,00,00,00,00,
17464013,02C13428,true,Rx,0,8,00,00,08,80,00,CF,20,00,
17465135,02E10DF4,true,Rx,0,8,0F,A9,2F,AC,99,3A,F8,18,
17467226,0102C02C,true,Rx,1,8,0F,C1,94,0D,C0,11,00,00,
17467349,0261300A,true,Rx,0,8,40,00,00,27,80,00,00,C0,
17468495,01213FFC,true,Rx,0,8,0D,00,4C,40,70,41,08,00,
17469836,0280142A,true,Rx,0,8,C0,10,00,20,07,00,00,00,
17473599,0140044A,true,Rx,0,8,80,00,00,08,00,00,00,00,
17479607,01C030A2,true,Rx,0,8,80,5B,40,01,89,01,14,00,
17482289,01200028,true,Rx,1,8,C8,00,00,48,00,00,00,00,
17482913,00613DF8,true,Rx,0,8,C1,00,00,00,00,00,00,00,
17484101,01800028,true,Rx,0,8,80,00,00,00,00,00,00,00,
17485265,01E01266,true,Rx,0,8,C0,00,02,00,00,00,40,00,
17487818,02A03028,true,Rx,0,8,00,1F,C1,09,1A,00,00,00,
17488989,0240102A,true,Rx,0,8,41,00,00,00,00,00,00,00,
17490137,02001022,true,Rx,0,8,00,00,00,01,15,90,10,00,
17492301,0102C02C,true,Rx,1,8,4F,C1,94,0D,C0,10,00,00,
17492935,01213FFC,true,Rx,0,8,4D,00,4C,00,70,01,08,00,
17497301,0261300A,true,Rx,0,8,80,00,00,27,80,00,00,C0,
17499783,0280142A,true,Rx,0,8,00,10,00,20,07,00,00,00,
17502951,00613DF8,true,Rx,0,8,03,00,00,00,00,00,00,00,
17512215,01200028,true,Rx,1,8,08,08,00,48,00,00,00,00,
17513582,0140044A,true,Rx,0,8,C0,00,00,18,10,00,00,00,
17517255,0102C02C,true,Rx,1,8,8F,C1,94,0D,C0,10,00,00,
17517879,01213FFC,true,Rx,0,8,8D,00,4C,00,60,01,08,00,
17519004,02C13428,true,Rx,0,8,40,00,08,80,00,CF,20,00,
17520087,02E10DF4,true,Rx,0,8,4F,A9,0F,2C,99,3A,F8,18,
17522897,00613DF8,true,Rx,0,8,41,00,00,00,00,00,00,00,
17524080,01800028,true,Rx,0,8,C0,00,00,00,00,00,00,00,
17525206,01C030A2,true,Rx,0,8,C0,5B,40,01,89,01,14,00,
17526360,0240102A,true,Rx,0,8,81,00,00,00,00,00,00,00,
17527491,0261300A,true,Rx,0,8,C0,00,00,27,80,00,00,C0,
17528616,02A03028,true,Rx,0,8,00,9F,91,01,1A,00,80,00,
17529790,01E01266,true,Rx,0,8,00,00,02,00,00,00,40,00,
17530936,0280142A,true,Rx,0,8,40,10,00,20,07,00,00,00,
17534580,02001022,true,Rx,0,8,40,00,00,01,15,90,10,00,
17542247,0102C02C,true,Rx,1,8,CF,C1,94,0D,C0,10,00,00,
17542821,01200028,true,Rx,1,8,48,08,00,48,00,00,00,00,
17542914,00613DF8,true,Rx,0,8,83,00,00,00,00,00,00,00,
17544060,01213FFC,true,Rx,0,8,CD,00,4C,00,70,01,08,00,
17553575,0140044A,true,Rx,0,8,00,00,00,08,00,00,00,00,
17557623,0261300A,true,Rx,0,8,00,00,00,27,80,00,00,C0,
17558786,0240102A,true,Rx,0,8,C0,00,00,00,00,00,00,00,
17559937,0280142A,true,Rx,0,8,80,10,00,20,07,00,00,00,
17561093,02A03028,true,Rx,0,8,00,9F,C1,09,1A,00,00,00,
17562279,03200008,true,Rx,0,8,00,00,00,00,00,80,00,00,
17563446,00613DF8,true,Rx,0,8,C1,00,00,00,00,00,00,00,
17564641,01800028,true,Rx,0,8,00,00,00,00,00,00,00,00,
17565792,03801028,true,Rx,0,8,60,00,20,08,44,00,00,00,
17567157,0102C02C,true,Rx,1,8,0F,C1,94,0D,C0,10,00,00,
17567814,01213FFC,true,Rx,0,8,0D,00,4C,40,60,41,08,00,
17569749,01C030A2,true,Rx,0,8,00,5B,40,01,89,01,14,00,
17572252,01200028,true,Rx,1,8,88,08,00,48,00,00,00,00,
17572870,02C13428,true,Rx,0,8,80,00,08,80,00,CF,20,00,
17573984,02E10DF4,true,Rx,0,8,8F,A9,2F,AC,99,3A,F8,18,
17575150,01E01266,true,Rx,0,8,40,00,02,00,00,00,40,00,
17579416,02001022,true,Rx,0,8,80,00,00,01,15,90,10,00,
17582894,00613DF8,true,Rx,0,8,03,00,00,00,00,00,00,00,
17587762,0261300A,true,Rx,0,8,40,00,00,27,80,00,00,C0,
17589779,0280142A,true,Rx,0,8,C0,10,00,20,07,00,00,00,
17592337,0102C02C,true,Rx,1,8,4F,C1,94,0D,C0,10,00,00,
17592960,01213FFC,true,Rx,0,8,4D,00,4C,00,70,01,08,00,
17594118,0140044A,true,Rx,0,8,40,00,00,18,00,00,00,00,
17595303,0240102A,true,Rx,0,8,01,00,00,00,00,00,00,00,
17596444,02A03028,true,Rx,0,8,00,9F,81,01,1A,00,00,00,
17602256,01200028,true,Rx,1,8,C8,00,00,48,00,00,00,00,
17602889,00613DF8,true,Rx,0,8,41,00,00,00,00,00,00,00,
17604087,01800028,true,Rx,0,8,40,00,00,00,00,00,00,00,
17605220,0340024C,true,Rx,0,8,80,00,10,00,0C,99,00,00,
17613133,0132C07C,true,Rx,1,8,02,53,B4,00,61,04,98,5E,
17613777,01613FFC,true,Rx,0,8,02,53,B4,00,61,04,98,5E,
17614881,01C030A2,true,Rx,0,8,40,5B,40,01,89,01,14,00,
17617193,0102C02C,true,Rx,1,8,8F,C1,94,0D,C0,10,00,00,
17617343,0360000A,true,Rx,0,8,80,00,00,00,00,14,00,80,
17618479,01213FFC,true,Rx,0,8,8D,00,4C,00,70,01,08,00,
17619653,01E01266,true,Rx,0,8,80,00,02,00,00,00,40,00,
17620789,0261300A,true,Rx,0,8,80,00,00,27,80,00,00,C0,
17621921,0280142A,true,Rx,0,8,00,10,00,28,07,00,00,00,
17623100,00613DF8,true,Rx,0,8,83,00,00,00,00,00,00,00,
17624799,02001022,true,Rx,0,8,C0,00,00,01,15,90,10,00,
17627871,02A03028,true,Rx,0,8,00,9F,81,01,1A,00,00,00,
17629032,0240102A,true,Rx,0,8,41,00,00,00,00,00,00,00,
17630156,02C13428,true,Rx,0,8,C0,00,08,80,00,CF,20,00,
17631249,02E10DF4,true,Rx,0,8,CF,A9,0F,2C,99,3A,F8,18,
17632230,01200028,true,Rx,1,8,08,08,00,48,00,00,00,00,
17633579,0140044A,true,Rx,0,8,80,00,00,08,10,00,00,00,
17642294,0102C02C,true,Rx,1,8,CF,C1,94,0D,C0,10,00,00,
17642927,00613DF8,true,Rx,0,8,C1,00,00,00,00,00,00,00,
17644063,01213FFC,true,Rx,0,8,CD,00,4C,40,60,01,08,00,
17645249,01800028,true,Rx,0,8,80,00,00,00,00,00,00,00,
17648079,00400066,true,Rx,0,8,00,00,00,03,01,5E,40,7F,
17649201,0261300A,true,Rx,0,8,C0,00,00,27,80,00,00,C0,
17650346,0280142A,true,Rx,0,8,40,10,00,20,07,00,00,00,
17652429,00608024,true,Rx,1,8,60,00,00,00,00,01,03,3E,
17659606,01C030A2,true,Rx,0,8,80,5B,40,01,89,01,14,00,
17662258,01200028,true,Rx,1,8,48,08,00,48,00,00,00,00,
17662892,00613DF8,true,Rx,0,8,03,00,00,00,00,00,00,00,
17664048,0240102A,true,Rx,0,8,80,00,00,00,00,00,00,00,
17665224,01E01266,true,Rx,0,8,C0,00,02,00,00,00,40,00,
17666375,02A03028,true,Rx,0,8,00,9F,C1,09,1A,00,00,00,
17667233,0102C02C,true,Rx,1,8,0F,C1,94,0D,C0,11,00,00,
17667553,03200008,true,Rx,0,8,00,00,00,00,00,80,00,00,
17668699,01213FFC,true,Rx,0,8,0D,00,4C,00,70,41,08,00,
17669856,02001022,true,Rx,0,8,00,00,00,01,15,90,10,00,
17673592,0140044A,true,Rx,0,8,C0,00,00,08,00,00,00,00,
17678276,0261300A,true,Rx,0,8,00,00,00,27,80,00,00,C0,
17679767,0280142A,true,Rx,0,8,80,10,00,20,07,00,00,00,
17682963,00613DF8,true,Rx,0,8,41,00,00,00,00,00,00,00,
17684146,01800028,true,Rx,0,8,C0,00,00,00,00,00,00,00,
17685288,02C13428,true,Rx,0,8,00,00,08,80,00,CF,20,00,
17686402,02E10DF4,true,Rx,0,8,0F,A9,2F,AC,99,3A,F8,18,
17692194,0102C02C,true,Rx,1,8,4F,C1,94,0D,C0,10,00,00,
17692767,01200028,true,Rx,1,8,88,08,00,48,00,00,00,00,
17692840,01213FFC,true,Rx,0,8,4D,00,4C,00,70,01,08,00,
17697826,02A03028,true,Rx,0,8,00,9F,81,01,1A,00,00,00,
17698987,0240102A,true,Rx,0,8,C1,00,00,00,00,00,00,00,
17702887,00613DF8,true,Rx,0,8,83,00,00,00,00,00,00,00,
17704616,01C030A2,true,Rx,0,8,C0,5B,40,01,89,01,14,00,
17708353,0261300A,true,Rx,0,8,40,00,00,27,80,00,00,C0,
17709526,01E01266,true,Rx,0,8,00,00,02,00,00,00,40,00,
17710678,0280142A,true,Rx,0,8,C0,10,00,20,07,00,00,00,
17713550,0140044A,true,Rx,0,8,00,00,00,18,10,00,00,00,
17714692,02001022,true,Rx,0,8,40,00,00,01,15,90,10,00,
17717226,0102C02C,true,Rx,1,8,8F,C1,94,0D,C0,10,00,00,
17717854,01213FFC,true,Rx,0,8,8D,00,4C,40,60,01,08,00,
17722246,01200028,true,Rx,1,8,C8,00,00,48,00,00,00,00,
17722870,00613DF8,true,Rx,0,8,C1,00,00,00,00,00,00,00,
17724015,00400066,true,Rx,0,8,40,00,00,04,01,5E,40,7F,
17725212,01800028,true,Rx,0,8,00,00,00,00,00,00,00,00,
17726373,03C0002A,true,Rx,0,8,00,00,00,00,00,00,99,00,
17727294,00608024,true,Rx,1,8,80,00,00,00,00,01,04,3E,
17733026,02A03028,true,Rx,0,8,00,9F,81,01,1A,00,00,00,
17734188,0240102A,true,Rx,0,8,03,00,00,00,00,00,00,00,
17735331,04000002,true,Rx,0,8,80,00,01,00,B4,00,00,53,
17737821,02C13428,true,Rx,0,8,40,00,08,80,00,CF,20,00,
17738957,0261300A,true,Rx,0,8,80,00,00,27,80,00,00,C0,
17740100,0280142A,true,Rx,0,8,00,10,00,20,07,00,00,00,
17741190,02E10DF4,true,Rx,0,8,4F,A9,0F,2C,99,3A,F8,18,
17742368,0102C02C,true,Rx,1,8,CF,C1,94,0D,C0,10,00,00,
17743017,00613DF8,true,Rx,0,8,03,00,00,00,00,00,00,00,
17744153,01213FFC,true,Rx,0,8,CD,00,4C,00,70,01,08,00,
17749751,01C030A2,true,Rx,0,8,00,5B,40,01,89,01,14,00,
17752237,01200028,true,Rx,1,8,08,08,00,CC,00,00,00,00,
17753552,0140044A,true,Rx,0,8,40,00,00,08,00,00,00,00,
17754714,01E01266,true,Rx,0,8,40,00,02,00,00,00,40,00,
17759337,02001022,true,Rx,0,8,80,00,00,01,15,90,10,00,
17762908,00613DF8,true,Rx,0,8,41,00,00,00,00,00,00,00,
17764102,01800028,true,Rx,0,8,40,00,00,00,00,00,00,00,
17767215,0102C02C,true,Rx,1,8,0F,C1,94,0D,C0,10,00,00,
17767839,01213FFC,true,Rx,0,8,0D,00,4C,00,60,41,08,00,
17768995,0240102A,true,Rx,0,8,40,00,00,00,00,00,00,00,
17770130,0261300A,true,Rx,0,8,C0,00,00,27,80,00,00,C0,
17771272,0280142A,true,Rx,0,8,40,10,00,20,07,00,00,00,
17772387,02A03028,true,Rx,0,8,00,1F,51,09,1A,00,80,00,
17773572,03200008,true,Rx,0,8,00,00,00,00,00,80,00,00,
17782225,01200028,true,Rx,1,8,48,08,00,48,00,00,00,00,
17782859,00613DF8,true,Rx,0,8,83,00,00,00,00,00,00,00,
17783994,0340024C,true,Rx,0,8,C0,00,00,00,0C,99,00,00,
17792225,0102C02C,true,Rx,1,8,4F,C1,94,0D,C0,10,00,00,
17792839,01213FFC,true,Rx,0,8,4D,00,4C,40,70,01,08,00,
17793995,0140044A,true,Rx,0,8,80,00,00,18,00,00,00,00,
17795097,01C030A2,true,Rx,0,8,40,5B,40,01,89,01,14,00,
17796233,02C13428,true,Rx,0,8,80,00,08,80,00,CF,20,00,
17797347,02E10DF4,true,Rx,0,8,8F,A9,2F,AC,99,3A,F8,18,
17799466,01E01266,true,Rx,0,8,80,00,02,00,00,00,40,00,
17800608,00400066,true,Rx,0,8,80,00,00,05,01,5E,40,7F,
17801742,0261300A,true,Rx,0,8,00,00,00,27,80,00,00,C0,
17802414,00608024,true,Rx,1,8,C0,00,00,00,00,01,05,3E,
17802898,0280142A,true,Rx,0,8,80,10,00,20,07,00,00,00,
17804064,00613DF8,true,Rx,0,8,C1,00,00,00,00,00,00,00,
17805243,01800028,true,Rx,0,8,80,00,00,00,00,00,00,00,
17806384,02001022,true,Rx,0,8,C0,00,00,01,15,90,10,00,
17807540,0240102A,true,Rx,0,8,81,00,00,00,00,00,00,00,
17808683,02A03028,true,Rx,0,8,00,9F,81,01,1A,00,00,00,
17809849,03A00002,true,Rx,0,8,80,00,00,00,07,00,00,00,
17812262,01200028,true,Rx,1,8,88,08,00,48,00,00,00,00,
17817200,0102C02C,true,Rx,1,8,8F,C1,94,0D,C0,10,00,00,
17817835,01213FFC,true,Rx,0,8,8D,00,4C,00,70,01,08,00,
17822861,00613DF8,true,Rx,0,8,03,00,00,00,00,00,00,00,
17829468,0261300A,true,Rx,0,8,40,00,00,27,80,00,00,C0,
17830610,0280142A,true,Rx,0,8,C0,10,00,28,07,00,00,00,
17833566,0140044A,true,Rx,0,8,C0,00,00,08,10,00,00,00,
17837820,02A03028,true,Rx,0,8,00,9F,81,01,1A,00,00,00,
17838974,0240102A,true,Rx,0,8,C1,00,00,00,00,00,00,00,
17840084,01C030A2,true,Rx,0,8,80,5B,40,01,89,01,14,00,
17842309,0102C02C,true,Rx,1,8,CF,C1,94,0D,C0,10,00,00,
17842887,01200028,true,Rx,1,8,C8,00,00,48,00,00,00,00,
17842980,00613DF8,true,Rx,0,8,41,00,00,00,00,00,00,00,
17844116,01213FFC,true,Rx,0,8,CD,00,4C,00,60,01,08,00,
17845294,01800028,true,Rx,0,8,C0,00,00,00,00,00,00,00,
17846459,01E01266,true,Rx,0,8,C0,00,02,00,00,00,40,00,
17847799,02C13428,true,Rx,0,8,C0,00,08,80,00,CF,20,00,
17848892,02E10DF4,true,Rx,0,8,CF,A9,0F,2C,99,3A,F8,18,
17850043,02001022,true,Rx,0,8,00,00,00,01,15,90,10,00,
17859690,0261300A,true,Rx,0,8,80,00,00,27,80,00,00,C0,
17860831,0280142A,true,Rx,0,8,00,10,00,20,07,00,00,00,
17862931,00613DF8,true,Rx,0,8,83,00,00,00,00,00,00,00,
17867143,0102C02C,true,Rx,1,8,0F,C1,94,0D,C0,11,00,00,
17867808,01213FFC,true,Rx,0,8,0D,00,4C,40,70,41,08,00,
17872204,01200028,true,Rx,1,8,08,08,00,48,00,00,00,00,
17872828,02A03028,true,Rx,0,8,00,9F,C1,09,1A,00,00,00,
17874004,0140044A,true,Rx,0,8,00,00,00,08,00,00,00,00,
17875140,00400066,true,Rx,0,8,C0,00,00,06,01,5E,40,7F,
17876322,0240102A,true,Rx,0,8,01,00,00,00,00,00,00,00,
17877335,00608024,true,Rx,1,8,00,00,00,00,00,01,06,3E,
17877500,03200008,true,Rx,0,8,00,00,00,00,00,80,00,00,
17882896,00613DF8,true,Rx,0,8,C1,00,00,00,00,00,00,00,
17884101,01800028,true,Rx,0,8,00,00,00,00,00,00,00,00,
17885210,01C030A2,true,Rx,0,8,C0,5B,40,01,89,01,14,00,
17886376,03801028,true,Rx,0,8,80,00,20,08,0C,00,00,00,
17889254,01E01266,true,Rx,0,8,00,00,02,00,00,00,40,00,
17890386,0261300A,true,Rx,0,8,C0,00,00,27,80,00,00,C0,
17891526,0280142A,true,Rx,0,8,40,10,00,20,07,00,00,00,
17892333,0102C02C,true,Rx,1,8,4F,C1,94,0D,C0,10,00,00,
17892922,0132C07C,true,Rx,1,8,10,10,01,03,02,03,00,01,
17892974,01213FFC,true,Rx,0,8,4D,00,4C,00,70,01,08,00,
17894133,01613FFC,true,Rx,0,8,10,10,01,03,02,03,00,01,
17895279,02001022,true,Rx,0,8,40,00,00,01,15,90,10,00,
17902212,01200028,true,Rx,1,8,48,08,00,48,00,00,00,00,
17902857,00613DF8,true,Rx,0,8,03,00,00,00,00,00,00,00,
17903991,02C13428,true,Rx,0,8,00,00,08,80,00,CF,20,00,
17905116,02E10DF4,true,Rx,0,8,0F,A9,2F,AC,99,3A,F8,18,
17907792,02A03028,true,Rx,0,8,00,9F,81,01,1A,00,00,00,
17908954,0240102A,true,Rx,0,8,40,00,00,00,00,00,00,00,
17913535,0140044A,true,Rx,0,8,40,00,00,18,10,00,00,00,
17917191,0102C02C,true,Rx,1,8,8F,C1,94,0D,C0,10,00,00,
17917825,01213FFC,true,Rx,0,8,8D,00,4C,00,60,01,08,00,
17919739,0280142A,true,Rx,0,8,80,10,00,20,07,00,00,00,
17920874,0261300A,true,Rx,0,8,00,00,00,27,80,00,00,C0,
17922955,00613DF8,true,Rx,0,8,41,00,00,00,00,00,00,00,
17924140,01800028,true,Rx,0,8,40,00,00,00,00,00,00,00,
17929674,01C030A2,true,Rx,0,8,00,5B,40,01,89,01,14,00,
17932221,01200028,true,Rx,1,8,88,08,00,48,00,00,00,00,
17934125,01E01266,true,Rx,0,8,40,00,06,00,00,00,40,00,
17937282,0360000A,true,Rx,0,8,C0,00,00,00,00,14,00,80,
17939341,02001022,true,Rx,0,8,80,00,00,01,15,90,10,00,
17942292,0102C02C,true,Rx,1,8,CF,C1,94,0D,C0,10,00,00,
17942937,00613DF8,true,Rx,0,8,83,00,00,00,00,00,00,00,
17944083,01213FFC,true,Rx,0,8,CD,00,4C,00,70,01,08,00,
17945238,0240102A,true,Rx,0,8,81,00,00,00,00,00,00,00,
17946380,02A03028,true,Rx,0,8,00,9F,81,01,1A,00,00,00,
17949727,0280142A,true,Rx,0,8,C0,10,00,20,07,00,00,00,
17950868,00400066,true,Rx,0,8,00,00,00,07,01,5E,40,7F,
17952004,0261300A,true,Rx,0,8,40,00,00,27,80,00,00,C0,
17952428,00608024,true,Rx,1,8,40,00,00,00,00,01,07,3E,
17953542,0140044A,true,Rx,0,8,80,00,00,08,00,00,00,00,
17957838,02C13428,true,Rx,0,8,40,00,08,80,00,CF,20,00,
17958938,02E10DF4,true,Rx,0,8,4F,A9,2F,AC,99,3A,F8,18,
17962236,01200028,true,Rx,1,8,C8,00,00,48,00,00,00,00,
17962861,00613DF8,true,Rx,0,8,C1,00,00,00,00,00,00,00,
17964048,01800028,true,Rx,0,8,80,00,00,00,00,00,00,00,
17965213,0340024C,true,Rx,0,8,00,00,00,00,04,99,00,00,
17967139,0102C02C,true,Rx,1,8,0F,C1,94,0D,C0,10,00,00,
17967787,01213FFC,true,Rx,0,8,0D,00,4C,40,60,41,08,00,
17974643,01C030A2,true,Rx,0,8,40,5B,40,01,89,01,14,00,
17977812,02A03028,true,Rx,0,8,00,9F,C1,09,1A,00,00,00,
17978963,0240102A,true,Rx,0,8,C1,00,00,00,00,00,00,00,
17980137,01E01266,true,Rx,0,8,80,00,02,00,00,00,40,00,
17981272,0261300A,true,Rx,0,8,80,00,00,27,80,00,00,C0,
17982416,0280142A,true,Rx,0,8,00,10,00,20,07,00,00,00,
17983591,00613DF8,true,Rx,0,8,03,00,00,00,00,00,00,00,
17984725,02001022,true,Rx,0,8,C0,00,00,01,15,90,10,00,
17985908,03200008,true,Rx,0,8,00,00,00,00,00,80,00,00,
17992196,0102C02C,true,Rx,1,8,4F,C1,94,0D,C0,10,00,00,
17992790,01200028,true,Rx,1,8,08,08,00,48,00,00,00,00,
17992852,01213FFC,true,Rx,0,8,4D,00,4C,00,70,01,08,00,
17994008,0140044A,true,Rx,0,8,C0,00,00,18,00,00,00,00,
18002870,00613DF8,true,Rx,0,8,41,00,00,00,00,00,00,00,
18004053,01800028,true,Rx,0,8,C0,00,00,00,00,00,00,00,
18009714,0280142A,true,Rx,0,8,40,10,00,20,07,00,00,00,
18010836,0261300A,true,Rx,0,8,C0,00,00,27,80,00,00,C0,
18012924,02A03028,true,Rx,0,8,00,9F,91,01,1A,00,80,00,
18014109,0240102A,true,Rx,0,8,00,00,00,00,00,00,00,00,
18015233,02C13428,true,Rx,0,8,80,00,08,80,00,CF,20,00,
18016326,02E10DF4,true,Rx,0,8,8F,A9,0F,2C,99,3A,F8,18,
18017174,0102C02C,true,Rx,1,8,8F,C1,94,0D,C0,10,00,00,
18017811,01213FFC,true,Rx,0,8,8D,00,4C,00,70,01,08,00,
18019718,01C030A2,true,Rx,0,8,80,5B,40,01,89,01,14,00,
18022236,01200028,true,Rx,1,8,48,08,00,48,00,00,00,00,
18022871,00613DF8,true,Rx,0,8,83,00,00,00,00,00,00,00,
18024255,01E01266,true,Rx,0,8,C0,00,02,00,00,00,40,00,
18025492,00400066,true,Rx,0,8,40,00,00,00,01,5E,40,7F,
18027304,00608024,true,Rx,1,8,80,00,00,00,00,01,00,3E,
18029393,02001022,true,Rx,0,8,00,00,00,01,15,90,10,00,
18033570,0140044A,true,Rx,0,8,00,00,00,08,10,00,00,00,
18039712,0280142A,true,Rx,0,8,80,10,00,28,07,00,00,00,
18040844,0261300A,true,Rx,0,8,00,00,00,27,80,00,00,C0,
18042359,0102C02C,true,Rx,1,8,CF,C1,94,0D,C0,10,00,00,
18042996,00613DF8,true,Rx,0,8,C1,00,00,00,00,00,00,00,
18044122,01213FFC,true,Rx,0,8,CD,00,4C,40,60,01,08,00,
18045318,01800028,true,Rx,0,8,00,00,00,00,00,00,00,00,
18047792,02A03028,true,Rx,0,8,00,1F,01,01,1A,00,00,00,
18048963,0240102A,true,Rx,0,8,41,00,00,00,00,00,00,00,
18052211,01200028,true,Rx,1,8,88,08,00,48,00,00,00,00,
18062850,00613DF8,true,Rx,0,8,03,00,00,00,00,00,00,00,
18064631,01C030A2,true,Rx,0,8,C0,5B,40,01,89,01,14,00,
18067208,0102C02C,true,Rx,1,8,0F,C1,94,0D,C0,11,00,00,
18067832,01213FFC,true,Rx,0,8,0D,00,4C,00,70,41,08,00,
18068956,02C13428,true,Rx,0,8,C0,00,08,80,00,CF,20,00,
18070122,01E01266,true,Rx,0,8,00,00,02,00,00,00,40,00,
18071257,0261300A,true,Rx,0,8,40,00,00,27,80,00,00,C0,
18072411,0280142A,true,Rx,0,8,C0,10,00,20,07,00,00,00,
18073501,02E10DF4,true,Rx,0,8,CF,A9,2F,AC,99,3A,F8,18,
18074667,0140044A,true,Rx,0,8,40,00,00,08,00,00,00,00,
18075810,02001022,true,Rx,0,8,40,00,00,01,15,90,10,00,
18082237,01200028,true,Rx,1,8,C8,00,00,48,00,00,00,00,
18082870,00613DF8,true,Rx,0,8,41,00,00,00,00,00,00,00,
18084067,01800028,true,Rx,0,8,40,00,00,00,00,00,00,00,
18085222,0240102A,true,Rx,0,8,83,00,00,00,00,00,00,00,
18086374,02A03028,true,Rx,0,8,00,9F,C1,09,1A,00,00,00,
18087560,03200008,true,Rx,0,8,00,00,00,00,00,80,00,00,
18092209,0102C02C,true,Rx,1,8,4F,C1,94,0D,C0,10,00,00,
18092833,01213FFC,true,Rx,0,8,4D,00,4C,00,70,01,08,00,
18099705,0280142A,true,Rx,0,8,00,10,00,20,07,00,00,00,
18100857,00400066,true,Rx,0,8,80,00,00,01,01,5E,40,7F,
18101987,0261300A,true,Rx,0,8,80,00,00,27,80,00,00,C0,
18102404,00608024,true,Rx,1,8,C0,00,00,00,00,01,01,3E,
18103167,00613DF8,true,Rx,0,8,83,00,00,00,00,00,00,00,
18109684,01C030A2,true,Rx,0,8,00,5B,40,01,89,01,14,00,
18112222,01200028,true,Rx,1,8,08,08,00,48,00,00,00,00,
18113526,0140044A,true,Rx,0,8,80,00,00,18,10,00,00,00,
18114699,01E01266,true,Rx,0,8,40,00,02,00,00,00,40,00,
18117254,0102C02C,true,Rx,1,8,8F,C1,94,0D,C0,10,00,00,
18117872,01213FFC,true,Rx,0,8,8D,00,4C,40,60,01,08,00,
18119036,0240102A,true,Rx,0,8,C0,00,00,00,00,00,00,00,
18120183,02001022,true,Rx,0,8,80,00,00,01,15,90,10,00,
18121326,02A03028,true,Rx,0,8,00,9F,81,01,1A,00,00,00,
18122910,00613DF8,true,Rx,0,8,C1,00,00,00,00,00,00,00,
18124097,01800028,true,Rx,0,8,80,00,00,00,00,00,00,00,
18125231,02C13428,true,Rx,0,8,00,00,08,80,00,CF,20,00,
18126342,02E10DF4,true,Rx,0,8,0F,A9,0F,2C,99,3A,F8,18,
18129698,0280142A,true,Rx,0,8,40,10,00,20,07,00,00,00,
18130829,0261300A,true,Rx,0,8,C0,00,00,27,80,00,00,C0,
18133568,03C0002A,true,Rx,0,8,00,00,00,00,00,00,19,00,
18142226,0102C02C,true,Rx,1,8,CF,C1,94,0D,C0,10,00,00,
18142799,01200028,true,Rx,1,8,48,08,00,CC,00,00,00,00,
18142892,00613DF8,true,Rx,0,8,03,00,00,00,00,00,00,00,
18144038,01213FFC,true,Rx,0,8,CD,00,4C,00,70,01,08,00,
18145173,0340024C,true,Rx,0,8,41,00,10,01,0C,99,00,00,
18152834,02A03028,true,Rx,0,8,00,9F,C1,09,1A,00,00,00,
18153996,0140044A,true,Rx,0,8,C0,00,00,08,00,00,00,00,
18155107,01C030A2,true,Rx,0,8,40,5B,40,01,89,01,14,00,
18156284,0240102A,true,Rx,0,8,01,00,00,00,00,00,00,00,
18159461,01E01266,true,Rx,0,8,80,00,02,00,00,00,40,00,
18160614,0280142A,true,Rx,0,8,80,10,00,20,07,00,00,00,
18161744,0261300A,true,Rx,0,8,00,00,00,27,80,00,00,C0,
18162973,00613DF8,true,Rx,0,8,41,00,00,00,00,00,00,00,
18164158,01800028,true,Rx,0,8,C0,00,00,00,00,00,00,00,
18165294,02001022,true,Rx,0,8,C0,00,00,01,15,90,10,00,
18167221,0102C02C,true,Rx,1,8,0F,C1,94,0D,C0,10,00,00,
18167845,01213FFC,true,Rx,0,8,0D,00,4C,00,60,41,08,00,
18172178,01200028,true,Rx,1,8,88,08,00,48,00,00,00,00,
18176006,00400066,true,Rx,0,8,C0,00,00,02,01,5E,40,7F,
18177222,0132C07C,true,Rx,1,8,15,13,03,01,01,02,01,01,
18177829,01613FFC,true,Rx,0,8,15,13,03,01,01,02,01,01,
18178962,02C13428,true,Rx,0,8,40,00,08,80,00,CF,20,00,
18180063,02E10DF4,true,Rx,0,8,4F,A9,2F,AC,99,3A,F8,18,
18182309,00608024,true,Rx,1,8,00,00,00,00,00,01,02,3E,
18182958,00613DF8,true,Rx,0,8,83,00,00,00,00,00,00,00,
18187790,02A03028,true,Rx,0,8,00,9F,81,01,1A,00,00,00,
18188961,0240102A,true,Rx,0,8,41,00,00,00,00,00,00,00,
18190115,0280142A,true,Rx,0,8,C0,10,00,20,07,00,00,00,
18191249,0261300A,true,Rx,0,8,40,00,00,27,80,00,00,C0,
18192312,0102C02C,true,Rx,1,8,4F,C1,94,0D,C0,10,00,00,
18192436,03200008,true,Rx,0,8,00,00,00,00,00,80,00,00,
18193560,01213FFC,true,Rx,0,8,4D,00,4C,40,70,01,08,00,
18194737,0140044A,true,Rx,0,8,00,00,00,18,00,00,00,00,
18195888,04000002,true,Rx,0,8,C0,00,01,00,B4,00,00,53,
18199711,01C030A2,true,Rx,0,8,80,5B,40,01,89,01,14,00,
18202600,01200028,true,Rx,1,8,C8,00,00,48,00,00,00,00,
18203235,00613DF8,true,Rx,0,8,C1,00,00,00,00,00,00,00,
18204433,01800028,true,Rx,0,8,00,00,00,00,00,00,00,00,
18205606,01E01266,true,Rx,0,8,C0,00,02,00,00,00,40,00,
18206759,03801028,true,Rx,0,8,C0,00,20,08,0C,00,00,00,
18209405,02001022,true,Rx,0,8,00,00,00,01,15,90,10,00,
18217107,0102C02C,true,Rx,1,8,8F,C1,94,0D,C0,10,00,00,
18217783,01213FFC,true,Rx,0,8,8D,00,4C,00,70,01,08,00,
18219676,0280142A,true,Rx,0,8,00,10,00,28,07,00,00,00,
18221059,0261300A,true,Rx,0,8,80,00,00,27,80,00,00,C0,
18222894,00613DF8,true,Rx,0,8,03,00,00,00,00,00,00,00,
18224055,0240102A,true,Rx,0,8,81,00,00,00,00,00,00,00,
18225198,02A03028,true,Rx,0,8,00,9F,81,01,1A,00,00,00,
18226333,03A00002,true,Rx,0,8,C0,00,00,04,07,04,98,5E,
18232204,01200028,true,Rx,1,8,08,08,00,48,00,00,00,00,
18232818,02C13428,true,Rx,0,8,80,00,08,80,00,CF,20,00,
18233984,0140044A,true,Rx,0,8,40,00,00,08,10,00,00,00,
18235076,02E10DF4,true,Rx,0,8,8F,A9,0F,2C,99,3A,F8,18,
18242292,0102C02C,true,Rx,1,8,CF,C1,94,0D,C0,10,00,00,
18242937,00613DF8,true,Rx,0,8,41,00,00,00,00,00,00,00,
18244072,01213FFC,true,Rx,0,8,CD,00,4C,00,60,01,08,00,
18245268,01800028,true,Rx,0,8,40,00,00,00,00,00,00,00,
18246389,01C030A2,true,Rx,0,8,C0,5B,40,01,89,01,14,00,
18249303,01E01266,true,Rx,0,8,00,00,02,00,00,00,40,00,
18250445,0280142A,true,Rx,0,8,40,10,00,20,07,00,00,00,
18251590,00400066,true,Rx,0,8,00,00,00,03,01,5E,40,7F,
18252712,0261300A,true,Rx,0,8,C0,00,00,27,80,00,00,C0,
18254607,02001022,true,Rx,0,8,40,00,00,01,15,90,10,00,
18257264,0360000A,true,Rx,0,8,00,00,00,00,00,14,00,80,
18257287,00608024,true,Rx,1,8,40,00,00,00,00,01,03,3E,
18258411,02A03028,true,Rx,0,8,00,9F,C1,09,1A,00,00,00,
18259566,0240102A,true,Rx,0,8,C0,00,00,00,00,00,00,00,
18262236,01200028,true,Rx,1,8,48,08,00,48,00,00,00,00,
18262871,00613DF8,true,Rx,0,8,83,00,00,00,00,00,00,00,
18267192,0102C02C,true,Rx,1,8,0F,C1,94,0D,C0,11,00,00,
18267816,01213FFC,true,Rx,0,8,0D,00,4C,40,70,41,08,00,
18273546,0140044A,true,Rx,0,8,80,00,00,08,00,00,00,00,
18279689,0280142A,true,Rx,0,8,81,10,00,20,07,00,00,00,
18281140,0261300A,true,Rx,0,8,00,00,00,27,80,00,00,C0,
18282910,00613DF8,true,Rx,0,8,C1,00,00,00,00,00,00,00,
18284092,01800028,true,Rx,0,8,80,00,00,00,00,00,00,00,
18287789,02C13428,true,Rx,0,8,C0,00,08,80,00,CF,20,00,
18288880,02E10DF4,true,Rx,0,8,CF,A9,2F,AC,99,3A,F8,18,
18290000,01C030A2,true,Rx,0,8,00,5B,40,01,89,01,14,00,
18292185,0102C02C,true,Rx,1,8,4F,C1,94,0D,C0,10,00,00,
18292763,01200028,true,Rx,1,8,88,08,00,48,00,00,00,00,
18292835,01213FFC,true,Rx,0,8,4D,00,4C,00,70,01,08,00,
18294011,0240102A,true,Rx,0,8,01,00,00,00,00,00,00,00,
18295179,01E01266,true,Rx,0,8,40,00,02,00,00,00,40,00,
18296311,02A03028,true,Rx,0,8,00,9F,91,01,1A,00,80,00,
18297488,03200008,true,Rx,0,8,00,00,00,00,00,80,00,00,
18299445,02001022,true,Rx,0,8,80,00,00,01,15,90,10,00,
18302860,00613DF8,true,Rx,0,8,03,00,00,00,00,00,00,00,
18308587,04200002,true,Rx,0,8,00,00,00,00,00,00,01,03,
18309739,0280142A,true,Rx,0,8,C0,10,00,20,07,00,00,00,
18311118,0261300A,true,Rx,0,8,40,00,00,27,80,00,00,C0,
18313527,0140044A,true,Rx,0,8,C0,00,00,18,10,00,00,00,
18317207,0102C02C,true,Rx,1,8,8F,C1,94,0D,C0,10,00,00,
18317831,01213FFC,true,Rx,0,8,8D,00,4C,00,60,01,08,00,
18322226,01200028,true,Rx,1,8,C8,00,00,48,00,00,00,00,
18322861,00613DF8,true,Rx,0,8,41,00,00,00,00,00,00,00,
18324047,01800028,true,Rx,0,8,C0,00,00,00,00,00,00,00,
18325172,0340024C,true,Rx,0,8,81,00,00,01,0C,99,00,00,
18326312,00400066,true,Rx,0,8,40,00,00,04,01,5E,40,7F,
18327808,02A03028,true,Rx,0,8,00,1F,01,01,1A,00,00,00,
18328983,0240102A,true,Rx,0,8,41,00,00,00,00,00,00,00,
18332312,00608024,true,Rx,1,8,80,00,00,00,00,01,04,3E,
18334576,01C030A2,true,Rx,0,8,40,5B,40,01,89,01,14,00,
18339391,01E01266,true,Rx,0,8,80,00,02,00,00,00,40,00,
18340533,0280142A,true,Rx,0,8,00,10,00,20,07,00,00,00,
18341674,0261300A,true,Rx,0,8,80,00,00,27,80,00,00,C0,
18342316,0102C02C,true,Rx,1,8,CF,C1,94,0D,C0,10,00,00,
18342965,00613DF8,true,Rx,0,8,83,00,00,00,00,00,00,00,
18344112,01213FFC,true,Rx,0,8,CD,00,4C,00,70,01,08,00,
18345237,02001022,true,Rx,0,8,C0,00,00,01,35,90,10,44,
18346370,02C13428,true,Rx,0,8,00,00,08,80,00,CF,20,00,
18347482,02E10DF4,true,Rx,0,8,0F,A9,0F,2C,99,3A,F8,18,
18352183,01200028,true,Rx,1,8,08,08,00,48,00,00,00,00,
18353529,0140044A,true,Rx,0,8,00,00,00,08,00,00,00,00,
18362850,00613DF8,true,Rx,0,8,C1,00,00,00,00,00,00,00,
18364052,01800028,true,Rx,0,8,00,00,00,00,00,00,00,00,
18365216,0240102A,true,Rx,0,8,80,00,00,00,00,00,00,00,
18366361,02A03028,true,Rx,0,8,00,9F,C1,09,1A,00,00,00,
18367210,0102C02C,true,Rx,1,8,0F,C1,94,0D,C0,10,00,00,
18367827,01213FFC,true,Rx,0,8,0D,00,4C,40,60,41,08,00,
18369672,0280142A,true,Rx,0,8,40,10,00,20,07,00,00,00,
18371679,0261300A,true,Rx,0,8,C0,00,00,27,80,00,00,C0,
18379638,01C030A2,true,Rx,0,8,80,5B,40,01,89,01,14,00,
18382227,01200028,true,Rx,1,8,48,08,00,48,00,00,00,00,
18382861,00613DF8,true,Rx,0,8,03,00,00,00,00,00,00,00,
18384261,01E01266,true,Rx,0,8,C0,00,02,00,00,00,40,00,
18389396,02001022,true,Rx,0,8,00,00,00,01,35,90,10,44,
18392224,0102C02C,true,Rx,1,8,4F,C1,94,0D,C0,10,00,00,
18392848,01213FFC,true,Rx,0,8,4D,00,4C,00,70,01,08,00,
18394004,0140044A,true,Rx,0,8,40,00,00,18,00,00,00,00,
18397797,02A03028,true,Rx,0,8,00,9F,81,01,1A,00,00,00,
18398959,0240102A,true,Rx,0,8,C1,00,00,00,00,00,00,00,
18400111,0280142A,true,Rx,0,8,80,10,00,20,07,00,00,00,
18401237,02C13428,true,Rx,0,8,40,00,08,80,00,CF,20,00,
18402369,00400066,true,Rx,0,8,80,00,00,05,01,5E,40,7F,
18403546,00613DF8,true,Rx,0,8,41,00,00,00,00,00,00,00,
18404742,01800028,true,Rx,0,8,40,00,00,00,00,00,00,00,
18405873,0261300A,true,Rx,0,8,00,00,00,27,80,00,00,C0,
18406977,02E10DF4,true,Rx,0,8,4F,A9,2F,AC,99,3A,F8,18,
18407281,00608024,true,Rx,1,8,C0,00,00,00,00,01,05,3E,
18408167,03200008,true,Rx,0,8,00,00,00,00,00,80,00,00,
18412207,01200028,true,Rx,1,8,88,08,00,48,00,00,00,00,
18417168,0102C02C,true,Rx,1,8,8F,C1,94,0D,C0,10,00,00,
18417801,01213FFC,true,Rx,0,8,8D,00,4C,00,70,01,08,00,
18422838,00613DF8,true,Rx,0,8,83,00,00,00,00,00,00,00,
18424731,01C030A2,true,Rx,0,8,C0,5B,40,01,89,01,14,00,
18429257,01E01266,true,Rx,0,8,00,00,06,00,00,00,40,00,
18430388,0280142A,true,Rx,0,8,C0,10,00,28,07,00,00,00,
18431736,0261300A,true,Rx,0,8,40,00,00,27,80,00,00,C0,
18432922,02A03028,true,Rx,0,8,00,9F,81,01,1A,00,00,00,
18434076,0140044A,true,Rx,0,8,80,00,00,08,10,00,00,00,
18435223,02001022,true,Rx,0,8,40,00,00,01,35,90,10,44,
18436377,0240102A,true,Rx,0,8,03,00,00,00,00,00,00,00,
18442256,0102C02C,true,Rx,1,8,CF,C1,94,0D,C0,10,00,00,
18442840,01200028,true,Rx,1,8,C8,00,00,48,00,00,00,00,
18442923,00613DF8,true,Rx,0,8,C1,00,00,00,00,00,00,00,
18444058,01213FFC,true,Rx,0,8,CD,00,4C,40,60,01,08,00,
18445236,01800028,true,Rx,0,8,80,00,00,00,00,00,00,00,
18452822,02C13428,true,Rx,0,8,80,00,08,80,00,CF,20,00,
18453922,02E10DF4,true,Rx,0,8,8F,A9,0F,2C,99,3A,F8,18,
18457109,0132C07C,true,Rx,1,8,01,0F,B0,55,D7,E8,FE,FA,
18457762,01613FFC,true,Rx,0,8,01,0F,B0,55,D7,E8,FF,F6,
18459677,0280142A,true,Rx,0,8,00,10,00,20,07,00,00,00,
18462065,0261300A,true,Rx,0,8,80,00,00,27,80,00,00,C0,
18463240,00613DF8,true,Rx,0,8,03,00,00,00,00,00,00,00,
18467206,0102C02C,true,Rx,1,8,0F,C1,94,0D,C0,11,00,00,
18467830,01213FFC,true,Rx,0,8,0D,00,4C,00,70,41,08,00,
18468985,0240102A,true,Rx,0,8,40,00,00,00,00,00,00,00,
18470110,01C030A2,true,Rx,0,8,00,5B,40,01,89,01,14,00,
18471261,02A03028,true,Rx,0,8,00,9F,C1,09,1A,00,00,00,
18472232,01200028,true,Rx,1,8,08,08,00,48,00,00,00,00,
18473540,0140044A,true,Rx,0,8,C0,00,00,08,00,00,00,00,
18474707,01E01266,true,Rx,0,8,40,00,02,00,00,00,40,00,
18477004,00400066,true,Rx,0,8,C0,00,00,06,01,5E,40,7F,
18479363,02001022,true,Rx,0,8,80,00,00,01,35,90,10,43,
18482344,00608024,true,Rx,1,8,00,00,00,00,00,01,06,3E,
18482999,00613DF8,true,Rx,0,8,41,00,00,00,00,00,00,00,
18484177,01800028,true,Rx,0,8,C0,00,00,00,00,00,00,00,
18489648,0280142A,true,Rx,0,8,40,10,00,20,07,00,00,00,
18492079,0261300A,true,Rx,0,8,C0,00,00,27,80,00,00,C0,
18492295,0102C02C,true,Rx,1,8,4F,C1,94,0D,C0,10,00,00,
18493214,01213FFC,true,Rx,0,8,4D,00,4C,00,70,01,08,00,
18502194,01200028,true,Rx,1,8,48,08,00,48,00,00,00,00,
18502829,00613DF8,true,Rx,0,8,83,00,00,00,00,00,00,00,
18503995,0240102A,true,Rx,0,8,81,00,00,00,00,00,00,00,
18505119,02A03028,true,Rx,0,8,00,9F,91,01,1A,00,80,00,
18506302,03200008,true,Rx,0,8,00,00,00,00,00,80,00,00,
18507436,0340024C,true,Rx,0,8,C0,00,10,00,0C,99,00,00,
18508560,02C13428,true,Rx,0,8,C0,00,08,80,00,CF,20,00,
18509654,02E10DF4,true,Rx,0,8,CF,A9,2F,AC,99,3A,F8,18,
18513494,0140044A,true,Rx,0,8,00,00,00,18,10,00,00,00,
18514627,01C030A2,true,Rx,0,8,40,5B,40,01,89,01,14,00,
18517193,0102C02C,true,Rx,1,8,8F,C1,94,0D,C0,10,00,00,
18517827,01213FFC,true,Rx,0,8,8D,00,4C,40,60,01,08,00,
18519468,01E01266,true,Rx,0,8,80,00,02,00,00,00,40,00,
18520611,0280142A,true,Rx,0,8,80,10,00,20,07,00,00,00,
18522187,0261300A,true,Rx,0,8,00,00,00,27,80,00,00,C0,
18523353,00613DF8,true,Rx,0,8,C1,00,00,00,00,00,00,00,
18524547,01800028,true,Rx,0,8,00,00,00,00,00,00,00,00,
18525679,02001022,true,Rx,0,8,C0,00,00,01,35,90,10,43,
18526825,03801028,true,Rx,0,8,00,00,20,08,5C,44,00,00,
18532180,01200028,true,Rx,1,8,88,08,00,48,00,00,00,00,
18537793,02A03028,true,Rx,0,8,00,9F,81,01,1A,00,00,00,
18538955,0240102A,true,Rx,0,8,C1,00,00,00,00,00,00,00,
18542256,0102C02C,true,Rx,1,8,CF,C1,94,0D,C0,10,00,00,
18542901,00613DF8,true,Rx,0,8,03,00,00,00,00,00,00,00,
18544047,01213FFC,true,Rx,0,8,CD,00,4C,00,70,01,08,00,
18545170,03C0002A,true,Rx,0,8,00,00,30,C0,2D,00,9F,00,
18549647,0280142A,true,Rx,0,8,C0,10,00,20,07,00,00,00,
18551944,00400066,true,Rx,0,8,00,00,00,07,01,5E,40,7F,
18553076,0261300A,true,Rx,0,8,40,00,00,27,80,00,00,C0,
18554238,0140044A,true,Rx,0,8,40,00,00,08,00,00,00,00,
18557298,00608024,true,Rx,1,8,40,00,00,00,00,01,07,3E,
18559643,01C030A2,true,Rx,0,8,80,5B,40,01,89,01,14,00,
18562219,01200028,true,Rx,1,8,C8,00,00,CC,F0,00,30,2D,
18562875,00613DF8,true,Rx,0,8,41,00,00,00,00,00,00,00,
18564072,01800028,true,Rx,0,8,40,00,00,00,00,00,00,00,
18565236,01E01266,true,Rx,0,8,C0,00,02,00,00,00,40,00,
18566378,02C13428,true,Rx,0,8,00,00,08,80,00,CF,20,00,
18567196,0102C02C,true,Rx,1,8,0F,C1,94,0D,C0,10,00,00,
18567494,02E10DF4,true,Rx,0,8,0F,A9,2F,AC,99,3A,F8,18,
18568640,01213FFC,true,Rx,0,8,0D,00,4C,00,60,41,08,00,
18569775,02001022,true,Rx,0,8,00,00,00,01,35,90,10,43,
18572838,02A03028,true,Rx,0,8,00,9F,C1,09,1A,00,00,00,
18574011,0240102A,true,Rx,0,8,01,00,00,00,00,00,00,00,
18577164,0360000A,true,Rx,0,8,40,00,00,00,00,14,00,80,
18579637,0280142A,true,Rx,0,8,00,10,00,20,07,00,00,00,
18582267,0261300A,true,Rx,0,8,80,00,00,27,80,00,00,C0,
18583439,00613DF8,true,Rx,0,8,83,00,00,00,00,00,00,00,
18592147,0102C02C,true,Rx,1,8,4F,C1,94,0D,C0,10,00,00,
18592722,01200028,true,Rx,1,8,08,08,00,48,F0,00,30,2D,
18592794,01213FFC,true,Rx,0,8,4D,00,4C,40,70,01,08,00,
18593950,0140044A,true,Rx,0,8,80,00,00,18,00,00,00,00,
18602852,00613DF8,true,Rx,0,8,C1,00,00,00,00,00,00,00,
18604035,01800028,true,Rx,0,8,80,00,00,00,00,00,00,00,
18605156,01C030A2,true,Rx,0,8,C0,5B,40,01,89,01,14,00,
18607833,02A03028,true,Rx,0,8,00,1F,01,01,1A,00,00,00,
18608994,0240102A,true,Rx,0,8,40,00,00,00,00,00,00,00,
18610162,01E01266,true,Rx,0,8,00,00,02,00,00,00,40,00,
18611305,0280142A,true,Rx,0,8,40,10,00,20,07,00,00,00,
18612430,0261300A,true,Rx,0,8,C0,00,00,27,80,00,00,C0,
18613614,03200008,true,Rx,0,8,00,00,00,00,00,80,00,00,
18614740,02001022,true,Rx,0,8,40,00,00,01,35,90,10,43,
18617216,0102C02C,true,Rx,1,8,8F,C1,94,0D,C0,10,00,00,
18617850,01213FFC,true,Rx,0,8,8D,00,4C,00,70,01,08,00,
18618974,02C13428,true,Rx,0,8,40,00,08,80,00,CF,20,00,
18620067,02E10DF4,true,Rx,0,8,4F,A9,0F,2C,99,3A,F8,18,
18622180,01200028,true,Rx,1,8,48,08,00,48,F0,00,30,2D,
18622827,00613DF8,true,Rx,0,8,03,00,00,00,00,00,00,00,
18627415,00400066,true,Rx,0,8,40,00,00,00,01,5E,40,7F,
18632285,00608024,true,Rx,1,8,80,00,00,00,00,01,00,3E,
18633516,0140044A,true,Rx,0,8,C0,00,00,08,10,00,00,00,
18639405,03A00002,true,Rx,0,8,00,00,00,04,07,04,98,5E,
18640546,0280142A,true,Rx,0,8,80,10,00,28,07,00,00,00,
18642318,0102C02C,true,Rx,1,8,CF,C1,94,0D,C0,10,00,00,
18642534,0261300A,true,Rx,0,8,00,00,00,27,80,00,00,C0,
18643710,00613DF8,true,Rx,0,8,41,00,00,00,00,00,00,00,
18644844,01213FFC,true,Rx,0,8,CD,00,4C,00,60,01,08,00,
18646030,01800028,true,Rx,0,8,C0,00,00,00,00,00,00,00,
18647197,0240102A,true,Rx,0,8,81,00,00,00,00,00,00,00,
18648341,02A03028,true,Rx,0,8,00,9F,81,01,1A,00,00,00,
18649791,01C030A2,true,Rx,0,8,00,5B,40,01,89,01,14,00,
18652202,01200028,true,Rx,1,8,88,08,00,48,F0,00,30,2D,
18653479,04000002,true,Rx,0,8,00,00,01,00,F4,00,00,52,
18654654,01E01266,true,Rx,0,8,40,00,02,00,00,00,40,00,
18659371,02001022,true,Rx,0,8,80,00,00,01,35,90,10,43,
18662850,00613DF8,true,Rx,0,8,83,00,00,00,00,00,00,00,
18667159,0102C02C,true,Rx,1,8,0F,C1,94,0D,C0,31,00,00,
18667783,01213FFC,true,Rx,0,8,0D,00,4C,40,70,41,08,00,
18669625,0280142A,true,Rx,0,8,C0,50,00,20,07,00,00,00,
18672806,0261300A,true,Rx,0,8,40,00,00,27,80,00,00,C0,
18673980,0140044A,true,Rx,0,8,00,00,00,08,00,00,00,00,
18675105,02C13428,true,Rx,0,8,80,00,08,80,00,CF,20,00,
18676219,02E10DF4,true,Rx,0,8,8F,A9,2F,AC,99,3A,F8,18,
18677823,02A03028,true,Rx,0,8,00,9F,C1,09,1A,00,00,00,
18678979,0240102A,true,Rx,0,8,C1,00,00,00,00,00,00,00,
18682222,01200028,true,Rx,1,8,C8,00,00,48,F0,00,30,2D,
18682867,00613DF8,true,Rx,0,8,C1,00,00,00,00,00,00,00,
18684063,01800028,true,Rx,0,8,00,00,00,00,00,00,00,00,
18685229,0340024C,true,Rx,0,8,00,00,00,00,04,99,00,00,
18692185,0102C02C,true,Rx,1,8,4F,C1,94,0D,C0,10,00,00,
18692809,01213FFC,true,Rx,0,8,4D,00,4C,00,70,01,08,00,
18694733,01C030A2,true,Rx,0,8,40,5B,40,01,89,01,14,00,
18699498,01E01266,true,Rx,0,8,80,00,02,00,00,00,40,00,
18700640,0280142A,true,Rx,0,8,00,50,00,20,07,00,00,00,
18702791,00400066,true,Rx,0,8,80,00,00,01,01,5E,40,7F,
18703963,00613DF8,true,Rx,0,8,03,00,00,00,00,00,00,00,
18705088,02001022,true,Rx,0,8,C0,00,00,01,35,90,10,43,
18706232,0261300A,true,Rx,0,8,80,00,00,27,80,00,00,C0,
18707275,00608024,true,Rx,1,8,C0,00,00,00,00,01,01,3E,
18712175,01200028,true,Rx,1,8,08,08,00,48,F0,00,30,2D,
18712820,02A03028,true,Rx,0,8,00,9F,81,01,1A,00,00,00,
18713975,0140044A,true,Rx,0,8,40,00,00,18,10,00,00,00,
18715152,0240102A,true,Rx,0,8,00,00,00,00,00,00,00,00,
18716344,03200008,true,Rx,0,8,00,00,00,00,00,80,00,00,
18717234,0102C02C,true,Rx,1,8,8F,C1,94,0D,C0,10,00,00,
18717852,01213FFC,true,Rx,0,8,8D,00,4C,00,60,01,08,00,
18722846,00613DF8,true,Rx,0,8,41,00,00,00,00,00,00,00,
18724038,01800028,true,Rx,0,8,40,00,00,00,00,00,00,00,
18727761,02C13428,true,Rx,0,8,C0,00,08,80,00,CF,20,00,
18728851,02E10DF4,true,Rx,0,8,CF,A9,0F,2C,99,3A,F8,18,
18729993,0280142A,true,Rx,0,8,40,10,00,20,07,00,00,00,
18732260,0132C07C,true,Rx,1,8,02,52,BC,43,61,04,98,5E,
18732857,01613FFC,true,Rx,0,8,02,52,BC,43,61,04,98,5E,
18733990,0261300A,true,Rx,0,8,C0,00,00,27,80,00,00,C0,
18739729,01C030A2,true,Rx,0,8,80,5B,40,01,89,01,14,00,
18742245,0102C02C,true,Rx,1,8,CF,C1,94,0D,C0,10,00,00,
18742819,01200028,true,Rx,1,8,48,08,00,48,F0,00,30,2D,
18742912,00613DF8,true,Rx,0,8,83,00,00,00,00,00,00,00,
18744056,01213FFC,true,Rx,0,8,CD,00,4C,00,70,01,08,00,
18745224,01E01266,true,Rx,0,8,C0,00,02,00,00,00,40,00,
18747776,02A03028,true,Rx,0,8,00,9F,81,01,1A,00,00,00,
18748949,0240102A,true,Rx,0,8,41,00,00,00,00,00,00,00,
18750084,02001022,true,Rx,0,8,00,00,00,01,35,90,10,43,
18753482,0140044A,true,Rx,0,8,80,00,00,08,00,00,00,00,
18759645,0280142A,true,Rx,0,8,80,50,00,20,07,00,00,00,
18762886,00613DF8,true,Rx,0,8,C1,00,00,00,00,00,00,00,
18764068,01800028,true,Rx,0,8,80,00,00,00,00,00,00,00,
18765202,0261300A,true,Rx,0,8,00,00,00,27,80,00,00,C0,
18767168,0102C02C,true,Rx,1,8,0F,C1,94,0D,C0,10,00,00,
18767786,01213FFC,true,Rx,0,8,0D,00,4C,40,60,41,08,00,
18772144,01200028,true,Rx,1,8,88,08,00,48,F0,00,30,2D,
18778368,00400066,true,Rx,0,8,C0,00,00,02,01,5E,40,7F,
18782292,00608024,true,Rx,1,8,00,00,00,00,00,01,02,3E,
18782937,00613DF8,true,Rx,0,8,03,00,00,00,00,00,00,00,
18784104,0240102A,true,Rx,0,8,83,00,00,00,00,00,00,00,
18785217,01C030A2,true,Rx,0,8,C0,5B,40,01,89,01,14,00,
18786358,02A03028,true,Rx,0,8,00,9F,D1,09,1A,00,80,00,
18787483,02C13428,true,Rx,0,8,00,00,08,80,00,CF,20,00,
18788606,02E10DF4,true,Rx,0,8,0F,A9,2F,AC,99,3A,F8,18,
18789772,01E01266,true,Rx,0,8,00,00,02,00,00,00,40,00,
18790915,0280142A,true,Rx,0,8,C0,50,00,20,07,00,00,00,
18793152,0102C02C,true,Rx,1,8,4F,C1,94,0D,C0,10,00,00,
18793513,0140044A,true,Rx,0,8,C0,00,00,18,00,00,00,00,
18794656,01213FFC,true,Rx,0,8,4D,00,4C,00,70,01,08,00,
18795782,02001022,true,Rx,0,8,40,00,00,01,35,90,10,43,
18796914,0261300A,true,Rx,0,8,40,00,00,27,80,00,00,C0,
18802221,01200028,true,Rx,1,8,C8,00,00,48,F0,00,30,2D,
18802866,00613DF8,true,Rx,0,8,41,00,00,00,00,00,00,00,
18804052,01800028,true,Rx,0,8,C0,00,00,00,00,00,00,00,
18817089,0102C02C,true,Rx,1,8,8F,C1,94,0D,C0,10,00,00,
18817745,01213FFC,true,Rx,0,8,8D,00,4C,00,70,01,08,00,
18818911,0240102A,true,Rx,0,8,C0,00,00,00,00,00,00,00,
18820044,0280142A,true,Rx,0,8,00,10,00,28,07,00,00,00,
18821187,02A03028,true,Rx,0,8,00,9F,81,01,1A,00,00,00,
18822373,03200008,true,Rx,0,8,00,00,00,00,00,80,00,00,
18823548,00613DF8,true,Rx,0,8,83,00,00,00,00,00,00,00,
18824683,0261300A,true,Rx,0,8,80,00,00,27,80,00,00,C0,
18829727,01C030A2,true,Rx,0,8,00,5B,40,01,89,01,14,00,
18832161,01200028,true,Rx,1,8,08,08,00,48,F0,00,30,2D,
18833517,0140044A,true,Rx,0,8,00,00,00,08,10,00,00,00,
18834688,01E01266,true,Rx,0,8,40,00,02,00,00,00,40,00,
18837830,02C13428,true,Rx,0,8,40,00,08,80,00,CF,20,00,
18838921,02E10DF4,true,Rx,0,8,4F,A9,0F,2C,99,3A,F8,18,
18840066,02001022,true,Rx,0,8,80,00,00,01,35,90,10,43,
18842275,0102C02C,true,Rx,1,8,CF,C1,94,0D,C0,10,00,00,
18842910,00613DF8,true,Rx,0,8,C1,00,00,00,00,00,00,00,
18844034,01213FFC,true,Rx,0,8,CD,00,4C,40,60,01,08,00,
18845241,01800028,true,Rx,0,8,00,00,00,00,00,00,00,00,
18846382,03801028,true,Rx,0,8,40,00,20,08,1C,43,00,00,
18849606,0280142A,true,Rx,0,8,40,50,00,20,07,00,00,00,
18852873,02A03028,true,Rx,0,8,00,9F,81,01,1A,00,00,00,
18854024,00400066,true,Rx,0,8,00,00,00,03,01,5E,40,7F,
18855198,0240102A,true,Rx,0,8,01,00,00,00,00,00,00,00,
18856322,0261300A,true,Rx,0,8,C0,00,00,27,80,00,00,C0,
18857241,00608024,true,Rx,1,8,40,00,00,00,00,01,03,3E,
18862191,01200028,true,Rx,1,8,48,08,00,48,F0,00,30,2D,
18862846,00613DF8,true,Rx,0,8,03,00,00,00,00,00,00,00,
18864001,0340024C,true,Rx,0,8,40,00,00,00,0C,99,00,00,
18867101,0102C02C,true,Rx,1,8,0F,C1,94,0D,C0,11,00,00,
18867756,01213FFC,true,Rx,0,8,0D,00,4C,00,70,41,08,00,
18873508,0140044A,true,Rx,0,8,40,00,00,08,00,00,00,00,
18874608,01C030A2,true,Rx,0,8,40,5B,40,01,89,01,14,00,
18879462,01E01266,true,Rx,0,8,80,00,02,00,00,00,40,00,
18880603,0280142A,true,Rx,0,8,80,50,00,20,07,00,00,00,
18882918,00613DF8,true,Rx,0,8,41,00,00,00,00,00,00,00,
18884113,01800028,true,Rx,0,8,40,00,00,00,00,00,00,00,
18885238,02001022,true,Rx,0,8,C0,00,00,01,35,90,10,43,
18886372,0261300A,true,Rx,0,8,00,00,00,27,80,00,00,C0,
18887780,02A03028,true,Rx,0,8,00,1F,41,09,1A,00,00,00,
18888946,0240102A,true,Rx,0,8,41,00,00,00,00,00,00,00,
18892188,0102C02C,true,Rx,1,8,4F,C1,94,0D,C0,10,00,00,
18892762,01200028,true,Rx,1,8,88,08,00,48,F0,00,30,2D,
18892834,01213FFC,true,Rx,0,8,4D,00,4C,00,70,01,08,00,
18893969,02C13428,true,Rx,0,8,80,00,08,80,00,CF,20,00,
18895074,02E10DF4,true,Rx,0,8,8F,A9,2F,AC,99,3A,F8,18,
18897188,0360000A,true,Rx,0,8,80,00,00,00,00,14,00,80,
18902825,00613DF8,true,Rx,0,8,83,00,00,00,00,00,00,00,
18909620,0280142A,true,Rx,0,8,C0,10,00,20,07,00,00,00,
18913482,0140044A,true,Rx,0,8,80,00,00,18,10,00,00,00,
18914613,0261300A,true,Rx,0,8,40,00,00,27,80,00,00,C0,
18917189,0102C02C,true,Rx,1,8,8F,C1,94,0D,C0,10,00,00,
18917802,01213FFC,true,Rx,0,8,8D,00,4C,40,60,01,08,00,
18919727,01C030A2,true,Rx,0,8,80,5B,40,01,89,01,14,00,
18922210,01200028,true,Rx,1,8,C8,00,00,48,F0,00,30,2D,
18922859,00613DF8,true,Rx,0,8,C1,00,00,00,00,00,00,00,
18924034,01800028,true,Rx,0,8,80,00,00,00,00,00,00,00,
18925191,01E01266,true,Rx,0,8,C0,00,06,00,00,00,40,00,
18926347,0240102A,true,Rx,0,8,81,00,00,00,00,00,00,00,
18927492,02A03028,true,Rx,0,8,00,9F,81,01,1A,00,00,00,
18928677,03200008,true,Rx,0,8,00,00,00,00,00,80,00,00,
18929818,00400066,true,Rx,0,8,40,00,00,04,01,5E,40,7F,
18930954,02001022,true,Rx,0,8,00,00,00,01,35,90,10,43,
18932326,00608024,true,Rx,1,8,80,00,00,00,00,01,04,3E,
18939589,0280142A,true,Rx,0,8,00,50,00,20,07,00,00,00,
18942261,0102C02C,true,Rx,1,8,CF,C1,94,0D,C0,10,00,00,
18942905,00613DF8,true,Rx,0,8,03,00,00,00,00,00,00,00,
18944052,01213FFC,true,Rx,0,8,CD,00,4C,00,70,01,08,00,
18945187,0261300A,true,Rx,0,8,80,00,00,27,80,00,00,C0,
18947760,02C13428,true,Rx,0,8,C0,00,08,80,00,CF,20,00,
18948850,02E10DF4,true,Rx,0,8,CF,A9,0F,2C,99,3A,F8,18,
18952137,01200028,true,Rx,1,8,08,08,00,48,F0,00,30,2D,
18953472,0140044A,true,Rx,0,8,C0,00,00,08,00,00,00,00,
18954603,03C0002A,true,Rx,0,8,00,00,30,C0,2D,00,1F,00,
18958042,02A03028,true,Rx,0,8,00,9F,C1,09,1A,00,00,00,
18959194,0240102A,true,Rx,0,8,C0,00,00,00,00,00,00,00,
18962863,00613DF8,true,Rx,0,8,41,00,00,00,00,00,00,00,
18964046,01800028,true,Rx,0,8,C0,00,00,00,00,00,00,00,
18965168,01C030A2,true,Rx,0,8,C0,5B,40,01,89,01,14,00,
18967176,0102C02C,true,Rx,1,8,0F,C1,94,0D,C0,10,00,00,
18967795,01213FFC,true,Rx,0,8,0D,00,4C,00,60,41,08,00,
18969382,01E01266,true,Rx,0,8,00,00,02,00,00,00,40,00,
18970537,0280142A,true,Rx,0,8,40,50,00,20,07,00,00,00,
18974711,02001022,true,Rx,0,8,40,00,00,01,35,90,10,43,
18975842,0261300A,true,Rx,0,8,C0,00,00,27,80,00,00,C0,
18982157,01200028,true,Rx,1,8,48,08,00,CC,F0,00,30,2D,
18982812,00613DF8,true,Rx,0,8,83,00,00,00,00,00,00,00,
18992193,0102C02C,true,Rx,1,8,4F,C1,94,0D,C0,10,00,00,
18992807,01213FFC,true,Rx,0,8,4D,00,4C,40,70,01,08,00,
18993994,0140044A,true,Rx,0,8,00,00,00,18,00,00,00,00,
18995169,0240102A,true,Rx,0,8,01,00,00,00,00,00,00,00,
18996312,02A03028,true,Rx,0,8,00,9F,81,01,1A,00,00,00,
18999585,0280142A,true,Rx,0,8,80,10,00,20,07,00,00,00,
19002874,00613DF8,true,Rx,0,8,C1,00,00,00,00,00,00,00,
19004078,01800028,true,Rx,0,8,00,00,00,00,00,00,00,00,
19005211,00400066,true,Rx,0,8,80,00,00,05,01,5E,40,7F,
19006347,0261300A,true,Rx,0,8,00,00,00,27,80,00,00,C0,
19007224,00608024,true,Rx,1,8,C0,00,00,00,00,01,05,3E,
19007491,02C13428,true,Rx,0,8,00,00,08,80,00,CF,20,00,
19008606,02E10DF4,true,Rx,0,8,0F,A9,2F,AC,99,3A,F8,18,
19009792,01C030A2,true,Rx,0,8,00,5B,40,01,89,01,14,00,
19012193,01200028,true,Rx,1,8,88,08,00,48,F0,00,30,2D,
19014271,01E01266,true,Rx,0,8,40,00,02,00,00,00,40,00,
19017178,0102C02C,true,Rx,1,8,8F,C1,94,0D,C0,10,00,00,
19017752,0132C07C,true,Rx,1,8,11,05,05,05,01,01,01,05,
19017835,01213FFC,true,Rx,0,8,8D,00,4C,00,70,01,08,00,
19018980,01613FFC,true,Rx,0,8,11,05,05,05,01,01,01,05,
19020117,02001022,true,Rx,0,8,80,00,00,01,35,90,10,43,
19022834,00613DF8,true,Rx,0,8,03,00,00,00,00,00,00,00,
19027742,02A03028,true,Rx,0,8,00,9F,91,01,1A,00,80,00,
19028914,0240102A,true,Rx,0,8,41,00,00,00,00,00,00,00,
19030056,0280142A,true,Rx,0,8,C0,50,00,28,07,00,00,00,
19031243,03200008,true,Rx,0,8,00,00,00,00,00,80,00,00,
19033500,0140044A,true,Rx,0,8,40,00,00,08,10,00,00,00,
19035167,0261300A,true,Rx,0,8,40,00,00,27,80,00,00,C0,
19042210,0102C02C,true,Rx,1,8,CF,C1,94,0D,C0,10,00,00,
19042773,01200028,true,Rx,1,8,C8,00,00,48,F0,00,30,2D,
19042877,00613DF8,true,Rx,0,8,41,00,00,00,00,00,00,00,
19044012,01213FFC,true,Rx,0,8,CD,00,4C,00,60,01,08,00,
19045210,01800028,true,Rx,0,8,40,00,00,00,00,00,00,00,
19046341,0340024C,true,Rx,0,8,80,00,10,00,0C,99,00,00,
19054317,03A00002,true,Rx,0,8,40,00,00,04,07,04,98,5E,
19055428,01C030A2,true,Rx,0,8,40,5B,40,01,89,01,14,00,
19057805,02C13428,true,Rx,0,8,40,00,08,80,00,CF,20,00,
19058915,02E10DF4,true,Rx,0,8,4F,A9,2F,AC,99,3A,F8,18,
19060082,01E01266,true,Rx,0,8,80,00,02,00,00,00,40,00,
19061226,0280142A,true,Rx,0,8,00,50,00,20,07,00,00,00,
19062851,00613DF8,true,Rx,0,8,83,00,00,00,00,00,00,00,
19064007,0240102A,true,Rx,0,8,80,00,00,00,00,00,00,00,
19065141,02001022,true,Rx,0,8,C0,00,00,01,35,90,10,43,
19066276,0261300A,true,Rx,0,8,80,00,00,27,80,00,00,C0,
19067215,0102C02C,true,Rx,1,8,0F,C1,94,0D,C0,11,00,00,
19067421,02A03028,true,Rx,0,8,00,9F,C1,09,1A,00,00,00,
19068566,01213FFC,true,Rx,0,8,0D,00,4C,40,70,41,08,00,
19072162,01200028,true,Rx,1,8,08,08,00,48,F0,00,30,2D,
19073498,0140044A,true,Rx,0,8,80,00,00,08,00,00,00,00,
19080309,00400066,true,Rx,0,8,C0,00,00,06,01,5E,40,7F,
19082308,00608024,true,Rx,1,8,00,00,00,00,00,01,06,3E,
19082942,00613DF8,true,Rx,0,8,C1,00,00,00,00,00,00,00,
19084129,01800028,true,Rx,0,8,80,00,00,00,00,00,00,00,
19089567,0280142A,true,Rx,0,8,40,10,00,20,07,00,00,00,
19092250,0102C02C,true,Rx,1,8,4F,C1,94,0D,C0,10,00,00,
19092873,01213FFC,true,Rx,0,8,4D,00,4C,00,70,01,08,00,
19095478,0261300A,true,Rx,0,8,C0,00,00,27,80,00,00,C0,
19097753,02A03028,true,Rx,0,8,00,9F,81,01,1A,00,00,00,
19098915,0240102A,true,Rx,0,8,C1,00,00,00,00,00,00,00,
19100020,01C030A2,true,Rx,0,8,80,5B,40,01,89,01,14,00,
19102207,01200028,true,Rx,1,8,48,08,00,48,F0,00,30,2D,
19102850,00613DF8,true,Rx,0,8,03,00,00,00,00,00,00,00,
19104394,01E01266,true,Rx,0,8,C0,00,02,00,00,00,40,00,
19109427,02001022,true,Rx,0,8,00,00,00,01,35,90,10,43,
19112800,02C13428,true,Rx,0,8,80,00,08,80,00,CF,20,00,
19113973,0140044A,true,Rx,0,8,C0,00,00,18,10,00,00,00,
19115073,02E10DF4,true,Rx,0,8,8F,A9,0F,2C,99,3A,F8,18,
19116230,04000002,true,Rx,0,8,40,00,01,00,B4,00,00,52,
19117179,0102C02C,true,Rx,1,8,8F,C1,94,0D,C0,10,00,00,
19117797,01213FFC,true,Rx,0,8,8D,00,4C,00,60,01,08,00,
19119559,0280142A,true,Rx,0,8,80,50,00,20,07,00,00,00,
19122898,00613DF8,true,Rx,0,8,41,00,00,00,00,00,00,00,
19124080,01800028,true,Rx,0,8,C0,00,00,00,00,00,00,00,
19125501,0261300A,true,Rx,0,8,00,00,00,27,80,00,00,C0,
19132124,01200028,true,Rx,1,8,88,08,00,48,F0,00,30,2D,
19132778,02A03028,true,Rx,0,8,00,9F,81,01,1A,00,00,00,
19133934,0240102A,true,Rx,0,8,03,00,00,00,00,00,00,00,
19135119,03200008,true,Rx,0,8,00,00,00,00,00,80,00,00,
19142210,0102C02C,true,Rx,1,8,CF,C1,94,0D,C0,10,00,00,
19142855,00613DF8,true,Rx,0,8,83,00,00,00,00,00,00,00,
19144000,01213FFC,true,Rx,0,8,CD,00,4C,00,70,01,08,00,
19145123,01C030A2,true,Rx,0,8,C0,5B,40,01,89,01,14,00,
19149373,01E01266,true,Rx,0,8,00,00,02,00,00,00,40,00,
19150525,0280142A,true,Rx,0,8,C0,50,00,20,07,00,00,00,
19153470,0140044A,true,Rx,0,8,00,00,00,08,00,00,00,00,
19154632,02001022,true,Rx,0,8,40,00,00,01,35,90,10,43,
19155774,00400066,true,Rx,0,8,00,00,00,07,01,5E,40,7F,
19156910,0261300A,true,Rx,0,8,40,00,00,27,80,00,00,C0,
19157295,00608024,true,Rx,1,8,40,00,00,00,00,01,07,3E,
19162208,01200028,true,Rx,1,8,C8,00,00,48,F0,00,30,2D,
19162852,00613DF8,true,Rx,0,8,C1,00,00,00,00,00,00,00,
19164049,01800028,true,Rx,0,8,00,00,00,00,00,00,00,00,
19165194,03801028,true,Rx,0,8,80,00,20,08,1C,43,00,00,
19167087,0102C02C,true,Rx,1,8,0F,C1,94,0D,C0,10,00,00,
19167737,01213FFC,true,Rx,0,8,0D,00,4C,40,60,41,08,00,
19168901,0240102A,true,Rx,0,8,40,00,00,00,00,00,00,00,
19170037,02A03028,true,Rx,0,8,00,1F,41,09,1A,00,00,00,
19171160,02C13428,true,Rx,0,8,C0,00,08,80,00,CF,20,00,
19172255,02E10DF4,true,Rx,0,8,CF,A9,2F,AC,99,3A,F8,18,
19179549,0280142A,true,Rx,0,8,00,10,00,20,07,00,00,00,
19182852,00613DF8,true,Rx,0,8,03,00,00,00,00,00,00,00,
19185895,0261300A,true,Rx,0,8,80,00,00,27,80,00,00,C0,
19189736,01C030A2,true,Rx,0,8,00,5B,40,01,89,01,14,00,
19192180,0102C02C,true,Rx,1,8,4F,C1,94,0D,C0,10,00,00,
19192743,01200028,true,Rx,1,8,08,08,00,48,F0,00,30,2D,
19192827,01213FFC,true,Rx,0,8,4D,00,4C,00,70,01,08,00,
19193982,0140044A,true,Rx,0,8,40,00,00,18,00,00,00,00,
19195151,01E01266,true,Rx,0,8,40,00,02,00,00,00,40,00,
19199472,02001022,true,Rx,0,8,80,00,00,01,35,90,10,43,
19202846,00613DF8,true,Rx,0,8,41,00,00,00,00,00,00,00,
19204039,01800028,true,Rx,0,8,40,00,00,00,00,00,00,00,
19205202,0240102A,true,Rx,0,8,81,00,00,00,00,00,00,00,
19206347,02A03028,true,Rx,0,8,00,9F,81,01,1A,00,00,00,
19209555,0280142A,true,Rx,0,8,40,50,00,20,07,00,00,00,
19215956,0261300A,true,Rx,0,8,C0,00,00,27,80,00,00,C0,
19217068,0102C02C,true,Rx,1,8,8F,C1,94,0D,C0,10,00,00,
19217110,0360000A,true,Rx,0,8,C0,00,00,00,00,14,00,80,
19218254,01213FFC,true,Rx,0,8,8D,00,4C,00,70,01,08,00,
19219430,04200002,true,Rx,0,8,00,00,00,00,00,00,01,03,
19222205,01200028,true,Rx,1,8,48,08,00,48,F0,00,30,2D,
19222860,00613DF8,true,Rx,0,8,83,00,00,00,00,00,00,00,
19223994,02C13428,true,Rx,0,8,00,00,08,80,00,CF,20,00,
19225097,02E10DF4,true,Rx,0,8,0F,A9,0F,2C,99,3A,F8,18,
19226260,0340024C,true,Rx,0,8,C0,00,00,00,04,99,00,00,
19231031,00400066,true,Rx,0,8,40,00,00,00,01,5E,40,7F,
19233485,0140044A,true,Rx,0,8,80,00,00,08,10,00,00,00,
19234616,01C030A2,true,Rx,0,8,40,5B,40,01,89,01,14,00,
19237265,00608024,true,Rx,1,8,80,00,00,00,00,01,00,3E,
19237909,02A03028,true,Rx,0,8,00,9F,81,01,1A,00,00,00,
19239066,0240102A,true,Rx,0,8,C1,00,00,00,00,00,00,00,
19240230,01E01266,true,Rx,0,8,80,00,02,00,00,00,40,00,
19241366,0280142A,true,Rx,0,8,80,50,00,28,07,00,00,00,
19242316,0102C02C,true,Rx,1,8,CF,C1,94,0D,C0,10,00,00,
19242542,03200008,true,Rx,0,8,00,00,00,00,00,80,00,00,
19243717,00613DF8,true,Rx,0,8,C1,00,00,00,00,00,00,00,
19244841,01213FFC,true,Rx,0,8,CD,00,4C,40,60,01,08,00,
19246027,01800028,true,Rx,0,8,80,00,00,00,00,00,00,00,
19247152,02001022,true,Rx,0,8,C0,00,00,01,35,90,10,43,
19248286,0261300A,true,Rx,0,8,00,00,00,27,80,00,00,C0,
19252193,01200028,true,Rx,1,8,88,08,00,48,F0,00,30,2D,
19262811,00613DF8,true,Rx,0,8,03,00,00,00,00,00,00,00,
19267142,0102C02C,true,Rx,1,8,0F,C1,94,0D,C0,11,00,00,
19267755,01213FFC,true,Rx,0,8,0D,00,4C,00,70,41,08,00,
19269558,0280142A,true,Rx,0,8,C1,10,00,20,07,00,00,00,
19272853,02A03028,true,Rx,0,8,00,9F,D1,09,1A,00,80,00,
19274014,0140044A,true,Rx,0,8,C0,00,00,08,00,00,00,00,
19275192,0240102A,true,Rx,0,8,01,00,00,00,00,00,00,00,
19276583,0261300A,true,Rx,0,8,40,00,00,27,80,00,00,C0,
19277775,02C13428,true,Rx,0,8,40,00,08,80,00,CF,20,00,
19278880,02E10DF4,true,Rx,0,8,4F,A9,2F,AC,99,3A,F8,18,
19279981,01C030A2,true,Rx,0,8,80,5B,40,01,89,01,14,00,
19282229,01200028,true,Rx,1,8,C8,00,00,48,F0,00,30,2D,
19282867,00613DF8,true,Rx,0,8,41,00,00,00,00,00,00,00,
19284051,01800028,true,Rx,0,8,C0,00,00,00,00,00,00,00,
19285219,01E01266,true,Rx,0,8,C0,00,02,00,00,00,40,00,
19289435,02001022,true,Rx,0,8,00,00,00,01,35,90,10,43,
19292190,0102C02C,true,Rx,1,8,4F,C1,94,0D,C0,10,00,00,
19292754,0132C07C,true,Rx,1,8,16,01,43,04,01,02,01,01,
19292837,01213FFC,true,Rx,0,8,4D,00,4C,00,70,01,08,00,
19293971,01613FFC,true,Rx,0,8,16,01,43,04,01,02,01,01,
19299540,0280142A,true,Rx,0,8,00,50,00,20,07,00,00,00,
19302852,00613DF8,true,Rx,0,8,83,00,00,00,00,00,00,00,
19306540,00400066,true,Rx,0,8,80,00,00,01,01,5E,40,7F,
19307681,0261300A,true,Rx,0,8,80,00,00,27,80,00,00,C0,
19308843,0240102A,true,Rx,0,8,40,00,00,00,00,00,00,00,
19309988,02A03028,true,Rx,0,8,00,9F,81,01,1A,00,00,00,
19312277,00608024,true,Rx,1,8,C0,00,00,00,00,01,01,3E,
19312841,01200028,true,Rx,1,8,08,08,00,48,F0,00,30,2D,
19313440,0140044A,true,Rx,0,8,00,00,00,18,10,00,00,00,
19317186,0102C02C,true,Rx,1,8,8F,C1,94,0D,C0,10,00,00,
19317799,01213FFC,true,Rx,0,8,8D,00,4C,40,60,01,08,00,
19322814,00613DF8,true,Rx,0,8,C1,00,00,00,00,00,00,00,
19324016,01800028,true,Rx,0,8,00,00,00,00,00,00,00,00,
19325139,01C030A2,true,Rx,0,8,C0,5B,40,01,89,01,14,00,
19329363,01E01266,true,Rx,0,8,00,00,02,00,00,00,40,00,
19330517,0280142A,true,Rx,0,8,40,50,00,20,07,00,00,00,
19332884,02C13428,true,Rx,0,8,80,00,08,80,00,CF,20,00,
19333973,02E10DF4,true,Rx,0,8,8F,A9,0F,2C,99,3A,F8,18,
19335110,02001022,true,Rx,0,8,40,00,00,01,35,90,10,43,
19336717,0261300A,true,Rx,0,8,C0,00,00,27,80,00,00,C0,
19342193,0102C02C,true,Rx,1,8,CF,C1,94,0D,C0,10,00,00,
19342768,01200028,true,Rx,1,8,48,08,00,48,F0,00,30,2D,
19342871,00613DF8,true,Rx,0,8,03,00,00,00,00,00,00,00,
19344015,01213FFC,true,Rx,0,8,CD,00,4C,00,70,01,08,00,
19345173,0240102A,true,Rx,0,8,81,00,00,00,00,00,00,00,
19346324,02A03028,true,Rx,0,8,00,9F,81,01,1A,00,00,00,
19347501,03200008,true,Rx,0,8,00,00,00,00,00,80,00,00,
19353445,0140044A,true,Rx,0,8,40,00,00,08,00,00,00,00,
19359596,0280142A,true,Rx,0,8,80,10,00,20,07,00,00,00,
19362877,00613DF8,true,Rx,0,8,41,00,00,00,00,00,00,00,
19364060,01800028,true,Rx,0,8,40,00,00,00,00,00,00,00,
19365192,03C0002A,true,Rx,0,8,00,00,30,C0,2D,00,9F,00,
19366821,0261300A,true,Rx,0,8,00,00,00,27,80,00,00,C0,
19367297,0102C02C,true,Rx,1,8,0F,C1,94,0D,C0,10,00,00,
19367956,01213FFC,true,Rx,0,8,0D,00,4C,00,60,41,08,00,
19369811,01C030A2,true,Rx,0,8,00,5B,40,01,89,01,14,00,
19372170,01200028,true,Rx,1,8,88,08,00,CC,F0,00,30,2D,
19374361,01E01266,true,Rx,0,8,40,00,02,00,00,00,40,00,
19377794,02A03028,true,Rx,0,8,00,9F,C1,09,1A,00,00,00,
19378956,0240102A,true,Rx,0,8,C1,00,00,00,00,00,00,00,
19380097,02001022,true,Rx,0,8,80,00,00,01,35,90,10,43,
19381858,00400066,true,Rx,0,8,C0,00,00,02,01,5E,40,7F,
19383127,00613DF8,true,Rx,0,8,83,00,00,00,00,00,00,00,
19387228,00608024,true,Rx,1,8,00,00,00,00,00,01,02,3E,
19387852,02C13428,true,Rx,0,8,C0,00,08,80,00,CF,20,00,
19388945,02E10DF4,true,Rx,0,8,CF,A9,2F,AC,99,3A,F8,18,
19390088,0280142A,true,Rx,0,8,C0,50,00,20,07,00,00,00,
19392232,0102C02C,true,Rx,1,8,4F,C1,94,0D,C0,10,00,00,
19392860,01213FFC,true,Rx,0,8,4D,00,4C,40,70,01,08,00,
19394015,0140044A,true,Rx,0,8,80,00,00,18,00,00,00,00,
19396927,0261300A,true,Rx,0,8,40,00,00,27,80,00,00,C0,
19402199,01200028,true,Rx,1,8,C8,00,00,48,F0,00,30,2D,
19402833,00613DF8,true,Rx,0,8,C1,00,00,00,00,00,00,00,
19404021,01800028,true,Rx,0,8,80,00,00,00,00,00,00,00,
19405166,0340024C,true,Rx,0,8,00,00,00,00,0C,99,00,00,
19412773,02A03028,true,Rx,0,8,00,9F,81,01,1A,00,00,00,
19413956,0240102A,true,Rx,0,8,00,00,00,00,00,00,00,00,
19415055,01C030A2,true,Rx,0,8,40,5B,40,01,89,01,14,00,
19417147,0102C02C,true,Rx,1,8,8F,C1,94,0D,C0,10,00,00,
19417775,01213FFC,true,Rx,0,8,8D,00,4C,00,70,01,08,00,
19419517,0280142A,true,Rx,0,8,00,50,00,28,07,00,00,00,
19420693,01E01266,true,Rx,0,8,80,00,06,00,00,00,40,00,
19422898,00613DF8,true,Rx,0,8,03,00,00,00,00,00,00,00,
19424782,02001022,true,Rx,0,8,C0,00,00,01,35,90,10,43,
19426933,0261300A,true,Rx,0,8,80,00,00,27,80,00,00,C0,
19432144,01200028,true,Rx,1,8,08,08,00,48,F0,00,30,2D,
19433470,0140044A,true,Rx,0,8,C0,00,00,08,10,00,00,00,
19442221,0102C02C,true,Rx,1,8,CF,C1,94,0D,C0,10,00,00,
19442866,00613DF8,true,Rx,0,8,41,00,00,00,00,00,00,00,
19444001,01213FFC,true,Rx,0,8,CD,00,4C,00,60,01,08,00,
19445187,01800028,true,Rx,0,8,C0,00,00,00,00,00,00,00,
19446318,02C13428,true,Rx,0,8,00,00,08,80,00,CF,20,00,
19447423,02E10DF4,true,Rx,0,8,0F,A9,0F,2C,99,3A,F8,18,
19448598,0240102A,true,Rx,0,8,41,00,00,00,00,00,00,00,
19449743,0280142A,true,Rx,0,8,40,10,00,20,07,00,00,00,
19450887,02A03028,true,Rx,0,8,00,1F,01,01,1A,00,00,00,
19452073,03200008,true,Rx,0,8,00,00,00,00,00,80,00,00,
19457203,00400066,true,Rx,0,8,00,00,00,03,01,5E,40,7F,
19458334,0261300A,true,Rx,0,8,C0,00,00,27,80,00,00,C0,
19459702,01C030A2,true,Rx,0,8,80,5B,40,01,89,01,14,00,
19462288,00608024,true,Rx,1,8,40,00,00,00,00,01,03,3E,
19462866,01200028,true,Rx,1,8,48,08,00,48,F0,00,30,2D,
19462959,00613DF8,true,Rx,0,8,83,00,00,00,00,00,00,00,
19464404,01E01266,true,Rx,0,8,C0,00,02,00,00,00,40,00,
19467134,0102C02C,true,Rx,1,8,0F,C1,94,0D,C0,11,00,00,
19467759,01213FFC,true,Rx,0,8,0D,00,4C,40,70,41,08,00,
19469498,02001022,true,Rx,0,8,00,00,00,01,35,90,10,43,
19470633,03A00002,true,Rx,0,8,80,00,00,04,07,04,98,5E,
19473479,0140044A,true,Rx,0,8,00,00,00,08,00,00,00,00,
19479517,0280142A,true,Rx,0,8,80,50,00,20,07,00,00,00,
19482860,00613DF8,true,Rx,0,8,C1,00,00,00,00,00,00,00,
19484053,01800028,true,Rx,0,8,00,00,00,00,00,00,00,00,
19485216,0240102A,true,Rx,0,8,83,00,00,00,00,00,00,00,
19486373,02A03028,true,Rx,0,8,00,9F,C1,09,1A,00,00,00,
19487505,0261300A,true,Rx,0,8,00,00,00,27,80,00,00,C0,
19488641,03801028,true,Rx,0,8,C0,00,20,08,5C,43,00,00,
19492163,0102C02C,true,Rx,1,8,4F,C1,94,0D,C0,10,00,00,
19492737,01200028,true,Rx,1,8,88,08,00,48,F0,00,30,2D,
19492809,01213FFC,true,Rx,0,8,4D,00,4C,00,70,01,08,00,
19497733,02C13428,true,Rx,0,8,40,00,08,80,00,CF,20,00,
19498843,02E10DF4,true,Rx,0,8,4F,A9,2F,AC,99,3A,F8,18,
19502793,00613DF8,true,Rx,0,8,03,00,00,00,00,00,00,00,
19504790,01C030A2,true,Rx,0,8,C0,5B,40,01,89,01,14,00,
19509370,01E01266,true,Rx,0,8,00,00,02,00,00,00,40,00,
19510511,0280142A,true,Rx,0,8,C0,50,00,20,07,00,00,00,
19513425,0140044A,true,Rx,0,8,40,00,00,18,10,00,00,00,
19514649,02001022,true,Rx,0,8,40,00,00,01,35,90,10,43,
19517152,0102C02C,true,Rx,1,8,8F,C1,94,0D,C0,10,00,00,
19517461,0261300A,true,Rx,0,8,40,00,00,27,80,00,00,C0,
19518595,01213FFC,true,Rx,0,8,8D,00,4C,00,60,01,08,00,
19519756,0240102A,true,Rx,0,8,C0,00,00,00,00,00,00,00,
19520881,02A03028,true,Rx,0,8,00,9F,91,01,1A,00,80,00,
19522212,01200028,true,Rx,1,8,C8,00,00,48,F0,00,30,2D,
19522871,00613DF8,true,Rx,0,8,41,00,00,00,00,00,00,00,
19524056,01800028,true,Rx,0,8,40,00,00,00,00,00,00,00,
19532470,00400066,true,Rx,0,8,40,00,00,04,01,5E,40,7F,
19537036,0360000A,true,Rx,0,8,00,00,00,00,00,14,00,80,
19537180,00608024,true,Rx,1,8,80,00,00,00,00,01,04,3E,
19539535,0280142A,true,Rx,0,8,00,10,00,20,07,00,00,00,
19542255,0102C02C,true,Rx,1,8,CF,C1,94,0D,C0,10,00,00,
19542903,00613DF8,true,Rx,0,8,83,00,00,00,00,00,00,00,
19544047,01213FFC,true,Rx,0,8,CD,00,4C,00,70,01,08,00,
19547790,0261300A,true,Rx,0,8,80,00,00,27,80,00,00,C0,
19549847,01C030A2,true,Rx,0,8,00,5B,40,01,89,01,14,00,
19552168,01200028,true,Rx,1,8,08,08,00,48,F0,00,30,2D,
19552823,02A03028,true,Rx,0,8,00,9F,C1,09,1A,00,00,00,
19553980,0140044A,true,Rx,0,8,80,00,00,08,00,00,00,00,
19555144,01E01266,true,Rx,0,8,40,00,02,00,00,00,40,00,
19556317,0240102A,true,Rx,0,8,01,00,00,00,00,00,00,00,
19557452,02C13428,true,Rx,0,8,80,00,08,80,00,CF,20,00,
19558565,02E10DF4,true,Rx,0,8,8F,A9,2F,AC,99,3A,F8,18,
19559711,02001022,true,Rx,0,8,80,00,00,01,35,90,10,43,
19560885,03200008,true,Rx,0,8,00,00,00,00,00,80,00,00,
19562851,00613DF8,true,Rx,0,8,C1,00,00,00,00,00,00,00,
19564038,01800028,true,Rx,0,8,80,00,00,00,00,00,00,00,
19567126,0102C02C,true,Rx,1,8,0F,C1,94,0D,C0,10,00,00,
19567740,01213FFC,true,Rx,0,8,0D,00,4C,40,60,41,08,00,
19569510,0280142A,true,Rx,0,8,40,50,00,20,07,00,00,00,
19572282,0132C07C,true,Rx,1,8,01,0F,B0,55,D7,F0,01,05,
19572920,01613FFC,true,Rx,0,8,01,0F,B0,55,D7,F0,00,09,
19574064,04000002,true,Rx,0,8,80,00,01,00,F4,00,00,51,
19577973,0261300A,true,Rx,0,8,C0,00,00,27,80,00,00,C0,
19582170,01200028,true,Rx,1,8,48,08,00,48,F0,00,30,2D,
19582813,00613DF8,true,Rx,0,8,03,00,00,00,00,00,00,00,
19583949,0340024C,true,Rx,0,8,41,00,10,01,0C,99,00,00,
19587720,02A03028,true,Rx,0,8,00,9F,81,01,1A,00,00,00,
19588891,0240102A,true,Rx,0,8,41,00,00,00,00,00,00,00,
19592181,0102C02C,true,Rx,1,8,4F,C1,94,0D,C0,30,00,00,
19592794,01213FFC,true,Rx,0,8,4D,00,4C,00,70,01,08,00,
19593950,0140044A,true,Rx,0,8,C0,00,00,18,00,00,00,00,
19595062,01C030A2,true,Rx,0,8,40,5B,40,01,89,01,14,00,
19599499,0280142A,true,Rx,0,8,80,50,00,20,07,00,00,00,
19600671,01E01266,true,Rx,0,8,80,00,02,00,00,00,40,00,
19602916,00613DF8,true,Rx,0,8,41,00,00,00,00,00,00,00,
19604100,01800028,true,Rx,0,8,C0,00,00,00,00,00,00,00,
19605225,02001022,true,Rx,0,8,C0,00,00,01,35,90,10,43,
19607729,02C13428,true,Rx,0,8,C0,00,08,80,00,CF,20,00,
19608870,00400066,true,Rx,0,8,80,00,00,05,01,5E,40,7F,
19610002,0261300A,true,Rx,0,8,00,00,00,27,80,00,00,C0,
19611096,02E10DF4,true,Rx,0,8,CF,A9,0F,2C,99,3A,F8,18,
19612242,00608024,true,Rx,1,8,C0,00,00,00,00,01,05,3E,
19612809,01200028,true,Rx,1,8,88,08,00,48,F0,00,30,2D,
19617126,0102C02C,true,Rx,1,8,8F,C1,94,0D,C0,10,00,00,
19617750,01213FFC,true,Rx,0,8,8D,00,4C,00,70,01,08,00,
19622787,00613DF8,true,Rx,0,8,83,00,00,00,00,00,00,00,
19623949,0240102A,true,Rx,0,8,81,00,00,00,00,00,00,00,
19625090,02A03028,true,Rx,0,8,00,9F,81,01,1A,00,00,00,
19629504,0280142A,true,Rx,0,8,C0,10,00,28,07,00,00,00,
19633469,0140044A,true,Rx,0,8,00,00,00,08,10,00,00,00,
19638056,0261300A,true,Rx,0,8,40,00,00,27,80,00,00,C0,
19639703,01C030A2,true,Rx,0,8,80,5B,40,01,89,01,14,00,
19642241,0102C02C,true,Rx,1,8,CF,C1,94,0D,C0,10,00,00,
19642803,01200028,true,Rx,1,8,C8,00,00,48,F0,00,30,2D,
19642897,00613DF8,true,Rx,0,8,C1,00,00,00,00,00,00,00,
19644032,01213FFC,true,Rx,0,8,CD,00,4C,40,60,01,08,00,
19645230,01800028,true,Rx,0,8,00,00,00,00,00,00,00,00,
19646393,01E01266,true,Rx,0,8,C0,00,02,00,00,00,40,00,
19649533,02001022,true,Rx,0,8,00,00,00,01,35,90,10,43,
19657712,02A03028,true,Rx,0,8,00,9F,C1,09,1A,00,00,00,
19658873,0240102A,true,Rx,0,8,C0,00,00,00,00,00,00,00,
19660016,0280142A,true,Rx,0,8,00,50,00,20,07,00,00,00,
19661203,03200008,true,Rx,0,8,00,00,00,00,00,00,00,00,
19662862,00613DF8,true,Rx,0,8,03,00,00,00,00,00,00,00,
19663992,02C13428,true,Rx,0,8,00,00,08,80,00,CF,20,00,
19665120,02E10DF4,true,Rx,0,8,0F,A9,2F,AC,99,3A,F8,18,
19667067,0102C02C,true,Rx,1,8,0F,C1,94,0D,C0,11,00,00,
19667727,01213FFC,true,Rx,0,8,0D,00,4C,00,70,41,08,00,
19668870,0261300A,true,Rx,0,8,80,00,00,27,80,00,00,C0,
19672129,01200028,true,Rx,1,8,08,08,00,48,F0,00,30,2D,
19673453,0140044A,true,Rx,0,8,40,00,00,08,00,00,00,00,
19682803,00613DF8,true,Rx,0,8,41,00,00,00,00,00,00,00,
19683944,00400066,true,Rx,0,8,C0,00,00,06,01,5E,40,7F,
19685129,01800028,true,Rx,0,8,40,00,00,00,00,00,00,00,
19686253,01C030A2,true,Rx,0,8,C0,5B,40,01,89,01,14,00,
19687263,00608024,true,Rx,1,8,00,00,00,00,00,01,06,3E,
19689413,01E01266,true,Rx,0,8,00,00,02,00,00,00,40,00,
19690559,0280142A,true,Rx,0,8,40,50,00,20,07,00,00,00,
19692282,0102C02C,true,Rx,1,8,4F,C1,94,0D,C0,10,00,00,
19692906,01213FFC,true,Rx,0,8,4D,00,4C,00,70,01,08,00,
19694071,0240102A,true,Rx,0,8,01,00,00,00,00,00,00,00,
19695207,02001022,true,Rx,0,8,40,00,00,01,35,90,10,43,
19696352,02A03028,true,Rx,0,8,00,9F,81,01,1A,00,00,00,
19698907,0261300A,true,Rx,0,8,C0,00,00,27,80,00,00,C0,
19702159,01200028,true,Rx,1,8,48,08,00,48,F0,00,30,2D,
19702814,00613DF8,true,Rx,0,8,83,00,00,00,00,00,00,00,
19713415,0140044A,true,Rx,0,8,80,00,00,18,10,00,00,00,
19717124,0102C02C,true,Rx,1,8,8F,C1,94,0D,C0,10,00,00,
19717748,01213FFC,true,Rx,0,8,8D,00,4C,40,60,01,08,00,
19718873,02C13428,true,Rx,0,8,40,00,08,80,00,CF,20,00,
19720026,0280142A,true,Rx,0,8,80,10,00,20,07,00,00,00,
19721121,02E10DF4,true,Rx,0,8,4F,A9,0F,2C,99,3A,F8,18,
19722852,00613DF8,true,Rx,0,8,C1,00,00,00,00,00,00,00,
19724034,01800028,true,Rx,0,8,80,00,00,00,00,00,00,00,
19727735,02A03028,true,Rx,0,8,00,1F,01,01,1A,00,00,00,
19728898,0240102A,true,Rx,0,8,41,00,00,00,00,00,00,00,
19730018,01C030A2,true,Rx,0,8,00,5B,40,01,89,01,14,00,
19731155,0261300A,true,Rx,0,8,00,00,00,27,80,00,00,C0,
19732155,01200028,true,Rx,1,8,88,08,00,48,F0,00,30,2D,
19734439,01E01266,true,Rx,0,8,40,00,02,00,00,00,40,00,
19739412,02001022,true,Rx,0,8,80,00,00,01,35,90,10,43,
19742229,0102C02C,true,Rx,1,8,CF,C1,94,0D,C0,10,00,00,
19742874,00613DF8,true,Rx,0,8,03,00,00,00,00,00,00,00,
19744019,01213FFC,true,Rx,0,8,CD,00,4C,00,70,01,08,00,
19749478,0280142A,true,Rx,0,8,C0,50,00,20,07,00,00,00,
19753424,0140044A,true,Rx,0,8,C0,00,00,08,00,00,00,00,
19759296,00400066,true,Rx,0,8,00,00,00,07,01,5E,40,7F,
19760428,0261300A,true,Rx,0,8,40,00,00,27,80,00,00,C0,
19762281,00608024,true,Rx,1,8,40,00,00,00,00,01,07,3E,
19762849,01200028,true,Rx,1,8,C8,00,00,48,F0,00,30,2D,
19762952,00613DF8,true,Rx,0,8,41,00,00,00,00,00,00,00,
19764130,01800028,true,Rx,0,8,C0,00,00,00,00,00,00,00,
19765296,0240102A,true,Rx,0,8,80,00,00,00,00,00,00,00,
19766418,02A03028,true,Rx,0,8,00,9F,D1,09,1A,00,80,00,
19767114,0102C02C,true,Rx,1,8,0F,C1,94,0D,C0,10,00,00,
19767606,03200008,true,Rx,0,8,00,00,00,00,00,80,00,00,
19768751,01213FFC,true,Rx,0,8,0D,00,4C,00,60,41,08,00,
19769875,0340024C,true,Rx,0,8,81,00,00,01,0C,99,00,00,
19772748,02C13428,true,Rx,0,8,80,00,08,80,00,CF,20,00,
19773858,02E10DF4,true,Rx,0,8,8F,A9,2F,AC,99,3A,F8,18,
19774963,01C030A2,true,Rx,0,8,40,5B,40,01,89,01,14,00,
19776095,03C0002A,true,Rx,0,8,00,00,30,C0,2D,00,1F,00,
19779473,0280142A,true,Rx,0,8,00,50,00,20,07,00,00,00,
19780646,01E01266,true,Rx,0,8,80,00,02,00,00,00,40,00,
19783065,00613DF8,true,Rx,0,8,83,00,00,00,00,00,00,00,
19784712,02001022,true,Rx,0,8,C0,00,00,01,35,90,10,43,
19789326,0261300A,true,Rx,0,8,80,00,00,27,80,00,00,C0,
19792123,0102C02C,true,Rx,1,8,4F,C1,94,0D,C0,10,00,00,
19792697,01200028,true,Rx,1,8,08,08,00,CC,F0,00,30,2D,
19792769,01213FFC,true,Rx,0,8,4D,00,4C,40,70,01,08,00,
19793945,0140044A,true,Rx,0,8,00,00,00,18,00,00,00,00,
19797779,02A03028,true,Rx,0,8,00,9F,81,01,1A,00,00,00,
19798943,0240102A,true,Rx,0,8,C1,00,00,00,00,00,00,00,
19802821,00613DF8,true,Rx,0,8,C1,00,00,00,00,00,00,00,
19804023,01800028,true,Rx,0,8,00,00,00,00,00,00,00,00,
19805177,03801028,true,Rx,0,8,00,00,20,08,1C,43,00,00,
19809475,0280142A,true,Rx,0,8,40,10,00,20,07,00,00,00,
19817047,0102C02C,true,Rx,1,8,8F,C1,94,0D,C0,10,00,00,
19817714,01213FFC,true,Rx,0,8,8D,00,4C,00,70,01,08,00,
19819506,0261300A,true,Rx,0,8,C0,00,00,27,80,00,00,C0,
19820610,01C030A2,true,Rx,0,8,80,5B,40,01,89,01,14,00,
19822209,01200028,true,Rx,1,8,48,08,00,48,F0,00,30,2D,
19822857,00613DF8,true,Rx,0,8,03,00,00,00,00,00,00,00,
19824486,01E01266,true,Rx,0,8,C0,00,02,00,00,00,40,00,
19827732,02C13428,true,Rx,0,8,C0,00,08,80,00,CF,20,00,
19828833,02E10DF4,true,Rx,0,8,CF,A9,0F,2C,99,3A,F8,18,
19829963,02001022,true,Rx,0,8,00,00,00,01,35,90,10,43,
19832785,02A03028,true,Rx,0,8,00,9F,81,01,1A,00,00,00,
19833936,0140044A,true,Rx,0,8,40,00,00,08,10,00,00,00,
19835082,00400066,true,Rx,0,8,40,00,00,00,01,5E,40,7F,
19836247,0240102A,true,Rx,0,8,03,00,00,00,00,00,00,00,
19837220,00608024,true,Rx,1,8,80,00,00,00,00,01,00,3E,
19839454,0280142A,true,Rx,0,8,80,50,00,28,07,00,00,00,
19842278,0102C02C,true,Rx,1,8,CF,C1,94,0D,C0,10,00,00,
19842923,00613DF8,true,Rx,0,8,41,00,00,00,00,00,00,00,
19844059,01213FFC,true,Rx,0,8,CD,00,4C,00,60,01,08,00,
19845254,01800028,true,Rx,0,8,40,00,00,00,00,00,00,00,
19850000,0261300A,true,Rx,0,8,00,00,00,27,80,00,00,C0,
19852124,01200028,true,Rx,1,8,88,08,00,48,F0,00,30,2D,
19856937,0360000A,true,Rx,0,8,40,00,00,00,00,14,00,80,
19857124,0132C07C,true,Rx,1,8,05,00,3E,9E,00,02,07,A8,
19858091,01613FFC,true,Rx,0,8,05,00,3E,9E,00,02,07,A8,
19862790,00613DF8,true,Rx,0,8,83,00,00,00,00,00,00,00,
19864838,01C030A2,true,Rx,0,8,C0,5B,40,01,89,01,14,00,
19867149,0102C02C,true,Rx,1,8,0F,C1,94,0D,C0,11,00,00,
19867782,01213FFC,true,Rx,0,8,0D,00,4C,40,70,41,08,00,
19868938,0240102A,true,Rx,0,8,40,00,00,00,00,00,00,00,
19870113,01E01266,true,Rx,0,8,00,00,02,00,00,00,40,00,
19871255,0280142A,true,Rx,0,8,C0,50,00,20,07,00,00,00,
19872400,02A03028,true,Rx,0,8,00,9F,C1,09,1A,00,00,00,
19873565,0140044A,true,Rx,0,8,80,00,00,08,00,00,00,00,
19874752,03200008,true,Rx,0,8,00,00,00,00,00,80,00,00,
19875874,02001022,true,Rx,0,8,40,00,00,01,35,90,10,43,
19879968,0261300A,true,Rx,0,8,40,00,00,27,80,00,00,C0,
19882194,01200028,true,Rx,1,8,C8,00,00,48,F0,00,30,2D,
19882839,00613DF8,true,Rx,0,8,C1,00,00,00,00,00,00,00,
19884026,01800028,true,Rx,0,8,80,00,00,00,00,00,00,00,
19885160,02C13428,true,Rx,0,8,00,00,08,80,00,CF,20,00,
19886282,02E10DF4,true,Rx,0,8,0F,A9,2F,AC,99,3A,F8,18,
19887416,03A00002,true,Rx,0,8,C0,00,00,04,07,04,98,5E,
19892158,0102C02C,true,Rx,1,8,4F,C1,94,0D,C0,10,00,00,
19892782,01213FFC,true,Rx,0,8,4D,00,4C,00,70,01,08,00,
19899457,0280142A,true,Rx,0,8,00,10,00,20,07,00,00,00,
19902831,00613DF8,true,Rx,0,8,03,00,00,00,00,00,00,00,
19903984,0240102A,true,Rx,0,8,81,00,00,00,00,00,00,00,
19905136,02A03028,true,Rx,0,8,00,9F,81,01,1A,00,00,00,
19909733,01C030A2,true,Rx,0,8,00,5B,40,01,89,01,14,00,
19910885,00400066,true,Rx,0,8,80,00,00,01,01,5E,40,7F,
19912016,0261300A,true,Rx,0,8,80,00,00,27,80,00,00,C0,
19912154,01200028,true,Rx,1,8,08,08,00,48,F0,00,30,2D,
19913462,0140044A,true,Rx,0,8,C0,00,00,18,10,00,00,00,
19914608,01E01266,true,Rx,0,8,40,00,06,00,00,00,40,00,
19917298,00608024,true,Rx,1,8,C0,00,00,00,00,01,01,3E,
19917872,0102C02C,true,Rx,1,8,8F,C1,94,0D,C0,10,00,00,
19917985,01213FFC,true,Rx,0,8,8D,00,4C,00,60,01,08,00,
19919472,02001022,true,Rx,0,8,80,00,00,01,35,90,10,43,
19922817,00613DF8,true,Rx,0,8,41,00,00,00,00,00,00,00,
19924001,01800028,true,Rx,0,8,C0,00,00,00,00,00,00,00,
19929465,0280142A,true,Rx,0,8,40,50,00,20,07,00,00,00,
19937689,02A03028,true,Rx,0,8,00,9F,81,01,1A,00,00,00,
19938852,0240102A,true,Rx,0,8,C1,00,00,00,00,00,00,00,
19939982,02C13428,true,Rx,0,8,40,00,08,80,00,CF,20,00,
19941109,0261300A,true,Rx,0,8,C0,00,00,27,80,00,00,C0,
19942171,0102C02C,true,Rx,1,8,CF,C1,94,0D,C0,10,00,00,
19942202,02E10DF4,true,Rx,0,8,4F,A9,0F,2C,99,3A,F8,18,
19942741,01200028,true,Rx,1,8,48,08,00,48,F0,00,30,2D,
19943370,00613DF8,true,Rx,0,8,83,00,00,00,00,00,00,00,
19944517,01213FFC,true,Rx,0,8,CD,00,4C,00,70,01,08,00,
19945653,0340024C,true,Rx,0,8,C1,00,00,01,04,99,00,00,
19953413,0140044A,true,Rx,0,8,00,00,00,08,00,00,00,00,
19954648,01C030A2,true,Rx,0,8,40,5B,40,01,89,01,14,00,
19959480,0280142A,true,Rx,0,8,80,50,00,20,07,00,00,00,
19960641,01E01266,true,Rx,0,8,80,00,02,00,00,00,40,00,
19962886,00613DF8,true,Rx,0,8,C1,00,00,00,00,00,00,00,
19964090,01800028,true,Rx,0,8,00,00,00,00,00,00,00,00,
19965215,02001022,true,Rx,0,8,C0,00,00,01,35,90,10,43,
19967113,0102C02C,true,Rx,1,8,0F,C1,94,0D,C0,10,00,00,
19967727,01213FFC,true,Rx,0,8,0D,00,4C,40,60,41,08,00,
19970188,0261300A,true,Rx,0,8,00,00,00,27,80,00,00,C0,
19972206,01200028,true,Rx,1,8,88,08,00,48,F0,00,30,2D,
19972844,02A03028,true,Rx,0,8,00,9F,41,09,1A,00,00,00,
19974019,0240102A,true,Rx,0,8,01,00,00,00,00,00,00,00,
19975207,03200008,true,Rx,0,8,00,00,00,00,00,80,00,00,
19982769,00613DF8,true,Rx,0,8,03,00,00,00,00,00,00,00,
19985349,00400066,true,Rx,0,8,C0,00,00,02,01,5E,40,7F,
19987193,00608024,true,Rx,1,8,00,00,00,00,00,01,02,3E,
19989487,0280142A,true,Rx,0,8,C0,10,00,20,07,00,00,00,
19992241,0102C02C,true,Rx,1,8,4F,C1,94,0D,C0,10,00,00,
19992855,01213FFC,true,Rx,0,8,4D,00,4C,00,70,01,08,00,
19994022,0140044A,true,Rx,0,8,40,00,00,18,00,00,00,00,
19995145,02C13428,true,Rx,0,8,80,00,08,80,00,CF,20,00,
19996261,02E10DF4,true,Rx,0,8,8F,A9,2F,AC,99,3A,F8,18,
19999772,01C030A2,true,Rx,0,8,80,5B,40,01,89,01,14,00,
20000903,0261300A,true,Rx,0,8,40,00,00,27,80,00,00,C0,
20002201,01200028,true,Rx,1,8,C8,00,00,48,F0,00,30,2D,
20002839,00613DF8,true,Rx,0,8,41,00,00,00,00,00,00,00,
20004035,01800028,true,Rx,0,8,40,00,00,00,00,00,00,00,
20005203,01E01266,true,Rx,0,8,C0,00,02,00,00,00,40,00,
20007727,02A03028,true,Rx,0,8,00,1F,91,01,1A,00,80,00,
20008889,0240102A,true,Rx,0,8,40,00,00,00,00,00,00,00,
20010031,02001022,true,Rx,0,8,00,00,00,01,35,90,10,43,
20017034,0102C02C,true,Rx,1,8,8F,C1,94,0D,C0,10,00,00,
20017700,01213FFC,true,Rx,0,8,8D,00,4C,00,70,01,08,00,
20019439,0280142A,true,Rx,0,8,00,50,00,28,07,00,00,00,
20022816,00613DF8,true,Rx,0,8,83,00,00,00,00,00,00,00,
20030389,0261300A,true,Rx,0,8,80,00,00,27,80,00,00,C0,
20032120,01200028,true,Rx,1,8,08,08,00,48,F0,00,30,2D,
20033424,0140044A,true,Rx,0,8,80,00,00,08,10,00,00,00,
20034566,04000002,true,Rx,0,8,C0,00,01,00,B4,00,00,51,
20042202,0102C02C,true,Rx,1,8,CF,C1,94,0D,C0,10,00,00,
20042835,00613DF8,true,Rx,0,8,C1,00,00,00,00,00,00,00,
20043961,01213FFC,true,Rx,0,8,CD,00,4C,40,60,01,08,00,
20045146,01800028,true,Rx,0,8,80,00,00,00,00,00,00,00,
20046267,01C030A2,true,Rx,0,8,C0,5B,40,01,89,01,14,00,
20047433,0240102A,true,Rx,0,8,81,00,00,00,00,00,00,00,
20048577,02A03028,true,Rx,0,8,00,9F,81,01,1A,00,00,00,
20049743,01E01266,true,Rx,0,8,00,00,02,00,00,00,40,00,
20050897,0280142A,true,Rx,0,8,40,50,00,20,07,00,00,00,
20052011,02C13428,true,Rx,0,8,C0,00,08,80,00,CF,20,00,
20053115,02E10DF4,true,Rx,0,8,CF,A9,0F,2C,99,3A,F8,18,
20054730,02001022,true,Rx,0,8,40,00,00,01,35,90,10,43,
20060605,00400066,true,Rx,0,8,00,00,00,03,01,5E,40,7F,
20061735,0261300A,true,Rx,0,8,C0,00,00,27,80,00,00,C0,
20062234,00608024,true,Rx,1,8,40,00,00,00,00,01,03,3E,
20062809,01200028,true,Rx,1,8,48,08,00,48,F0,00,30,2D,
20062913,00613DF8,true,Rx,0,8,03,00,00,00,00,00,00,00,
20067112,0102C02C,true,Rx,1,8,0F,C1,94,0D,C0,11,00,00,
20067746,01213FFC,true,Rx,0,8,0D,00,4C,00,70,41,08,00,
20073435,0140044A,true,Rx,0,8,C0,00,00,08,00,00,00,00,
20077732,02A03028,true,Rx,0,8,00,9F,C1,09,1A,00,00,00,
20078894,0240102A,true,Rx,0,8,C1,00,00,00,00,00,00,00,
20080046,0280142A,true,Rx,0,8,80,10,00,20,07,00,00,00,
20081233,03200008,true,Rx,0,8,00,00,00,00,00,80,00,00,
20082860,00613DF8,true,Rx,0,8,41,00,00,00,00,00,00,00,
20084043,01800028,true,Rx,0,8,C0,00,00,00,00,00,00,00,
20089742,01C030A2,true,Rx,0,8,00,5B,40,01,89,01,14,00,
20090873,0261300A,true,Rx,0,8,00,00,00,27,80,00,00,C0,
20092110,0102C02C,true,Rx,1,8,4F,C1,94,0D,C0,10,00,00,
20092677,01200028,true,Rx,1,8,88,08,00,48,F0,00,30,2D,
20092770,01213FFC,true,Rx,0,8,4D,00,4C,00,70,01,08,00,
20094474,01E01266,true,Rx,0,8,40,00,02,00,00,00,40,00,
20099510,02001022,true,Rx,0,8,80,00,00,01,35,90,10,43,
20102791,00613DF8,true,Rx,0,8,83,00,00,00,00,00,00,00,
20103923,02C13428,true,Rx,0,8,00,00,08,80,00,CF,20,00,
20105043,02E10DF4,true,Rx,0,8,0F,A9,2F,AC,99,3A,F8,18,
20109435,0280142A,true,Rx,0,8,C0,50,00,20,07,00,00,00,
20112830,02A03028,true,Rx,0,8,00,9F,81,01,1A,00,00,00,
20113992,0140044A,true,Rx,0,8,00,00,00,18,10,00,00,00,
20115166,0240102A,true,Rx,0,8,00,00,00,00,00,00,00,00,
20117133,0102C02C,true,Rx,1,8,8F,C1,94,0D,C0,10,00,00,
20117750,01213FFC,true,Rx,0,8,8D,00,4C,40,60,01,08,00,
20120636,0261300A,true,Rx,0,8,40,00,00,27,80,00,00,C0,
20122161,01200028,true,Rx,1,8,C8,00,00,48,F0,00,30,2D,
20122809,00613DF8,true,Rx,0,8,C1,00,00,00,00,00,00,00,
20124004,01800028,true,Rx,0,8,00,00,00,00,00,00,00,00,
20125148,0340024C,true,Rx,0,8,00,00,10,00,0C,99,00,00,
20126292,03801028,true,Rx,0,8,40,00,20,08,1C,43,00,00,
20128559,04200002,true,Rx,0,8,00,00,00,00,00,00,01,03,
20132143,0132C07C,true,Rx,1,8,12,01,01,02,05,02,05,01,
20132776,01613FFC,true,Rx,0,8,12,01,01,02,05,02,05,01,
20134783,01C030A2,true,Rx,0,8,40,5B,40,01,89,01,14,00,
20135919,00400066,true,Rx,0,8,40,00,00,04,01,5E,40,7F,
20139430,0280142A,true,Rx,0,8,00,50,00,20,07,00,00,00,
20140603,01E01266,true,Rx,0,8,80,00,02,00,00,00,40,00,
20142354,00608024,true,Rx,1,8,80,00,00,00,00,01,04,3E,
20142943,0102C02C,true,Rx,1,8,CF,C1,94,0D,C0,10,00,00,
20143035,00613DF8,true,Rx,0,8,03,00,00,00,00,00,00,00,
20144182,01213FFC,true,Rx,0,8,CD,00,4C,00,70,01,08,00,
20145307,02001022,true,Rx,0,8,C0,00,00,01,35,90,10,43,
20147729,02A03028,true,Rx,0,8,00,9F,81,01,1A,00,00,00,
20148892,0240102A,true,Rx,0,8,41,00,00,00,00,00,00,00,
20150796,0261300A,true,Rx,0,8,80,00,00,27,80,00,00,C0,
20152136,01200028,true,Rx,1,8,08,08,00,48,F0,00,30,2D,
20153382,0140044A,true,Rx,0,8,40,00,00,08,00,00,00,00,
20157752,02C13428,true,Rx,0,8,40,00,08,80,00,CF,20,00,
20158852,02E10DF4,true,Rx,0,8,4F,A9,2F,AC,99,3A,F8,18,
20162793,00613DF8,true,Rx,0,8,41,00,00,00,00,00,00,00,
20163985,01800028,true,Rx,0,8,40,00,00,00,00,00,00,00,
20167097,0102C02C,true,Rx,1,8,0F,C1,94,0D,C0,10,00,00,
20167722,01213FFC,true,Rx,0,8,0D,00,4C,00,60,41,08,00,
20169420,0280142A,true,Rx,0,8,40,10,00,20,07,00,00,00,
20176974,0360000A,true,Rx,0,8,80,00,00,00,00,14,00,80,
20179728,01C030A2,true,Rx,0,8,80,5B,40,01,89,01,14,00,
20180879,0261300A,true,Rx,0,8,C0,00,00,27,80,00,00,C0,
20182177,01200028,true,Rx,1,8,48,08,00,48,F0,00,30,2D,
20182826,00613DF8,true,Rx,0,8,83,00,00,00,00,00,00,00,
20183990,0240102A,true,Rx,0,8,83,00,00,00,00,00,00,00,
20185157,01E01266,true,Rx,0,8,C0,00,02,00,00,00,40,00,
20186311,02A03028,true,Rx,0,8,00,9F,C1,09,1A,00,00,00,
20187498,03200008,true,Rx,0,8,00,00,00,00,00,80,00,00,
20188620,03C0002A,true,Rx,0,8,00,00,30,C0,2D,00,9F,00,
20189756,02001022,true,Rx,0,8,00,00,00,01,35,90,10,43,
20192326,0102C02C,true,Rx,1,8,4F,C1,94,0D,C0,10,00,00,
20193022,01213FFC,true,Rx,0,8,4D,00,4C,40,70,01,08,00,
20194188,0140044A,true,Rx,0,8,80,00,00,18,00,00,00,00,
20199420,0280142A,true,Rx,0,8,80,50,00,20,07,00,00,00,
20202827,00613DF8,true,Rx,0,8,C1,00,00,00,00,00,00,00,
20204020,01800028,true,Rx,0,8,80,00,00,00,00,00,00,00,
20210800,00400066,true,Rx,0,8,80,00,00,05,01,5E,40,7F,
20211932,0261300A,true,Rx,0,8,00,00,00,27,80,00,00,C0,
20212111,01200028,true,Rx,1,8,88,08,00,CC,F0,00,30,2D,
20213066,02C13428,true,Rx,0,8,80,00,08,80,00,CF,20,00,
20214161,02E10DF4,true,Rx,0,8,8F,A9,0F,2C,99,3A,F8,18,
20217214,00608024,true,Rx,1,8,C0,00,00,00,00,01,05,3E,
20217789,0102C02C,true,Rx,1,8,8F,C1,94,0D,C0,10,00,00,
20217881,01213FFC,true,Rx,0,8,8D,00,4C,00,70,01,08,00,
20219038,0240102A,true,Rx,0,8,C0,00,00,00,00,00,00,00,
20220184,02A03028,true,Rx,0,8,00,9F,81,01,1A,00,00,00,
20222789,00613DF8,true,Rx,0,8,03,00,00,00,00,00,00,00,
20224867,01C030A2,true,Rx,0,8,C0,5B,40,01,89,01,14,00,
20229411,0280142A,true,Rx,0,8,C0,50,00,28,07,00,00,00,
20230584,01E01266,true,Rx,0,8,00,00,02,00,00,00,40,00,
20233405,0140044A,true,Rx,0,8,C0,00,00,08,10,00,00,00,
20234680,02001022,true,Rx,0,8,40,00,00,01,35,90,10,43,
20240920,0261300A,true,Rx,0,8,40,00,00,27,80,00,00,C0,
20242219,0102C02C,true,Rx,1,8,CF,C1,94,0D,C0,10,00,00,
20242787,01200028,true,Rx,1,8,C8,00,00,48,F0,00,30,2D,
20242880,00613DF8,true,Rx,0,8,41,00,00,00,00,00,00,00,
20244014,01213FFC,true,Rx,0,8,CD,00,4C,00,60,01,08,00,
20245199,01800028,true,Rx,0,8,C0,00,00,00,00,00,00,00,
20252739,02A03028,true,Rx,0,8,00,9F,81,01,1A,00,00,00,
20253921,0240102A,true,Rx,0,8,01,00,00,00,00,00,00,00,
20259458,0280142A,true,Rx,0,8,00,10,00,20,07,00,00,00,
20262802,00613DF8,true,Rx,0,8,83,00,00,00,00,00,00,00,
20267101,0102C02C,true,Rx,1,8,0F,C1,94,0D,C0,11,00,00,
20267725,01213FFC,true,Rx,0,8,0D,00,4C,40,70,41,08,00,
20268851,02C13428,true,Rx,0,8,C0,00,08,80,00,CF,20,00,
20269963,01C030A2,true,Rx,0,8,00,5B,40,01,89,01,14,00,
20271100,0261300A,true,Rx,0,8,80,00,00,27,80,00,00,C0,
20272112,01200028,true,Rx,1,8,08,08,00,48,F0,00,30,2D,
20272194,02E10DF4,true,Rx,0,8,CF,A9,2F,AC,99,3A,F8,18,
20273431,0140044A,true,Rx,0,8,00,00,00,08,00,00,00,00,
20274596,01E01266,true,Rx,0,8,40,00,02,00,00,00,40,00,
20279432,02001022,true,Rx,0,8,80,00,00,01,35,90,10,43,
20282796,00613DF8,true,Rx,0,8,C1,00,00,00,00,00,00,00,
20284000,01800028,true,Rx,0,8,00,00,00,00,00,00,00,00,
20285976,00400066,true,Rx,0,8,C0,00,00,06,01,5E,40,7F,
20287746,02A03028,true,Rx,0,8,00,1F,51,09,1A,00,80,00,
20288908,0240102A,true,Rx,0,8,41,00,00,00,00,00,00,00,
20290043,0280142A,true,Rx,0,8,41,50,00,20,07,00,00,00,
20291229,03200008,true,Rx,0,8,00,00,00,00,00,80,00,00,
20292324,00608024,true,Rx,1,8,00,00,00,00,00,01,06,3E,
20292890,0102C02C,true,Rx,1,8,4F,C1,94,0D,C0,10,00,00,
20292962,01213FFC,true,Rx,0,8,4D,00,4C,00,70,01,08,00,
20299437,03A00002,true,Rx,0,8,00,00,00,04,07,04,98,5E,
20300992,0261300A,true,Rx,0,8,C0,00,00,27,80,00,00,C0,
20302125,01200028,true,Rx,1,8,48,08,00,48,F0,00,30,2D,
20302773,00613DF8,true,Rx,0,8,03,00,00,00,00,00,00,00,
20303927,0340024C,true,Rx,0,8,40,00,00,00,0C,99,00,00,
20313377,0140044A,true,Rx,0,8,40,00,00,18,10,00,00,00,
20314672,01C030A2,true,Rx,0,8,40,5B,40,01,89,01,14,00,
20317125,0102C02C,true,Rx,1,8,8F,C1,94,0D,C0,10,00,00,
20317748,01213FFC,true,Rx,0,8,8D,00,4C,00,60,01,08,00,
20319399,0280142A,true,Rx,0,8,80,50,00,20,07,00,00,00,
20320573,01E01266,true,Rx,0,8,80,00,02,00,00,00,40,00,
20322889,00613DF8,true,Rx,0,8,41,00,00,00,00,00,00,00,
20324082,01800028,true,Rx,0,8,40,00,00,00,00,00,00,00,
20325208,02001022,true,Rx,0,8,C0,00,00,01,35,90,10,43,
20326372,0240102A,true,Rx,0,8,81,00,00,00,00,00,00,00,
20327513,02A03028,true,Rx,0,8,00,9F,81,01,1A,00,00,00,
20328649,02C13428,true,Rx,0,8,00,00,08,80,00,CF,20,00,
20329751,02E10DF4,true,Rx,0,8,0F,A9,0F,2C,99,3A,F8,18,
20331062,0261300A,true,Rx,0,8,00,00,00,27,80,00,00,C0,
20332105,01200028,true,Rx,1,8,88,08,00,48,F0,00,30,2D,
20342165,0102C02C,true,Rx,1,8,CF,C1,94,0D,C0,10,00,00,
20342810,00613DF8,true,Rx,0,8,83,00,00,00,00,00,00,00,
20343955,01213FFC,true,Rx,0,8,CD,00,4C,00,70,01,08,00,
20349436,0280142A,true,Rx,0,8,C0,10,00,20,07,00,00,00,
20353370,0140044A,true,Rx,0,8,80,00,00,08,00,00,00,00,
20357719,02A03028,true,Rx,0,8,00,9F,C1,09,1A,00,00,00,
20358881,0240102A,true,Rx,0,8,C0,00,00,00,00,00,00,00,
20359981,01C030A2,true,Rx,0,8,80,5B,40,01,89,01,14,00,
20361179,00400066,true,Rx,0,8,00,00,00,07,01,5E,40,7F,
20362211,01200028,true,Rx,1,8,C8,00,00,48,F0,00,30,2D,
20362324,0261300A,true,Rx,0,8,40,00,00,27,80,00,00,C0,
20363490,00613DF8,true,Rx,0,8,C1,00,00,00,00,00,00,00,
20364666,01800028,true,Rx,0,8,80,00,00,00,00,00,00,00,
20365839,01E01266,true,Rx,0,8,C0,00,02,00,00,00,40,00,
20367224,00608024,true,Rx,1,8,40,00,00,00,00,01,07,3E,
20367810,0102C02C,true,Rx,1,8,0F,C1,94,0D,C0,10,00,00,
20367862,01213FFC,true,Rx,0,8,0D,00,4C,40,60,41,08,00,
20369523,02001022,true,Rx,0,8,00,00,00,01,35,90,10,43,
20377667,02C13428,true,Rx,0,8,40,00,08,80,00,CF,20,00,
20378778,02E10DF4,true,Rx,0,8,4F,A9,2F,AC,99,3A,F8,18,
20379919,0280142A,true,Rx,0,8,00,50,00,20,07,00,00,00,
20382804,00613DF8,true,Rx,0,8,03,00,00,00,00,00,00,00,
20391221,0261300A,true,Rx,0,8,80,00,00,27,80,00,00,C0,
20392074,0102C02C,true,Rx,1,8,4F,C1,94,0D,C0,10,00,00,
20392644,01200028,true,Rx,1,8,08,08,00,48,F0,00,30,2D,
20392726,01213FFC,true,Rx,0,8,4D,00,4C,00,70,01,08,00,
20393892,0140044A,true,Rx,0,8,C0,00,00,18,00,00,00,00,
20395058,0240102A,true,Rx,0,8,01,00,00,00,00,00,00,00,
20396202,02A03028,true,Rx,0,8,00,9F,81,01,1A,00,00,00,
20397396,03200008,true,Rx,0,8,00,00,00,00,00,80,00,00,
20402770,00613DF8,true,Rx,0,8,41,00,00,00,00,00,00,00,
20403964,01800028,true,Rx,0,8,C0,00,00,00,00,00,00,00,
20405074,01C030A2,true,Rx,0,8,C0,5B,40,01,89,01,14,00,
20409404,0280142A,true,Rx,0,8,40,50,00,20,07,00,00,00,
20410565,01E01266,true,Rx,0,8,00,00,02,00,00,00,40,00,
20412265,0132C07C,true,Rx,1,8,17,01,01,03,02,02,02,02,
20412883,01613FFC,true,Rx,0,8,17,01,01,03,02,02,02,02,
20414738,02001022,true,Rx,0,8,40,00,00,01,35,90,10,43,
20417076,0102C02C,true,Rx,1,8,8F,C1,94,0D,C0,10,00,00,
20417701,01213FFC,true,Rx,0,8,8D,00,4C,00,70,01,08,00,
20421306,0261300A,true,Rx,0,8,C0,00,00,27,80,00,00,C0,
20422109,01200028,true,Rx,1,8,48,08,00,48,F0,00,30,2D,
20422748,00613DF8,true,Rx,0,8,83,00,00,00,00,00,00,00,
20427718,02A03028,true,Rx,0,8,00,9F,81,01,1A,00,00,00,
20428890,0240102A,true,Rx,0,8,41,00,00,00,00,00,00,00,
20432748,02C13428,true,Rx,0,8,80,00,08,80,00,CF,20,00,
20433920,0140044A,true,Rx,0,8,00,00,00,08,10,00,00,00,
20435010,02E10DF4,true,Rx,0,8,8F,A9,0F,2C,99,3A,F8,18,
20436270,00400066,true,Rx,0,8,40,00,00,00,01,5E,40,7F,
20439406,0280142A,true,Rx,0,8,80,10,00,28,07,00,00,00,
20442316,00608024,true,Rx,1,8,80,00,00,00,00,01,00,3E,
20442900,0102C02C,true,Rx,1,8,CF,C1,94,0D,C0,10,00,00,
20442992,00613DF8,true,Rx,0,8,C1,00,00,00,00,00,00,00,
20444119,01213FFC,true,Rx,0,8,CD,00,4C,40,60,01,08,00,
20445315,01800028,true,Rx,0,8,00,00,00,00,00,00,00,00,
20446467,03801028,true,Rx,0,8,80,00,20,08,5C,43,00,00,
20449885,01C030A2,true,Rx,0,8,00,5B,40,01,89,01,14,00,
20451203,0261300A,true,Rx,0,8,00,00,00,27,80,00,00,C0,
20452103,01200028,true,Rx,1,8,88,08,00,48,F0,00,30,2D,
20454450,01E01266,true,Rx,0,8,40,00,06,00,00,00,40,00,
20459441,02001022,true,Rx,0,8,80,00,00,01,35,90,10,43,
20462774,00613DF8,true,Rx,0,8,03,00,00,00,00,00,00,00,
20463937,0240102A,true,Rx,0,8,80,00,00,00,00,00,00,00,
20465088,02A03028,true,Rx,0,8,00,9F,C1,09,1A,00,00,00,
20467108,0102C02C,true,Rx,1,8,0F,C1,94,0D,C0,11,00,00,
20467737,01213FFC,true,Rx,0,8,0D,00,4C,00,70,41,08,00,
20469385,0280142A,true,Rx,0,8,C0,50,00,20,07,00,00,00,
20473405,0140044A,true,Rx,0,8,40,00,00,08,00,00,00,00,
20481519,0261300A,true,Rx,0,8,40,00,00,27,80,00,00,C0,
20482126,01200028,true,Rx,1,8,C8,00,00,48,F0,00,30,2D,
20482774,00613DF8,true,Rx,0,8,41,00,00,00,00,00,00,00,
20483970,01800028,true,Rx,0,8,40,00,00,00,00,00,00,00,
20485116,0340024C,true,Rx,0,8,80,00,00,00,04,99,00,00,
20487692,02C13428,true,Rx,0,8,C0,00,08,80,00,CF,20,00,
20488792,02E10DF4,true,Rx,0,8,CF,A9,2F,AC,99,3A,F8,18,
20492132,0102C02C,true,Rx,1,8,4F,C1,94,0D,C0,10,00,00,
20492756,01213FFC,true,Rx,0,8,4D,00,4C,00,70,01,08,00,
20493923,04000002,true,Rx,0,8,00,00,01,00,F4,00,00,51,
20495024,01C030A2,true,Rx,0,8,40,5B,40,01,89,01,14,00,
20496950,0360000A,true,Rx,0,8,C0,00,00,00,00,14,00,80,
20498094,02A03028,true,Rx,0,8,00,9F,81,01,1A,00,00,00,
20499261,0240102A,true,Rx,0,8,C1,00,00,00,00,00,00,00,
20500422,01E01266,true,Rx,0,8,80,00,02,00,00,00,40,00,
20501568,0280142A,true,Rx,0,8,00,50,00,20,07,00,00,00,
20502752,03200008,true,Rx,0,8,00,00,00,00,00,80,00,00,
20503929,00613DF8,true,Rx,0,8,83,00,00,00,00,00,00,00,
20505051,02001022,true,Rx,0,8,C0,00,00,01,35,90,10,43,
20511500,00400066,true,Rx,0,8,80,00,00,01,01,5E,40,7F,
20512106,01200028,true,Rx,1,8,08,08,00,48,F0,00,30,2D,
20512632,0261300A,true,Rx,0,8,80,00,00,27,80,00,00,C0,
20513796,0140044A,true,Rx,0,8,80,00,00,18,10,00,00,00,
20517258,00608024,true,Rx,1,8,C0,00,00,00,00,01,01,3E,
20517832,0102C02C,true,Rx,1,8,8F,C1,94,0D,C0,30,00,00,
20517935,01213FFC,true,Rx,0,8,8D,00,4C,40,60,01,08,00,
20522774,00613DF8,true,Rx,0,8,C1,00,00,00,00,00,00,00,
20523957,01800028,true,Rx,0,8,80,00,00,00,00,00,00,00,
20529400,0280142A,true,Rx,0,8,40,10,00,20,07,00,00,00,
20532795,02A03028,true,Rx,0,8,00,9F,91,01,1A,00,80,00,
20533958,0240102A,true,Rx,0,8,03,00,00,00,00,00,00,00,
20539742,01C030A2,true,Rx,0,8,80,5B,40,01,89,01,14,00,
20541585,0261300A,true,Rx,0,8,C0,00,00,27,80,00,00,C0,
20542153,0102C02C,true,Rx,1,8,CF,C1,94,0D,C0,10,00,00,
20542720,01200028,true,Rx,1,8,48,08,00,48,F0,00,30,2D,
20542812,00613DF8,true,Rx,0,8,03,00,00,00,00,00,00,00,
20543959,01213FFC,true,Rx,0,8,CD,00,4C,00,70,01,08,00,
20545135,01E01266,true,Rx,0,8,C0,00,02,00,00,00,40,00,
20546269,02C13428,true,Rx,0,8,00,00,08,80,00,CF,20,00,
20547373,02E10DF4,true,Rx,0,8,0F,A9,0F,2C,99,3A,F8,18,
20549660,02001022,true,Rx,0,8,00,00,00,01,35,90,10,43,
20553366,0140044A,true,Rx,0,8,C0,00,00,08,00,00,00,00,
20559404,0280142A,true,Rx,0,8,80,50,00,20,07,00,00,00,
20562819,00613DF8,true,Rx,0,8,41,00,00,00,00,00,00,00,
20564002,01800028,true,Rx,0,8,C0,00,00,00,00,00,00,00,
20567033,0102C02C,true,Rx,1,8,0F,C1,94,0D,C0,10,00,00,
20567699,01213FFC,true,Rx,0,8,0D,00,4C,00,60,41,08,00,
20568854,0240102A,true,Rx,0,8,40,00,00,00,00,00,00,00,
20569999,02A03028,true,Rx,0,8,00,1F,41,09,1A,00,00,00,
20571645,0261300A,true,Rx,0,8,00,00,00,27,80,00,00,C0,
20572091,01200028,true,Rx,1,8,88,08,00,48,F0,00,30,2D,
20582746,00613DF8,true,Rx,0,8,83,00,00,00,00,00,00,00,
20584805,01C030A2,true,Rx,0,8,C0,5B,40,01,89,01,14,00,
20586802,00400066,true,Rx,0,8,C0,00,00,02,01,5E,40,7F,
20589369,0280142A,true,Rx,0,8,C0,50,00,20,07,00,00,00,
20590542,01E01266,true,Rx,0,8,00,00,02,00,00,00,40,00,
20592334,00608024,true,Rx,1,8,00,00,00,00,00,01,02,3E,
20592912,0102C02C,true,Rx,1,8,4F,C1,94,0D,C0,10,00,00,
20593015,01213FFC,true,Rx,0,8,4D,00,4C,40,70,01,08,00,
20594192,0140044A,true,Rx,0,8,00,00,00,18,00,00,00,00,
20595318,02001022,true,Rx,0,8,40,00,00,01,35,90,10,43,
20596461,03C0002A,true,Rx,0,8,00,00,30,C0,2D,00,1F,00,
20597746,02C13428,true,Rx,0,8,40,00,08,80,00,CF,20,00,
20598850,02E10DF4,true,Rx,0,8,4F,A9,2F,AC,99,3A,F8,18,
20601966,0261300A,true,Rx,0,8,40,00,00,27,80,00,00,C0,
20602297,01200028,true,Rx,1,8,C8,00,00,CC,F0,00,30,2D,
20603132,00613DF8,true,Rx,0,8,C1,00,00,00,00,00,00,00,
20604326,01800028,true,Rx,0,8,00,00,00,00,00,00,00,00,
20605492,0240102A,true,Rx,0,8,81,00,00,00,00,00,00,00,
20606635,02A03028,true,Rx,0,8,00,9F,81,01,1A,00,00,00,
20607822,03200008,true,Rx,0,8,00,00,00,00,00,80,00,00,
20617013,0102C02C,true,Rx,1,8,8F,C1,94,0D,C0,10,00,00,
20617670,01213FFC,true,Rx,0,8,8D,00,4C,00,70,01,08,00,
20619378,0280142A,true,Rx,0,8,00,10,00,28,07,00,00,00,
20622797,00613DF8,true,Rx,0,8,03,00,00,00,00,00,00,00,
20629767,01C030A2,true,Rx,0,8,00,5B,40,01,89,01,14,00,
20631897,0261300A,true,Rx,0,8,80,00,00,27,80,00,00,C0,
20632093,01200028,true,Rx,1,8,08,08,00,48,F0,00,30,2D,
20633433,0140044A,true,Rx,0,8,40,00,00,08,10,00,00,00,
20634599,01E01266,true,Rx,0,8,40,00,02,00,00,00,40,00,
20637790,02A03028,true,Rx,0,8,00,9F,81,01,1A,00,00,00,
20638953,0240102A,true,Rx,0,8,C1,00,00,00,00,00,00,00,
20640094,02001022,true,Rx,0,8,80,00,00,01,35,90,10,43,
20642217,0102C02C,true,Rx,1,8,CF,C1,94,0D,C0,10,00,00,
20642866,00613DF8,true,Rx,0,8,41,00,00,00,00,00,00,00,
20644009,01213FFC,true,Rx,0,8,CD,00,4C,00,60,01,08,00,
20645197,01800028,true,Rx,0,8,40,00,00,00,00,00,00,00,
20649368,0280142A,true,Rx,0,8,40,50,00,20,07,00,00,00,
20652805,02C13428,true,Rx,0,8,80,00,08,80,00,CF,20,00,
20653894,02E10DF4,true,Rx,0,8,8F,A9,0F,2C,99,3A,F8,18,
20662063,00400066,true,Rx,0,8,00,00,00,03,01,5E,40,7F,
20662104,01200028,true,Rx,1,8,48,08,00,48,F0,00,30,2D,
20663238,00613DF8,true,Rx,0,8,83,00,00,00,00,00,00,00,
20664373,0261300A,true,Rx,0,8,C0,00,00,27,80,00,00,C0,
20665507,0340024C,true,Rx,0,8,C0,00,10,00,0C,99,00,00,
20667178,00608024,true,Rx,1,8,40,00,00,00,00,01,03,3E,
20667756,0102C02C,true,Rx,1,8,0F,C1,95,0D,C0,11,00,00,
20667829,01213FFC,true,Rx,0,8,0D,00,4C,40,70,41,08,00,
20672741,02A03028,true,Rx,0,8,00,9F,C1,09,1A,00,00,00,
20673902,0140044A,true,Rx,0,8,80,00,00,08,00,00,00,00,
20675003,01C030A2,true,Rx,0,8,40,5B,40,01,89,01,14,00,
20676180,0240102A,true,Rx,0,8,01,00,00,00,00,00,00,00,
20679356,0280142A,true,Rx,0,8,80,50,00,20,07,00,00,00,
20680518,01E01266,true,Rx,0,8,80,00,02,00,00,00,40,00,
20682886,00613DF8,true,Rx,0,8,C1,00,00,00,00,00,00,00,
20684078,01800028,true,Rx,0,8,80,00,00,00,00,00,00,00,
20685204,02001022,true,Rx,0,8,C0,00,00,01,35,90,10,43,
20692157,0102C02C,true,Rx,1,8,4F,C1,95,0D,C0,10,00,00,
20692185,0261300A,true,Rx,0,8,00,00,00,27,80,00,00,C0,
20692713,01200028,true,Rx,1,8,88,08,00,48,F0,00,30,2D,
20693300,01213FFC,true,Rx,0,8,4D,00,4C,00,70,01,08,00,
20697111,0132C07C,true,Rx,1,8,01,0F,B0,55,D7,FC,FE,FA,
20697725,01613FFC,true,Rx,0,8,01,0F,B0,55,D7,FC,FF,F6,
20702741,00613DF8,true,Rx,0,8,03,00,00,00,00,00,00,00,
20707690,02A03028,true,Rx,0,8,00,9F,81,01,1A,00,00,00,
20708853,0240102A,true,Rx,0,8,40,00,00,00,00,00,00,00,
20710004,0280142A,true,Rx,0,8,C0,10,00,20,07,00,00,00,
20711120,02C13428,true,Rx,0,8,C0,00,08,80,00,CF,20,00,
20712222,02E10DF4,true,Rx,0,8,CF,A9,2F,AC,99,3A,F8,18,
20713399,0140044A,true,Rx,0,8,C0,00,00,18,10,00,00,00,
20714583,03200008,true,Rx,0,8,00,00,00,00,00,80,00,00,
20715708,03A00002,true,Rx,0,8,40,00,00,04,07,04,98,5E,
20717131,0102C02C,true,Rx,1,8,8F,C1,95,0D,C0,10,00,00,
20717749,01213FFC,true,Rx,0,8,8D,00,4C,00,60,01,08,00,
20719893,01C030A2,true,Rx,0,8,80,5B,40,01,89,01,14,00,
20722131,01200028,true,Rx,1,8,C8,00,00,48,F0,00,30,2D,
20722312,0261300A,true,Rx,0,8,40,00,00,27,80,00,00,C0,
20723489,00613DF8,true,Rx,0,8,41,00,00,00,00,00,00,00,
20724673,01800028,true,Rx,0,8,C0,00,00,00,00,00,00,00,
20725840,01E01266,true,Rx,0,8,C0,00,02,00,00,00,40,00,
20729495,02001022,true,Rx,0,8,00,00,00,01,35,90,10,43,
20737192,00400066,true,Rx,0,8,40,00,00,04,01,5E,40,7F,
20739344,0280142A,true,Rx,0,8,00,50,00,20,07,00,00,00,
20742295,00608024,true,Rx,1,8,80,00,00,00,00,01,04,3E,
20742869,0102C02C,true,Rx,1,8,CF,C1,95,0D,C0,10,00,00,
20742973,00613DF8,true,Rx,0,8,83,00,00,00,00,00,00,00,
20744121,01213FFC,true,Rx,0,8,CD,00,4C,00,70,01,08,00,
20745276,0240102A,true,Rx,0,8,81,00,00,00,00,00,00,00,
20746428,02A03028,true,Rx,0,8,00,9F,81,01,1A,00,00,00,
20752062,01200028,true,Rx,1,8,08,08,00,48,F0,00,30,2D,
20752296,0261300A,true,Rx,0,8,80,00,00,27,80,00,00,C0,
20753473,0140044A,true,Rx,0,8,00,00,00,08,00,00,00,00,
20762753,00613DF8,true,Rx,0,8,C1,00,00,00,00,00,00,00,
20763956,01800028,true,Rx,0,8,00,00,00,00,00,00,00,00,
20765077,01C030A2,true,Rx,0,8,C0,5B,40,01,89,01,14,00,
20766213,02C13428,true,Rx,0,8,00,00,08,80,00,CF,20,00,
20767101,0102C02C,true,Rx,1,8,0F,C1,95,0D,C0,10,00,00,
20767329,02E10DF4,true,Rx,0,8,0F,A9,2F,AC,99,3A,F8,18,
20768463,01213FFC,true,Rx,0,8,0D,00,4C,40,60,41,08,00,
20769630,01E01266,true,Rx,0,8,00,00,02,00,00,00,40,00,
20770785,0280142A,true,Rx,0,8,40,50,00,20,07,00,00,00,
20771930,03801028,true,Rx,0,8,C0,00,20,08,1C,43,00,00,
20774781,02001022,true,Rx,0,8,40,00,00,01,35,90,10,43,
20777669,02A03028,true,Rx,0,8,00,9F,D1,09,1A,00,80,00,
20778821,0240102A,true,Rx,0,8,C1,00,00,00,00,00,00,00,
20782120,01200028,true,Rx,1,8,48,08,00,48,F0,00,30,2D,
20782455,0261300A,true,Rx,0,8,C0,00,00,27,80,00,00,C0,
20783632,00613DF8,true,Rx,0,8,03,00,00,00,00,00,00,00,
20792107,0102C02C,true,Rx,1,8,4F,C1,95,0D,C0,10,00,00,
20792721,01213FFC,true,Rx,0,8,4D,00,4C,00,70,01,08,00,
20793886,0140044A,true,Rx,0,8,40,00,00,18,00,00,00,00,
20799347,0280142A,true,Rx,0,8,80,10,00,20,07,00,00,00,
20802805,00613DF8,true,Rx,0,8,41,00,00,00,00,00,00,00,
20803997,01800028,true,Rx,0,8,40,00,00,00,00,00,00,00,
20809773,01C030A2,true,Rx,0,8,00,5B,40,01,89,01,14,00,
20812081,01200028,true,Rx,1,8,88,08,00,48,F0,00,30,2D,
20812438,00400066,true,Rx,0,8,80,00,00,05,01,5E,40,7F,
20813604,0240102A,true,Rx,0,8,00,00,00,00,00,00,00,00,
20814779,01E01266,true,Rx,0,8,40,00,02,00,00,00,40,00,
20815914,0261300A,true,Rx,0,8,00,00,00,27,80,00,00,C0,
20817057,02A03028,true,Rx,0,8,00,9F,81,01,1A,00,00,00,
20817216,00608024,true,Rx,1,8,C0,00,00,00,00,01,05,3E,
20817783,0102C02C,true,Rx,1,8,8F,C1,95,0D,C0,10,00,00,
20818197,01213FFC,true,Rx,0,8,8D,00,4C,00,70,01,08,00,
20819332,02C13428,true,Rx,0,8,40,00,08,80,00,CF,20,00,
20820476,02001022,true,Rx,0,8,80,00,00,01,35,90,10,43,
20821559,02E10DF4,true,Rx,0,8,4F,A9,0F,2C,99,3A,F8,18,
20822744,03200008,true,Rx,0,8,00,00,00,00,00,80,00,00,
20823920,00613DF8,true,Rx,0,8,83,00,00,00,00,00,00,00,
20825084,0360000A,true,Rx,0,8,00,00,00,00,00,14,00,80,
20829336,0280142A,true,Rx,0,8,C0,50,00,28,07,00,00,00,
20833364,0140044A,true,Rx,0,8,80,00,00,08,10,00,00,00,
20842130,0102C02C,true,Rx,1,8,CF,C1,95,0D,C0,10,00,00,
20842590,0261300A,true,Rx,0,8,40,00,00,27,80,00,00,C0,
20842696,01200028,true,Rx,1,8,C8,00,00,48,F0,00,30,2D,
20843757,00613DF8,true,Rx,0,8,C1,00,00,00,00,00,00,00,
20844892,01213FFC,true,Rx,0,8,CD,00,4C,40,60,01,08,00,
20846068,01800028,true,Rx,0,8,80,00,00,00,00,00,00,00,
20847224,0340024C,true,Rx,0,8,00,00,00,00,0C,99,00,00,
20848395,0240102A,true,Rx,0,8,41,00,00,00,00,00,00,00,
20849542,02A03028,true,Rx,0,8,00,1F,01,01,1A,00,00,00,
20854697,01C030A2,true,Rx,0,8,40,5B,40,01,89,01,14,00,
20859358,0280142A,true,Rx,0,8,00,50,00,20,07,00,00,00,
20860530,01E01266,true,Rx,0,8,80,00,02,00,00,00,40,00,
20862846,00613DF8,true,Rx,0,8,03,00,00,00,00,00,00,00,
20864761,02001022,true,Rx,0,8,C0,00,00,01,35,90,10,43,
20867090,0102C02C,true,Rx,1,8,0F,C1,95,0D,C0,11,00,00,
20867724,01213FFC,true,Rx,0,8,0D,00,4C,00,70,41,08,00,
20872054,01200028,true,Rx,1,8,08,08,00,48,F0,00,30,2D,
20872690,0261300A,true,Rx,0,8,80,00,00,27,80,00,00,C0,
20873855,0140044A,true,Rx,0,8,C0,00,00,08,00,00,00,00,
20874989,02C13428,true,Rx,0,8,80,00,08,80,00,CF,20,00,
20876093,02E10DF4,true,Rx,0,8,8F,A9,2F,AC,99,3A,F8,18,
20882757,00613DF8,true,Rx,0,8,41,00,00,00,00,00,00,00,
20883950,01800028,true,Rx,0,8,C0,00,00,00,00,00,00,00,
20885102,0240102A,true,Rx,0,8,83,00,00,00,00,00,00,00,
20886259,02A03028,true,Rx,0,8,00,9F,C1,09,1A,00,00,00,
20887669,00400066,true,Rx,0,8,C0,00,00,06,01,5E,40,7F,
20889348,0280142A,true,Rx,0,8,40,10,00,20,07,00,00,00,
20892273,00608024,true,Rx,1,8,00,00,00,00,00,01,06,3E,
20892857,0102C02C,true,Rx,1,8,4F,C1,95,0D,C0,10,00,00,
20892919,01213FFC,true,Rx,0,8,4D,00,4C,00,70,01,08,00,
20899768,01C030A2,true,Rx,0,8,80,5B,40,01,89,01,14,00,
20902108,01200028,true,Rx,1,8,48,08,00,48,F0,00,30,2D,
20902743,00613DF8,true,Rx,0,8,83,00,00,00,00,00,00,00,
20903879,0261300A,true,Rx,0,8,C0,00,00,27,80,00,00,C0,
20905042,01E01266,true,Rx,0,8,C0,00,02,00,00,00,40,00,
20909500,02001022,true,Rx,0,8,00,00,00,01,35,90,10,43,
20913332,0140044A,true,Rx,0,8,00,00,00,18,10,00,00,00,
20917071,0102C02C,true,Rx,1,8,8F,C1,95,0D,C0,10,00,00,
20917696,01213FFC,true,Rx,0,8,8D,00,4C,40,60,01,08,00,
20918862,0240102A,true,Rx,0,8,C0,00,00,00,00,00,00,00,
20920006,0280142A,true,Rx,0,8,80,50,00,20,07,00,00,00,
