Time Stamp,ID,Extended,Dir,Bus,LEN,D1,D2,D3,D4,D5,D6,D7,D8
4120915,0102C02C,true,Rx,1,8,40,01,9A,0C,C0,11,00,00,
4121554,01213FFC,true,Rx,0,8,CC,00,4C,00,70,41,08,00,
4123162,01C030A2,true,Rx,0,8,40,5B,40,01,89,01,14,00,
4125796,0140044A,true,Rx,0,8,80,00,00,18,00,00,00,00,
4126928,00400066,true,Rx,0,8,40,00,00,04,01,5E,40,7F,
4129389,0280142A,true,Rx,0,8,00,50,00,20,07,00,00,00,
4130903,00608024,true,Rx,1,8,80,00,00,00,00,01,04,3E,
4136374,0261300A,true,Rx,0,8,80,00,00,27,80,00,00,C0,
4137536,00613DF8,true,Rx,0,8,C1,00,00,00,00,00,00,00,
4138739,01800028,true,Rx,0,8,00,00,00,00,00,00,00,00,
4139906,01E01266,true,Rx,0,8,40,00,02,00,00,00,40,00,
4141038,02001022,true,Rx,0,8,C0,00,00,01,35,90,10,43,
4142174,02A03028,true,Rx,0,8,00,90,C4,09,10,00,00,00,
4145800,0102C02C,true,Rx,1,8,80,01,9A,0C,C0,10,00,00,
4146365,01200028,true,Rx,1,8,08,08,00,48,F0,00,30,2D,
4146468,01213FFC,true,Rx,0,8,0C,00,4C,00,70,01,08,00,
4150904,0240102A,true,Rx,0,8,41,00,00,00,00,00,00,00,
4152045,02C13428,true,Rx,0,8,C0,00,08,80,00,00,20,00,
4153157,02E10DF4,true,Rx,0,8,C0,A9,20,A0,90,30,08,10,
4156452,00613DF8,true,Rx,0,8,03,00,00,00,00,00,00,00,
4159358,0280142A,true,Rx,0,8,40,10,00,20,07,00,00,00,
4165790,0140044A,true,Rx,0,8,C0,00,00,08,00,00,00,00,
4166922,0261300A,true,Rx,0,8,C0,00,00,27,80,00,00,C0,
4168022,01C030A2,true,Rx,0,8,80,5B,40,01,89,01,14,00,
4170814,0102C02C,true,Rx,1,8,C0,01,9A,0C,C0,10,00,00,
4171453,01213FFC,true,Rx,0,8,4C,00,4C,00,60,01,08,00,
4172586,02A03028,true,Rx,0,8,00,90,84,01,10,00,00,00,
4175790,01200028,true,Rx,1,8,48,00,00,48,F0,00,30,2D,
4176446,00613DF8,true,Rx,0,8,41,00,00,00,00,00,00,00,
4177644,01800028,true,Rx,0,8,40,00,00,00,00,00,00,00,
4182470,02001022,true,Rx,0,8,00,00,00,01,35,90,10,43,
4184415,01E01266,true,Rx,0,8,80,00,02,00,00,00,40,00,
4185856,0240102A,true,Rx,0,8,80,00,00,00,00,00,00,00,
4189342,0280142A,true,Rx,0,8,80,50,00,20,07,00,00,00,
4195857,0102C02C,true,Rx,1,8,00,01,9A,0C,C0,10,00,00,
4196503,00613DF8,true,Rx,0,8,83,00,00,00,00,00,00,00,
4197649,01213FFC,true,Rx,0,8,8C,00,4C,00,70,01,08,00,
4198782,0261300A,true,Rx,0,8,00,00,00,27,80,00,00,C0,
4201716,00400066,true,Rx,0,8,80,00,00,05,01,5E,40,7F,
4205845,0140044A,true,Rx,0,8,00,00,00,18,00,00,00,00,
4205859,00608024,true,Rx,1,8,C0,00,00,00,00,01,05,3E,
4206406,01200028,true,Rx,1,8,88,08,00,48,F0,00,30,2D,
4206983,02A03028,true,Rx,0,8,00,90,C4,09,10,00,00,00,
4208127,02C13428,true,Rx,0,8,00,00,08,80,00,00,20,00,
4209253,02E10DF4,true,Rx,0,8,00,A9,20,A0,90,30,08,10,
4210438,03200008,true,Rx,0,8,00,00,00,00,00,80,00,00,
4213126,01C030A2,true,Rx,0,8,C0,5B,40,01,89,01,14,00,
4216464,00613DF8,true,Rx,0,8,C1,00,00,00,00,00,00,00,
4217647,01800028,true,Rx,0,8,80,00,00,00,00,00,00,00,
4219335,0280142A,true,Rx,0,8,C0,50,00,28,07,00,00,00,
4220797,0102C02C,true,Rx,1,8,40,01,9A,0C,C0,10,00,00,
4220910,0240102A,true,Rx,0,8,C1,00,00,00,00,00,00,00,
4222077,01213FFC,true,Rx,0,8,CC,00,4C,00,60,41,08,00,
4226977,0261300A,true,Rx,0,8,40,00,00,27,80,00,00,C0,
4228108,02001022,true,Rx,0,8,40,00,00,01,35,90,10,43,
4229271,01E01266,true,Rx,0,8,C0,00,02,00,00,00,40,00,
4230819,0132C07C,true,Rx,1,8,02,4E,BC,43,61,04,98,5E,
4231416,01613FFC,true,Rx,0,8,02,4E,BC,43,61,04,98,5E,
4235767,01200028,true,Rx,1,8,C8,08,00,48,F0,00,30,2D,
4236412,00613DF8,true,Rx,0,8,03,00,00,00,00,00,00,00,
4241479,02A03028,true,Rx,0,8,00,90,94,01,10,00,80,00,
4245787,0102C02C,true,Rx,1,8,80,01,9A,0C,C0,10,00,00,
4245825,0140044A,true,Rx,0,8,40,00,00,08,00,00,00,00,
4246981,01213FFC,true,Rx,0,8,0C,00,4C,00,70,01,08,00,
4249341,0280142A,true,Rx,0,8,00,10,00,20,07,00,00,00,
4255863,0240102A,true,Rx,0,8,03,00,00,00,00,00,00,00,
4257045,00613DF8,true,Rx,0,8,41,00,00,00,00,00,00,00,
4258229,01800028,true,Rx,0,8,C0,00,00,00,00,00,00,00,
4259343,01C030A2,true,Rx,0,8,00,5B,40,01,89,01,14,00,
4260487,0261300A,true,Rx,0,8,80,00,00,27,80,00,00,C0,
4261622,02C13428,true,Rx,0,8,40,00,08,80,00,00,20,00,
4262744,02E10DF4,true,Rx,0,8,40,A9,00,20,90,30,08,10,
4265781,04000002,true,Rx,0,8,00,00,01,00,F4,00,00,4E,
4265796,01200028,true,Rx,1,8,08,08,00,48,F0,00,30,2D,
4270810,0102C02C,true,Rx,1,8,C0,01,9A,0C,C0,30,00,00,
4271435,01213FFC,true,Rx,0,8,4C,00,4C,00,70,01,08,00,
4272580,02001022,true,Rx,0,8,80,00,00,01,35,90,10,43,
4274239,01E01266,true,Rx,0,8,00,00,02,00,00,00,40,00,
4276495,00613DF8,true,Rx,0,8,83,00,00,00,00,00,00,00,
4277637,00400066,true,Rx,0,8,C0,00,00,06,01,5E,40,7F,
4278771,02A03028,true,Rx,0,8,00,90,84,01,10,00,00,00,
4279926,0280142A,true,Rx,0,8,40,50,00,20,07,00,00,00,
4281163,00608024,true,Rx,1,8,00,00,00,00,00,01,06,3E,
4285822,0140044A,true,Rx,0,8,80,00,00,08,00,00,00,00,
4287035,0261300A,true,Rx,0,8,C0,00,00,27,80,00,00,C0,
4289198,03A00002,true,Rx,0,8,C0,00,00,04,07,04,98,5E,
4290854,0240102A,true,Rx,0,8,40,00,00,00,00,00,00,00,
4295843,0102C02C,true,Rx,1,8,00,01,9A,0C,C0,10,00,00,
4296417,01200028,true,Rx,1,8,48,00,00,48,F0,00,30,2D,
4296510,00613DF8,true,Rx,0,8,C1,00,00,00,00,00,00,00,
4297656,01213FFC,true,Rx,0,8,8C,00,4C,00,60,01,08,00,
4298852,01800028,true,Rx,0,8,00,00,00,00,00,00,00,00,
4299984,0340024C,true,Rx,0,8,C1,00,10,01,0C,9B,00,00,
4303197,01C030A2,true,Rx,0,8,40,5B,40,01,89,01,14,00,
136335,0280142A,true,Rx,0,8,80,50,00,20,07,00,00,00,
138374,02A03028,true,Rx,0,8,00,90,C4,09,10,00,00,00,
139556,03200008,true,Rx,0,8,00,00,00,00,00,80,00,00,
143425,00613DF8,true,Rx,0,8,03,00,00,00,00,00,00,00,
144556,02001022,true,Rx,0,8,C0,00,00,01,35,90,10,43,
145697,0261300A,true,Rx,0,8,00,00,00,27,80,00,00,C0,
146864,01E01266,true,Rx,0,8,40,00,02,00,00,00,40,00,
147813,0102C02C,true,Rx,1,8,40,01,9A,0C,C0,11,00,00,
148008,02C13428,true,Rx,0,8,80,00,08,80,00,00,20,00,
149156,01213FFC,true,Rx,0,8,CC,00,4C,00,70,41,08,00,
150280,02E10DF4,true,Rx,0,8,80,A9,20,A0,90,30,08,10,
152781,0140044A,true,Rx,0,8,C0,00,00,18,00,00,00,00,
152795,01200028,true,Rx,1,8,88,08,00,48,F0,00,30,2D,
153937,0240102A,true,Rx,0,8,81,00,00,00,00,00,00,00,
163448,00613DF8,true,Rx,0,8,41,00,00,00,00,00,00,00,
164641,01800028,true,Rx,0,8,40,00,00,00,00,00,00,00,
165783,03801028,true,Rx,0,8,40,00,20,08,1C,43,00,00,
166929,0280142A,true,Rx,0,8,C0,10,00,20,07,00,00,00,
172865,0102C02C,true,Rx,1,8,80,01,9A,0C,C0,10,00,00,
173511,01213FFC,true,Rx,0,8,0C,00,4C,00,70,01,08,00,
174646,0261300A,true,Rx,0,8,40,00,00,27,80,00,00,C0,
175748,01C030A2,true,Rx,0,8,80,5B,40,01,89,01,14,00,
176883,02A03028,true,Rx,0,8,00,90,84,01,10,00,00,00,
179597,00400066,true,Rx,0,8,00,00,00,07,01,5E,40,7F,
182859,00608024,true,Rx,1,8,40,00,00,00,00,01,07,3E,
183423,01200028,true,Rx,1,8,C8,08,00,48,F0,00,30,2D,
183538,00613DF8,true,Rx,0,8,83,00,00,00,00,00,00,00,
187850,0240102A,true,Rx,0,8,C1,00,00,00,00,00,00,00,
189486,02001022,true,Rx,0,8,00,00,00,01,35,90,10,43,
191442,01E01266,true,Rx,0,8,80,00,02,00,00,00,40,00,
192841,0140044A,true,Rx,0,8,00,00,00,08,00,00,00,00,
196313,0280142A,true,Rx,0,8,00,50,00,20,07,00,00,00,
197806,0102C02C,true,Rx,1,8,C0,01,9A,0C,C0,10,00,00,
198421,01213FFC,true,Rx,0,8,4C,00,4C,00,60,01,08,00,
199557,02C13428,true,Rx,0,8,C0,00,08,80,00,00,20,00,
200680,02E10DF4,true,Rx,0,8,C0,A9,00,20,90,30,08,10,
203451,00613DF8,true,Rx,0,8,C1,00,00,00,00,00,00,00,
204633,01800028,true,Rx,0,8,80,00,00,00,00,00,00,00,
205768,0261300A,true,Rx,0,8,80,00,00,27,80,00,00,C0,
208385,02A03028,true,Rx,0,8,00,10,04,01,10,00,00,00,
212746,01200028,true,Rx,1,8,08,08,00,48,F0,00,30,2D,
220088,01C030A2,true,Rx,0,8,C0,5B,40,01,89,01,14,00,
222851,0240102A,true,Rx,0,8,01,00,00,00,00,00,00,00,
222865,0102C02C,true,Rx,1,8,00,01,9A,0C,C0,10,00,00,
224027,00613DF8,true,Rx,0,8,03,00,00,00,00,00,00,00,
225171,01213FFC,true,Rx,0,8,8C,00,4C,00,70,01,08,00,
226367,0280142A,true,Rx,0,8,40,50,00,20,07,00,00,00,
232809,0140044A,true,Rx,0,8,40,00,00,18,00,00,00,00,
234363,02001022,true,Rx,0,8,40,00,00,01,35,90,10,43,
235493,0261300A,true,Rx,0,8,C0,00,00,27,80,00,00,C0,
236660,01E01266,true,Rx,0,8,C0,00,02,00,00,00,40,00,
242816,01200028,true,Rx,1,8,48,00,00,48,F0,00,30,2D,
243462,00613DF8,true,Rx,0,8,41,00,00,00,00,00,00,00,
244648,01800028,true,Rx,0,8,C0,00,00,00,00,00,00,00,
245782,02A03028,true,Rx,0,8,00,90,C4,09,10,00,00,00,
246964,03200008,true,Rx,0,8,00,00,00,00,00,80,00,00,
247956,0102C02C,true,Rx,1,8,40,01,9A,0C,C0,10,00,00,
248606,01213FFC,true,Rx,0,8,CC,00,4C,00,60,41,08,00,
253396,02C13428,true,Rx,0,8,00,00,08,80,00,00,20,00,
254537,02E10DF4,true,Rx,0,8,00,A9,20,A0,90,30,08,10,
255679,00400066,true,Rx,0,8,40,00,00,00,01,5E,40,7F,
256824,0280142A,true,Rx,0,8,80,10,00,28,07,00,00,00,
257814,00608024,true,Rx,1,8,80,00,00,00,00,01,00,3E,
257980,0240102A,true,Rx,0,8,40,00,00,00,00,00,00,00,
263483,00613DF8,true,Rx,0,8,83,00,00,00,00,00,00,00,
264872,01C030A2,true,Rx,0,8,00,5B,40,01,89,01,14,00,
266002,0261300A,true,Rx,0,8,00,00,00,27,80,00,00,C0,
272761,0102C02C,true,Rx,1,8,80,01,9A,0C,C0,10,00,00,
272808,0140044A,true,Rx,0,8,80,00,00,08,00,00,00,00,
273328,01200028,true,Rx,1,8,88,08,00,48,F0,00,30,2D,
273965,01213FFC,true,Rx,0,8,0C,00,4C,00,70,01,08,00,
278428,02A03028,true,Rx,0,8,00,90,84,01,10,00,00,00,
279570,02001022,true,Rx,0,8,80,00,00,01,35,90,10,43,
281258,01E01266,true,Rx,0,8,00,00,02,00,00,00,40,00,
283502,00613DF8,true,Rx,0,8,C1,00,00,00,00,00,00,00,
284705,01800028,true,Rx,0,8,00,00,00,00,00,00,00,00,
286314,0280142A,true,Rx,0,8,C0,50,00,20,07,00,00,00,
292852,0240102A,true,Rx,0,8,81,00,00,00,00,00,00,00,
295741,0261300A,true,Rx,0,8,40,00,00,27,80,00,00,C0,
297769,0102C02C,true,Rx,1,8,C0,01,9A,0C,C0,10,00,00,
298395,01213FFC,true,Rx,0,8,4C,00,4C,00,70,01,08,00,
302758,01200028,true,Rx,1,8,C8,08,00,48,F0,00,30,2D,
303414,00613DF8,true,Rx,0,8,03,00,00,00,00,00,00,00,
304548,0340024C,true,Rx,0,8,01,00,00,01,0C,9B,00,00,
308494,02C13428,true,Rx,0,8,40,00,08,80,00,00,20,00,
309616,02E10DF4,true,Rx,0,8,40,A9,00,20,90,30,08,10,
310715,01C030A2,true,Rx,0,8,40,5B,40,01,89,01,14,00,
312815,0140044A,true,Rx,0,8,C0,00,00,08,00,00,00,00,
313940,02A03028,true,Rx,0,8,00,90,94,01,10,00,80,00,
316301,0280142A,true,Rx,0,8,00,50,00,20,07,00,00,00,
322846,03C0002A,true,Rx,0,8,00,00,30,C0,2E,00,1F,00,
322860,0102C02C,true,Rx,1,8,00,01,9A,0C,C0,10,00,00,
324013,00613DF8,true,Rx,0,8,41,00,00,00,00,00,00,00,
325156,01213FFC,true,Rx,0,8,8C,00,4C,00,60,01,08,00,
326343,01800028,true,Rx,0,8,40,00,00,00,00,00,00,00,
327496,01E01266,true,Rx,0,8,40,00,06,00,00,00,40,00,
328621,02001022,true,Rx,0,8,C0,00,00,01,35,90,10,43,
329785,0240102A,true,Rx,0,8,C1,00,00,00,00,00,00,00,
330947,00400066,true,Rx,0,8,80,00,00,01,01,5E,40,7F,
332072,0261300A,true,Rx,0,8,80,00,00,27,80,00,00,C0,
332920,00608024,true,Rx,1,8,C0,00,00,00,00,01,01,3E,
333500,01200028,true,Rx,1,8,08,08,00,CC,F0,00,30,2E,
337789,0132C07C,true,Rx,1,8,13,01,01,01,01,01,01,02,
338404,01613FFC,true,Rx,0,8,13,01,01,01,01,01,01,02,
343409,00613DF8,true,Rx,0,8,83,00,00,00,00,00,00,00,
346307,0280142A,true,Rx,0,8,40,10,00,20,07,00,00,00,
347964,0102C02C,true,Rx,1,8,40,01,9A,0C,C0,11,00,00,
348610,01213FFC,true,Rx,0,8,CC,00,4C,00,70,41,08,00,
349745,02A03028,true,Rx,0,8,00,90,C4,09,10,00,00,00,
350930,03200008,true,Rx,0,8,00,00,00,00,00,80,00,00,
352782,0140044A,true,Rx,0,8,00,00,00,18,00,00,00,00,
354893,01C030A2,true,Rx,0,8,80,5B,40,01,89,01,14,00,
356017,0261300A,true,Rx,0,8,C0,00,00,27,80,00,00,C0,
362784,01200028,true,Rx,1,8,48,00,00,48,F0,00,30,2E,
362821,0240102A,true,Rx,0,8,00,00,00,00,00,00,00,00,
363988,00613DF8,true,Rx,0,8,C1,00,00,00,00,00,00,00,
365173,01800028,true,Rx,0,8,80,00,00,00,00,00,00,00,
366320,02C13428,true,Rx,0,8,80,00,08,80,00,00,20,00,
367442,02E10DF4,true,Rx,0,8,80,A9,20,A0,90,30,08,10,
369594,02001022,true,Rx,0,8,00,00,00,01,35,90,10,43,
371528,01E01266,true,Rx,0,8,80,00,02,00,00,00,40,00,
372819,0102C02C,true,Rx,1,8,80,01,9A,0C,C0,10,00,00,
373467,01213FFC,true,Rx,0,8,0C,00,4C,00,70,01,08,00,
376300,0280142A,true,Rx,0,8,81,50,00,20,07,00,00,00,
383422,00613DF8,true,Rx,0,8,03,00,00,00,00,00,00,00,
384563,02A03028,true,Rx,0,8,00,90,84,01,10,00,00,00,
386086,0261300A,true,Rx,0,8,00,00,00,27,80,00,00,C0,
392730,01200028,true,Rx,1,8,88,08,00,48,F0,00,30,2E,
392767,0140044A,true,Rx,0,8,40,00,00,08,00,00,00,00,
397791,0102C02C,true,Rx,1,8,C0,01,9A,0C,C0,10,00,00,
397828,0240102A,true,Rx,0,8,41,00,00,00,00,00,00,00,
398963,01213FFC,true,Rx,0,8,4C,00,4C,00,60,01,08,00,
400160,01C030A2,true,Rx,0,8,C0,5B,40,01,89,01,14,00,
403475,00613DF8,true,Rx,0,8,41,00,00,00,00,00,00,00,
404669,01800028,true,Rx,0,8,C0,00,00,00,00,00,00,00,
406295,0280142A,true,Rx,0,8,C0,50,00,20,07,00,00,00,
407440,00400066,true,Rx,0,8,C0,00,00,02,01,5E,40,7F,
412908,00608024,true,Rx,1,8,00,00,00,00,00,01,02,3E,
414379,02001022,true,Rx,0,8,40,00,00,01,35,90,10,43,
416232,01E01266,true,Rx,0,8,C0,00,02,00,00,00,40,00,
417373,0261300A,true,Rx,0,8,40,00,00,27,80,00,00,C0,
418509,02A03028,true,Rx,0,8,00,90,84,01,10,00,00,00,
419641,02C13428,true,Rx,0,8,C0,00,08,80,00,00,20,00,
420755,02E10DF4,true,Rx,0,8,C0,A9,00,20,90,30,08,10,
422818,0102C02C,true,Rx,1,8,00,01,9A,0C,C0,10,00,00,
423383,01200028,true,Rx,1,8,C8,08,00,48,F0,00,30,2E,
423476,00613DF8,true,Rx,0,8,83,00,00,00,00,00,00,00,
424622,01213FFC,true,Rx,0,8,8C,00,4C,00,70,01,08,00,
432798,0140044A,true,Rx,0,8,80,00,00,18,00,00,00,00,
433960,0240102A,true,Rx,0,8,83,00,00,00,00,00,00,00,
436287,0280142A,true,Rx,0,8,00,10,00,20,07,00,00,00,
443431,00613DF8,true,Rx,0,8,C1,00,00,00,00,00,00,00,
444635,01800028,true,Rx,0,8,00,00,00,00,00,00,00,00,
445755,01C030A2,true,Rx,0,8,00,5B,40,01,89,01,14,00,
446890,0261300A,true,Rx,0,8,80,00,00,27,80,00,00,C0,
447747,0102C02C,true,Rx,1,8,40,01,9A,0C,C0,10,00,00,
448396,01213FFC,true,Rx,0,8,CC,00,4C,00,60,41,08,00,
452763,01200028,true,Rx,1,8,08,08,00,48,F0,00,30,2E,
453388,02A03028,true,Rx,0,8,00,90,C4,09,10,00,00,00,
454575,03200008,true,Rx,0,8,00,00,00,00,00,80,00,00,
459453,02001022,true,Rx,0,8,80,00,00,01,35,90,10,43,
461275,01E01266,true,Rx,0,8,00,00,02,00,00,00,40,00,
463488,00613DF8,true,Rx,0,8,03,00,00,00,00,00,00,00,
466283,0280142A,true,Rx,0,8,40,50,00,28,07,00,00,00,
467856,0240102A,true,Rx,0,8,C0,00,00,00,00,00,00,00,
472803,0140044A,true,Rx,0,8,C0,00,00,08,00,00,00,00,
472843,0102C02C,true,Rx,1,8,80,01,9A,0C,C0,10,00,00,
473957,01213FFC,true,Rx,0,8,0C,00,4C,00,70,01,08,00,
475102,02C13428,true,Rx,0,8,00,00,08,80,00,00,20,00,
476238,02E10DF4,true,Rx,0,8,00,A9,20,A0,90,30,08,10,
477370,0261300A,true,Rx,0,8,C0,00,00,27,80,00,00,C0,
481566,00400066,true,Rx,0,8,00,00,00,03,01,5E,40,7F,
482842,01200028,true,Rx,1,8,48,00,00,48,F0,00,30,2E,
483492,00613DF8,true,Rx,0,8,41,00,00,00,00,00,00,00,
484677,01800028,true,Rx,0,8,40,00,00,00,00,00,00,00,
485828,0340024C,true,Rx,0,8,41,00,00,01,04,9B,00,00,
486964,03801028,true,Rx,0,8,80,00,20,08,1C,43,00,00,
488077,00608024,true,Rx,1,8,40,00,00,00,00,01,03,3E,
488717,02A03028,true,Rx,0,8,00,10,04,01,10,00,00,00,
490130,01C030A2,true,Rx,0,8,40,5B,40,01,89,01,14,00,
496284,0280142A,true,Rx,0,8,80,50,00,20,07,00,00,00,
497745,0102C02C,true,Rx,1,8,C0,01,9A,0C,C0,10,00,00,
498381,01213FFC,true,Rx,0,8,4C,00,4C,00,70,01,08,00,
502884,0240102A,true,Rx,0,8,01,00,00,00,00,00,00,00,
504057,00613DF8,true,Rx,0,8,83,00,00,00,00,00,00,00,
505178,02001022,true,Rx,0,8,C0,00,00,01,35,90,10,43,
506355,01E01266,true,Rx,0,8,40,00,02,00,00,00,40,00,
507488,0261300A,true,Rx,0,8,00,00,00,27,80,00,00,C0,
512752,01200028,true,Rx,1,8,88,08,00,48,F0,00,30,2E,
512810,0140044A,true,Rx,0,8,00,00,00,08,00,00,00,00,
522848,0102C02C,true,Rx,1,8,00,01,9A,0C,C0,10,00,00,
523495,00613DF8,true,Rx,0,8,C1,00,00,00,00,00,00,00,
524641,01213FFC,true,Rx,0,8,8C,00,4C,00,60,01,08,00,
525825,01800028,true,Rx,0,8,80,00,00,00,00,00,00,00,
526977,0280142A,true,Rx,0,8,C0,10,00,20,07,00,00,00,
528113,02A03028,true,Rx,0,8,00,90,84,01,10,00,00,00,
529246,02C13428,true,Rx,0,8,40,00,08,80,00,00,20,00,
530372,02E10DF4,true,Rx,0,8,40,A9,00,20,90,30,08,10,
531506,03A00002,true,Rx,0,8,00,00,00,04,07,04,98,5E,
534862,01C030A2,true,Rx,0,8,80,5B,40,01,89,01,14,00,
537096,0261300A,true,Rx,0,8,40,00,00,27,80,00,00,C0,
538269,0240102A,true,Rx,0,8,41,00,00,00,00,00,00,00,
542801,01200028,true,Rx,1,8,C8,08,00,48,F0,00,30,2E,
543457,00613DF8,true,Rx,0,8,03,00,00,00,00,00,00,00,
547924,0102C02C,true,Rx,1,8,40,01,9A,0C,C0,11,00,00,
548570,01213FFC,true,Rx,0,8,CC,00,4C,00,70,41,08,00,
549705,02001022,true,Rx,0,8,00,00,00,01,35,90,10,43,
551511,01E01266,true,Rx,0,8,80,00,02,00,00,00,40,00,
552806,0140044A,true,Rx,0,8,40,00,00,18,00,00,00,00,
553942,04000002,true,Rx,0,8,40,00,01,00,B4,00,00,4E,
556293,0280142A,true,Rx,0,8,00,50,00,20,07,00,00,00,
557434,00400066,true,Rx,0,8,40,00,00,04,01,5E,40,7F,
558566,02A03028,true,Rx,0,8,00,90,D4,09,10,00,80,00,
559741,03200008,true,Rx,0,8,00,00,00,00,00,80,00,00,
562900,00608024,true,Rx,1,8,80,00,00,00,00,01,04,3E,
563555,00613DF8,true,Rx,0,8,41,00,00,00,00,00,00,00,
564743,01800028,true,Rx,0,8,C0,00,00,00,00,00,00,00,
567250,0261300A,true,Rx,0,8,80,00,00,27,80,00,00,C0,
572759,0102C02C,true,Rx,1,8,80,01,9A,0C,C0,10,00,00,
572797,0240102A,true,Rx,0,8,81,00,00,00,00,00,00,00,
573326,01200028,true,Rx,1,8,08,08,00,48,F0,00,30,2E,
573944,01213FFC,true,Rx,0,8,0C,00,4C,00,70,01,08,00,
580190,01C030A2,true,Rx,0,8,C0,5B,40,01,89,01,14,00,
583430,00613DF8,true,Rx,0,8,83,00,00,00,00,00,00,00,
584572,02C13428,true,Rx,0,8,80,00,08,80,00,00,20,00,
585692,02E10DF4,true,Rx,0,8,80,A9,20,A0,90,30,08,10,
586848,0280142A,true,Rx,0,8,40,50,00,20,07,00,00,00,
592752,0140044A,true,Rx,0,8,80,00,00,08,00,00,00,00,
593883,02A03028,true,Rx,0,8,00,90,84,01,10,00,00,00,
595014,02001022,true,Rx,0,8,40,00,00,01,35,90,10,43,
596294,01E01266,true,Rx,0,8,C0,00,02,00,00,00,40,00,
597418,0261300A,true,Rx,0,8,C0,00,00,27,80,00,00,C0,
597822,0102C02C,true,Rx,1,8,C0,01,9A,0C,C0,10,00,00,
598565,01213FFC,true,Rx,0,8,4C,00,4C,00,60,01,08,00,
602796,01200028,true,Rx,1,8,48,00,00,48,F0,00,30,2E,
603440,00613DF8,true,Rx,0,8,C1,00,00,00,00,00,00,00,
604648,01800028,true,Rx,0,8,00,00,00,00,00,00,00,00,
607806,0240102A,true,Rx,0,8,C0,00,00,00,00,00,00,00,
612800,0132C07C,true,Rx,1,8,18,01,01,01,02,01,05,01,
613424,01613FFC,true,Rx,0,8,18,01,01,01,02,01,05,01,
616277,0280142A,true,Rx,0,8,80,10,00,20,07,00,00,00,
622821,0102C02C,true,Rx,1,8,00,01,9A,0C,C0,10,00,00,
623456,00613DF8,true,Rx,0,8,03,00,00,00,00,00,00,00,
624602,01213FFC,true,Rx,0,8,8C,00,4C,00,70,01,08,00,
625724,01C030A2,true,Rx,0,8,00,5B,40,01,89,01,14,00,
627516,0261300A,true,Rx,0,8,00,00,00,27,80,00,00,C0,
628651,02A03028,true,Rx,0,8,00,90,84,01,10,00,00,00,
632318,00400066,true,Rx,0,8,80,00,00,05,01,5E,40,7F,
632750,01200028,true,Rx,1,8,88,08,00,48,F0,00,30,2E,
633470,0140044A,true,Rx,0,8,C0,00,00,18,00,00,00,00,
637870,00608024,true,Rx,1,8,C0,00,00,00,00,01,05,3E,
638517,02C13428,true,Rx,0,8,C0,00,08,80,00,00,20,00,
639663,02001022,true,Rx,0,8,80,00,00,01,35,90,10,43,
640775,02E10DF4,true,Rx,0,8,C0,A9,20,A0,90,30,08,10,
641936,01E01266,true,Rx,0,8,00,00,02,00,00,00,40,00,
643114,0240102A,true,Rx,0,8,01,00,00,00,00,00,00,00,
644289,00613DF8,true,Rx,0,8,41,00,00,00,00,00,00,00,
645485,01800028,true,Rx,0,8,40,00,00,00,00,00,00,00,
646630,0280142A,true,Rx,0,8,C0,50,00,28,07,00,00,00,
648103,0102C02C,true,Rx,1,8,40,01,9A,0C,C0,10,00,00,
648740,01213FFC,true,Rx,0,8,CC,00,4C,00,60,41,08,00,
657686,0261300A,true,Rx,0,8,40,00,00,27,80,00,00,C0,
662772,01200028,true,Rx,1,8,C8,08,00,48,F0,00,30,2E,
663427,00613DF8,true,Rx,0,8,83,00,00,00,00,00,00,00,
664563,02A03028,true,Rx,0,8,00,90,C4,09,10,00,00,00,
665747,03200008,true,Rx,0,8,00,00,00,00,00,80,00,00,
666889,0340024C,true,Rx,0,8,80,00,10,00,0C,9B,00,00,
670134,01C030A2,true,Rx,0,8,40,5B,40,01,89,01,14,00,
672791,0102C02C,true,Rx,1,8,80,01,9A,0C,C0,10,00,00,
672812,0140044A,true,Rx,0,8,00,00,00,08,00,00,00,00,
673955,01213FFC,true,Rx,0,8,0C,00,4C,00,70,01,08,00,
676263,0280142A,true,Rx,0,8,00,50,00,20,07,00,00,00,
677878,0240102A,true,Rx,0,8,41,00,00,00,00,00,00,00,
683447,00613DF8,true,Rx,0,8,C1,00,00,00,00,00,00,00,
684639,01800028,true,Rx,0,8,80,00,00,00,00,00,00,00,
685761,02001022,true,Rx,0,8,C0,00,00,01,35,90,10,43,
686926,01E01266,true,Rx,0,8,40,00,02,00,00,00,40,00,
688070,0261300A,true,Rx,0,8,80,00,00,27,80,00,00,C0,
692777,01200028,true,Rx,1,8,08,08,00,48,F0,00,30,2E,
693433,02C13428,true,Rx,0,8,00,00,08,80,00,00,20,00,
694568,02E10DF4,true,Rx,0,8,00,A9,00,20,90,30,08,10,
697748,0102C02C,true,Rx,1,8,C0,01,9A,0C,C0,10,00,00,
698364,01213FFC,true,Rx,0,8,4C,00,4C,00,70,01,08,00,
699498,02A03028,true,Rx,0,8,00,90,84,01,10,00,00,00,
703392,00613DF8,true,Rx,0,8,03,00,00,00,00,00,00,00,
706249,0280142A,true,Rx,0,8,40,10,00,20,07,00,00,00,
707945,00400066,true,Rx,0,8,C0,00,00,06,01,5E,40,7F,
712782,0140044A,true,Rx,0,8,40,00,00,08,00,00,00,00,
712904,00608024,true,Rx,1,8,00,00,00,00,00,01,06,3E,
713945,0240102A,true,Rx,0,8,80,00,00,00,00,00,00,00,
715048,01C030A2,true,Rx,0,8,80,5B,40,01,89,01,14,00,
718044,0261300A,true,Rx,0,8,C0,00,00,27,80,00,00,C0,
722827,0102C02C,true,Rx,1,8,00,01,9A,0C,C0,10,00,00,
723402,01200028,true,Rx,1,8,48,00,00,48,F0,00,30,2E,
723495,00613DF8,true,Rx,0,8,41,00,00,00,00,00,00,00,
724640,01213FFC,true,Rx,0,8,8C,00,4C,00,60,01,08,00,
725827,01800028,true,Rx,0,8,C0,00,00,00,00,00,00,00,
729590,02001022,true,Rx,0,8,00,00,00,01,35,90,10,43,
731555,01E01266,true,Rx,0,8,80,00,02,00,00,00,40,00,
732738,03C0002A,true,Rx,0,8,00,00,30,C0,2E,00,9F,00,
733869,02A03028,true,Rx,0,8,00,90,84,09,10,00,00,00,
736248,0280142A,true,Rx,0,8,80,50,00,20,07,00,00,00,
743400,00613DF8,true,Rx,0,8,83,00,00,00,00,00,00,00,
747778,0240102A,true,Rx,0,8,C1,00,00,00,00,00,00,00,
748005,0102C02C,true,Rx,1,8,40,01,9A,0C,C0,11,00,00,
748932,01213FFC,true,Rx,0,8,CC,00,4C,00,70,41,08,00,
750065,0261300A,true,Rx,0,8,00,00,00,27,80,00,00,C0,
751202,02C13428,true,Rx,0,8,40,00,08,80,00,00,20,00,
752314,02E10DF4,true,Rx,0,8,40,A9,20,A0,90,30,08,10,
752771,01200028,true,Rx,1,8,88,08,00,CC,F0,00,30,2E,
753472,0140044A,true,Rx,0,8,80,00,00,18,00,00,00,00,
760115,01C030A2,true,Rx,0,8,C0,5B,40,01,89,01,14,00,
763438,00613DF8,true,Rx,0,8,C1,00,00,00,00,00,00,00,
764641,01800028,true,Rx,0,8,00,00,00,00,00,00,00,00,
766246,0280142A,true,Rx,0,8,C0,50,00,20,07,00,00,00,
768635,02A03028,true,Rx,0,8,00,10,44,01,10,00,00,00,
769818,03200008,true,Rx,0,8,00,00,00,00,00,80,00,00,
772816,0102C02C,true,Rx,1,8,80,01,9A,0C,C0,10,00,00,
773466,01213FFC,true,Rx,0,8,0C,00,4C,00,70,01,08,00,
774599,02001022,true,Rx,0,8,40,00,00,01,35,90,10,43,
776360,01E01266,true,Rx,0,8,C0,00,02,00,00,00,40,00,
778459,0261300A,true,Rx,0,8,40,00,00,27,80,00,00,C0,
782769,0240102A,true,Rx,0,8,03,00,00,00,00,00,00,00,
782784,01200028,true,Rx,1,8,C8,08,00,48,F0,00,30,2E,
783904,00400066,true,Rx,0,8,00,00,00,07,01,5E,40,7F,
785078,00613DF8,true,Rx,0,8,03,00,00,00,00,00,00,00,
788024,00608024,true,Rx,1,8,40,00,00,00,00,01,07,3E,
792741,0140044A,true,Rx,0,8,C0,00,00,08,00,00,00,00,
796240,0280142A,true,Rx,0,8,00,10,00,20,07,00,00,00,
797774,0102C02C,true,Rx,1,8,C0,01,9A,0C,C0,10,00,00,
798410,01213FFC,true,Rx,0,8,4C,00,4C,00,60,01,08,00,
803424,00613DF8,true,Rx,0,8,41,00,00,00,00,00,00,00,
804616,01800028,true,Rx,0,8,40,00,00,00,00,00,00,00,
805738,01C030A2,true,Rx,0,8,00,5B,40,01,89,01,14,00,
806873,02A03028,true,Rx,0,8,00,90,94,01,10,00,80,00,
808017,02C13428,true,Rx,0,8,80,00,08,80,00,00,20,00,
809153,0261300A,true,Rx,0,8,80,00,00,27,80,00,00,C0,
810276,02E10DF4,true,Rx,0,8,80,A9,00,20,90,30,08,10,
811411,03801028,true,Rx,0,8,C0,00,20,08,5C,43,00,00,
812741,01200028,true,Rx,1,8,08,08,00,48,F0,00,30,2E,
817737,0240102A,true,Rx,0,8,40,00,00,00,00,00,00,00,
819477,02001022,true,Rx,0,8,80,00,00,01,35,90,10,43,
821309,01E01266,true,Rx,0,8,00,00,02,00,00,00,40,00,
822904,0102C02C,true,Rx,1,8,00,01,9A,0C,C0,10,00,00,
823544,00613DF8,true,Rx,0,8,83,00,00,00,00,00,00,00,
824687,01213FFC,true,Rx,0,8,8C,00,4C,00,70,01,08,00,
826241,0280142A,true,Rx,0,8,40,50,00,20,07,00,00,00,
832789,0140044A,true,Rx,0,8,00,00,00,18,00,00,00,00,
838340,02A03028,true,Rx,0,8,00,90,C4,09,10,00,00,00,
839472,0261300A,true,Rx,0,8,C0,00,00,27,80,00,00,C0,
842792,01200028,true,Rx,1,8,48,00,00,48,F0,00,30,2E,
843429,00613DF8,true,Rx,0,8,C1,00,00,00,00,00,00,00,
844615,01800028,true,Rx,0,8,80,00,00,00,00,00,00,00,
845759,0340024C,true,Rx,0,8,C0,00,00,00,0C,9B,00,00,
847922,0102C02C,true,Rx,1,8,40,01,9A,0C,C0,10,00,00,
848561,01213FFC,true,Rx,0,8,CC,00,4C,00,60,41,08,00,
850210,01C030A2,true,Rx,0,8,40,5B,40,01,89,01,14,00,
852794,0240102A,true,Rx,0,8,81,00,00,00,00,00,00,00,
856243,0280142A,true,Rx,0,8,80,50,00,28,07,00,00,00,
858373,02C13428,true,Rx,0,8,C0,00,08,80,00,00,20,00,
859515,00400066,true,Rx,0,8,40,00,00,00,01,5E,40,7F,
860625,02E10DF4,true,Rx,0,8,C0,A9,20,A0,90,30,08,10,
862870,00608024,true,Rx,1,8,80,00,00,00,00,01,00,3E,
863521,00613DF8,true,Rx,0,8,03,00,00,00,00,00,00,00,
864654,02001022,true,Rx,0,8,C0,00,00,01,35,90,10,43,
866306,01E01266,true,Rx,0,8,40,00,06,00,00,00,40,00,
868553,0261300A,true,Rx,0,8,00,00,00,27,80,00,00,C0,
872737,0102C02C,true,Rx,1,8,80,01,9A,0C,C0,10,00,00,
872774,0140044A,true,Rx,0,8,40,00,00,08,00,00,00,00,
873304,01200028,true,Rx,1,8,88,08,00,48,F0,00,30,2E,
873922,01213FFC,true,Rx,0,8,0C,00,4C,00,70,01,08,00,
875057,02A03028,true,Rx,0,8,00,90,84,01,10,00,00,00,
876245,03200008,true,Rx,0,8,00,00,00,00,00,80,00,00,
883411,00613DF8,true,Rx,0,8,41,00,00,00,00,00,00,00,
884593,01800028,true,Rx,0,8,C0,00,00,00,00,00,00,00,
886241,0280142A,true,Rx,0,8,C0,10,00,20,07,00,00,00,
887805,0240102A,true,Rx,0,8,C1,00,00,00,00,00,00,00,
892820,0132C07C,true,Rx,1,8,01,0F,B0,55,DD,1A,01,05,
893435,01613FFC,true,Rx,0,8,01,0F,B0,55,DD,1A,00,09,
894886,01C030A2,true,Rx,0,8,80,5B,40,01,89,01,14,00,
897719,0102C02C,true,Rx,1,8,C0,01,9A,0C,C0,10,00,00,
898348,01213FFC,true,Rx,0,8,4C,00,4C,00,70,01,08,00,
899481,0261300A,true,Rx,0,8,40,00,00,27,80,00,00,C0,
902756,01200028,true,Rx,1,8,C8,08,00,48,F0,00,30,2E,
903413,00613DF8,true,Rx,0,8,83,00,00,00,00,00,00,00,
908479,02A03028,true,Rx,0,8,00,90,84,01,10,00,00,00,
909609,02001022,true,Rx,0,8,00,00,00,01,35,90,10,43,
911523,01E01266,true,Rx,0,8,80,00,02,00,00,00,40,00,
912808,0140044A,true,Rx,0,8,80,00,00,08,00,00,00,00,
913955,02C13428,true,Rx,0,8,00,00,08,80,00,00,20,00,
915087,02E10DF4,true,Rx,0,8,00,A9,00,20,90,30,08,10,
916235,0280142A,true,Rx,0,8,00,50,00,20,07,00,00,00,
922779,0240102A,true,Rx,0,8,01,00,00,00,00,00,00,00,
922820,0102C02C,true,Rx,1,8,00,01,9A,0C,C0,10,00,00,
923943,00613DF8,true,Rx,0,8,C1,00,00,00,00,00,00,00,
925086,01213FFC,true,Rx,0,8,8C,00,4C,00,60,01,08,00,
926285,01800028,true,Rx,0,8,00,00,00,00,00,00,00,00,
928923,0261300A,true,Rx,0,8,80,00,00,27,80,00,00,C0,
932744,01200028,true,Rx,1,8,08,08,00,48,F0,00,30,2E,
933699,00400066,true,Rx,0,8,80,00,00,01,01,5E,40,7F,
937827,00608024,true,Rx,1,8,C0,00,00,00,00,01,01,3E,
940123,01C030A2,true,Rx,0,8,C0,5B,40,01,89,01,14,00,
943414,00613DF8,true,Rx,0,8,03,00,00,00,00,00,00,00,
944556,02A03028,true,Rx,0,8,00,90,C4,09,10,00,00,00,
946234,0280142A,true,Rx,0,8,40,50,00,20,07,00,00,00,
947358,03A00002,true,Rx,0,8,40,00,00,04,07,04,98,5E,
948018,0102C02C,true,Rx,1,8,40,01,9A,0C,C0,11,00,00,
948658,01213FFC,true,Rx,0,8,CC,00,4C,00,70,41,08,00,
952726,0140044A,true,Rx,0,8,C0,00,00,18,00,00,00,00,
954475,02001022,true,Rx,0,8,40,00,00,01,35,90,10,43,
956298,01E01266,true,Rx,0,8,C0,00,02,00,00,00,40,00,
957748,0240102A,true,Rx,0,8,40,00,00,00,00,00,00,00,
959022,0261300A,true,Rx,0,8,C0,00,00,27,80,00,00,C0,
962814,01200028,true,Rx,1,8,48,00,00,48,F0,00,30,2E,
963460,00613DF8,true,Rx,0,8,41,00,00,00,00,00,00,00,
964657,01800028,true,Rx,0,8,40,00,00,00,00,00,00,00,
968541,02C13428,true,Rx,0,8,40,00,08,80,00,00,20,00,
969651,02E10DF4,true,Rx,0,8,40,A9,20,A0,90,30,08,10,
972752,0102C02C,true,Rx,1,8,80,01,9A,0C,C0,10,00,00,
973388,01213FFC,true,Rx,0,8,0C,00,4C,00,70,01,08,00,
976220,0280142A,true,Rx,0,8,80,10,00,20,07,00,00,00,
978340,02A03028,true,Rx,0,8,00,90,84,01,10,00,00,00,
979523,03200008,true,Rx,0,8,00,00,00,00,00,80,00,00,
983398,00613DF8,true,Rx,0,8,83,00,00,00,00,00,00,00,
984900,01C030A2,true,Rx,0,8,00,5B,40,01,89,01,14,00,
989144,0261300A,true,Rx,0,8,00,00,00,27,80,00,00,C0,
992745,0140044A,true,Rx,0,8,00,00,00,08,00,00,00,00,
992760,01200028,true,Rx,1,8,88,08,00,48,F0,00,30,2E,
993892,0240102A,true,Rx,0,8,81,00,00,00,00,00,00,00,
997791,0102C02C,true,Rx,1,8,C0,01,9A,0C,C0,10,00,00,
998417,01213FFC,true,Rx,0,8,4C,00,4C,00,60,01,08,00,
999561,02001022,true,Rx,0,8,80,00,00,01,35,90,10,43,
1001344,01E01266,true,Rx,0,8,00,00,02,00,00,00,40,00,
1003475,00613DF8,true,Rx,0,8,C1,00,00,00,00,00,00,00,
1004668,01800028,true,Rx,0,8,80,00,00,00,00,00,00,00,
1006212,0280142A,true,Rx,0,8,C0,50,00,20,07,00,00,00,
1009414,00400066,true,Rx,0,8,C0,00,00,02,01,5E,40,7F,
1012765,04000002,true,Rx,0,8,80,00,01,00,F4,00,00,4E,
1012888,00608024,true,Rx,1,8,00,00,00,00,00,01,02,3E,
1013898,02A03028,true,Rx,0,8,00,90,84,01,10,00,00,00,
1019509,0261300A,true,Rx,0,8,40,00,00,27,80,00,00,C0,
1022812,0102C02C,true,Rx,1,8,00,01,9A,0C,C0,30,00,00,
1023377,01200028,true,Rx,1,8,C8,08,00,48,F0,00,30,2E,
1023481,00613DF8,true,Rx,0,8,03,00,00,00,00,00,00,00,
1024627,01213FFC,true,Rx,0,8,8C,00,4C,00,70,01,08,00,
1025772,02C13428,true,Rx,0,8,80,00,08,80,00,00,20,00,
1026893,02E10DF4,true,Rx,0,8,80,A9,00,20,90,30,08,10,
1028059,0240102A,true,Rx,0,8,C1,00,00,00,00,00,00,00,
1029214,0340024C,true,Rx,0,8,00,00,00,00,04,9B,00,00,
1030318,01C030A2,true,Rx,0,8,40,5B,40,01,89,01,14,00,
1032749,0140044A,true,Rx,0,8,40,00,00,18,00,00,00,00,
1036208,0280142A,true,Rx,0,8,00,50,00,20,07,00,00,00,
1043416,00613DF8,true,Rx,0,8,41,00,00,00,00,00,00,00,
1044599,01800028,true,Rx,0,8,C0,00,00,00,00,00,00,00,
1045730,02001022,true,Rx,0,8,C0,00,00,01,35,90,10,43,
1046896,01E01266,true,Rx,0,8,40,00,02,00,00,00,40,00,
1047753,0102C02C,true,Rx,1,8,40,01,9A,0C,C0,10,00,00,
1048403,01213FFC,true,Rx,0,8,CC,00,4C,00,60,41,08,00,
1049536,02A03028,true,Rx,0,8,00,10,54,09,10,00,80,00,
1050672,0261300A,true,Rx,0,8,80,00,00,27,80,00,00,C0,
1052764,01200028,true,Rx,1,8,08,08,00,48,F0,00,30,2E,
1062735,0240102A,true,Rx,0,8,00,00,00,00,00,00,00,00,
1063918,00613DF8,true,Rx,0,8,83,00,00,00,00,00,00,00,
1066194,0280142A,true,Rx,0,8,40,10,00,28,07,00,00,00,
1072756,0140044A,true,Rx,0,8,80,00,00,08,00,00,00,00,
1072797,0102C02C,true,Rx,1,8,80,01,9A,0C,C0,10,00,00,
1073910,01213FFC,true,Rx,0,8,0C,00,4C,00,70,01,08,00,
1075023,01C030A2,true,Rx,0,8,80,5B,40,01,89,01,14,00,
1078362,02C13428,true,Rx,0,8,C0,00,08,80,00,00,20,00,
1079472,02E10DF4,true,Rx,0,8,C0,A9,20,A0,90,30,08,10,
1080598,0261300A,true,Rx,0,8,C0,00,00,27,80,00,00,C0,
1082782,01200028,true,Rx,1,8,48,00,00,48,F0,00,30,2E,
1083428,00613DF8,true,Rx,0,8,C1,00,00,00,00,00,00,00,
1084626,01800028,true,Rx,0,8,00,00,00,00,00,00,00,00,
1085769,00400066,true,Rx,0,8,00,00,00,03,01,5E,40,7F,
1086910,02A03028,true,Rx,0,8,00,90,84,01,10,00,00,00,
1088047,00608024,true,Rx,1,8,40,00,00,00,00,01,03,3E,
1088088,03200008,true,Rx,0,8,00,00,00,00,00,80,00,00,
1089523,02001022,true,Rx,0,8,00,00,00,01,35,90,10,43,
1091623,01E01266,true,Rx,0,8,80,00,02,00,00,00,40,00,
1096204,0280142A,true,Rx,0,8,80,50,00,20,07,00,00,00,
1097756,0240102A,true,Rx,0,8,41,00,00,00,00,00,00,00,
1097771,0102C02C,true,Rx,1,8,C0,01,9A,0C,C0,10,00,00,
1098902,01213FFC,true,Rx,0,8,4C,00,4C,00,70,01,08,00,
1103420,00613DF8,true,Rx,0,8,03,00,00,00,00,00,00,00,
1110464,0261300A,true,Rx,0,8,00,00,00,27,80,00,00,C0,
1112730,01200028,true,Rx,1,8,88,08,00,48,F0,00,30,2E,
1112768,0140044A,true,Rx,0,8,C0,00,00,08,00,00,00,00,
1118370,02A03028,true,Rx,0,8,00,90,84,01,10,00,00,00,
1120140,01C030A2,true,Rx,0,8,C0,5B,40,01,89,01,14,00,
1122831,0102C02C,true,Rx,1,8,00,01,9A,0C,C0,10,00,00,
1123486,00613DF8,true,Rx,0,8,41,00,00,00,00,00,00,00,
1124622,01213FFC,true,Rx,0,8,8C,00,4C,00,60,01,08,00,
1125817,01800028,true,Rx,0,8,40,00,00,00,00,00,00,00,
1126958,0280142A,true,Rx,0,8,C0,50,00,20,07,00,00,00,
1128116,03801028,true,Rx,0,8,00,00,20,08,1C,43,00,00,
1132743,0240102A,true,Rx,0,8,83,00,00,00,00,00,00,00,
1133883,02C13428,true,Rx,0,8,00,00,08,80,00,00,20,00,
1135015,02001022,true,Rx,0,8,40,00,00,01,35,90,10,43,
1136151,02E10DF4,true,Rx,0,8,00,A9,00,20,90,30,08,10,
1137315,01E01266,true,Rx,0,8,C0,00,02,00,00,00,40,00,
1140817,0261300A,true,Rx,0,8,40,00,00,27,80,00,00,C0,
1142702,03C0002A,true,Rx,0,8,00,00,30,C0,2D,00,1F,00,
1142777,01200028,true,Rx,1,8,C8,08,00,48,F0,00,30,2E,
1143877,00613DF8,true,Rx,0,8,83,00,00,00,00,00,00,00,
1148088,0102C02C,true,Rx,1,8,40,01,9A,0C,C0,11,00,00,
1148722,01213FFC,true,Rx,0,8,CC,00,4C,00,70,41,08,00,
1152733,0140044A,true,Rx,0,8,00,00,00,18,00,00,00,00,
1153863,02A03028,true,Rx,0,8,00,90,C4,09,10,00,00,00,
1156222,0280142A,true,Rx,0,8,00,10,00,20,07,00,00,00,
1160816,00400066,true,Rx,0,8,40,00,00,04,01,5E,40,7F,
1162876,00608024,true,Rx,1,8,80,00,00,00,00,01,04,3E,
1163522,00613DF8,true,Rx,0,8,C1,00,00,00,00,00,00,00,
1164708,01800028,true,Rx,0,8,80,00,00,00,00,00,00,00,
1165832,01C030A2,true,Rx,0,8,00,5B,40,01,89,01,14,00,
1167725,0240102A,true,Rx,0,8,C0,00,00,00,00,00,00,00,
1170876,0261300A,true,Rx,0,8,80,00,00,27,80,00,00,C0,
1172751,0102C02C,true,Rx,1,8,80,01,9A,0C,C0,10,00,00,
1173325,01200028,true,Rx,1,8,08,08,00,CC,F0,00,30,2D,
1173440,01213FFC,true,Rx,0,8,0C,00,4C,00,70,01,08,00,
1173915,0132C07C,true,Rx,1,8,FF,00,00,00,00,00,00,00,
1174627,01613FFC,true,Rx,0,8,FF,00,00,00,00,00,00,00,
1179644,02001022,true,Rx,0,8,80,00,00,01,35,90,10,43,
1181343,01E01266,true,Rx,0,8,00,00,02,00,00,00,40,00,
1183463,00613DF8,true,Rx,0,8,03,00,00,00,00,00,00,00,
1186194,0280142A,true,Rx,0,8,40,50,00,20,07,00,00,00,
1188625,02A03028,true,Rx,0,8,00,90,84,01,10,00,00,00,
1189757,02C13428,true,Rx,0,8,40,00,08,80,00,00,20,00,
1190878,02E10DF4,true,Rx,0,8,40,A9,20,A0,90,30,08,10,
1192056,03200008,true,Rx,0,8,00,00,00,00,00,80,00,00,
1193220,0140044A,true,Rx,0,8,40,00,00,08,00,00,00,00,
1197719,0102C02C,true,Rx,1,8,C0,01,9A,0C,C0,10,00,00,
1198344,01213FFC,true,Rx,0,8,4C,00,4C,00,60,01,08,00,
1200948,0261300A,true,Rx,0,8,C0,00,00,27,80,00,00,C0,
1202779,0240102A,true,Rx,0,8,01,00,00,00,00,00,00,00,
1202794,01200028,true,Rx,1,8,48,00,00,48,F0,00,30,2D,
1203946,00613DF8,true,Rx,0,8,41,00,00,00,00,00,00,00,
1205136,01800028,true,Rx,0,8,C0,00,00,00,00,00,00,00,
1206269,0340024C,true,Rx,0,8,40,00,10,00,0C,9B,00,00,
1210174,01C030A2,true,Rx,0,8,40,5B,40,01,89,01,14,00,
1216192,0280142A,true,Rx,0,8,80,50,00,20,07,00,00,00,
1222791,0102C02C,true,Rx,1,8,0F,C1,9A,0D,C0,10,00,00,
1223437,00613DF8,true,Rx,0,8,83,00,00,00,00,00,00,00,
1224582,01213FFC,true,Rx,0,8,8D,00,4C,00,70,01,08,00,
1225706,02001022,true,Rx,0,8,C0,00,00,01,35,90,10,43,
1226878,01E01266,true,Rx,0,8,40,00,02,00,00,00,40,00,
1228014,02A03028,true,Rx,0,8,00,9F,84,01,1A,00,00,00,
1231034,0261300A,true,Rx,0,8,00,00,00,27,80,00,00,C0,
1232752,0140044A,true,Rx,0,8,80,00,00,18,00,00,00,00,
1232766,01200028,true,Rx,1,8,88,08,00,48,F0,00,30,2D,
1235932,00400066,true,Rx,0,8,80,00,00,05,01,5E,40,7F,
1237713,0240102A,true,Rx,0,8,41,00,00,00,00,00,00,00,
1237849,00608024,true,Rx,1,8,C0,00,00,00,00,01,05,3E,
1243422,00613DF8,true,Rx,0,8,C1,00,00,00,00,00,00,00,
1244615,01800028,true,Rx,0,8,00,00,00,00,00,00,00,00,
1245746,02C13428,true,Rx,0,8,80,00,08,80,00,CF,20,00,
1246881,0280142A,true,Rx,0,8,C0,10,00,28,07,00,00,00,
1247707,0102C02C,true,Rx,1,8,4F,C1,9A,0D,C0,10,00,00,
1247996,02E10DF4,true,Rx,0,8,8F,A9,2F,AC,99,3A,F8,18,
1249132,01213FFC,true,Rx,0,8,CD,00,4C,40,60,41,08,00,
1254944,01C030A2,true,Rx,0,8,80,5B,40,01,89,01,14,00,
1258319,02A03028,true,Rx,0,8,00,BF,C4,09,1A,00,00,00,
1261176,0261300A,true,Rx,0,8,40,00,00,27,80,00,00,C0,
1262741,01200028,true,Rx,1,8,C8,08,00,48,F0,00,30,2D,
1263408,00613DF8,true,Rx,0,8,03,00,00,00,00,00,00,00,
1269529,02001022,true,Rx,0,8,00,00,00,01,35,90,10,43,
1271135,0360000A,true,Rx,0,8,60,00,00,00,00,14,00,80,
1272307,01E01266,true,Rx,0,8,80,00,02,00,00,00,40,00,
1272825,0102C02C,true,Rx,1,8,8F,C1,9A,0D,C0,10,00,00,
1273465,0140044A,true,Rx,0,8,C0,00,00,08,10,00,00,00,
1274600,01213FFC,true,Rx,0,8,0D,00,4C,00,70,01,08,00,
1275763,0240102A,true,Rx,0,8,81,00,00,00,00,00,00,00,
1276907,0280142A,true,Rx,0,8,00,50,00,20,07,00,00,00,
1283443,00613DF8,true,Rx,0,8,41,00,00,00,00,00,00,00,
1284635,01800028,true,Rx,0,8,40,00,00,00,00,00,00,00,
1291167,0261300A,true,Rx,0,8,80,00,00,27,80,00,00,C0,
1292721,01200028,true,Rx,1,8,08,08,00,48,F0,00,30,2D,
1293357,02A03028,true,Rx,0,8,00,9F,91,01,1A,00,80,00,
1294543,03200008,true,Rx,0,8,00,00,00,00,00,80,00,00,
1297720,0102C02C,true,Rx,1,8,CF,C1,9A,0D,C0,10,00,00,
1298335,01213FFC,true,Rx,0,8,4D,00,4C,00,70,01,08,00,
1299450,02C13428,true,Rx,0,8,C0,00,08,80,00,CF,20,00,
1300573,01C030A2,true,Rx,0,8,C0,5B,40,01,89,01,14,00,
1301666,02E10DF4,true,Rx,0,8,CF,A9,0F,2C,99,3A,F8,18,
1303398,00613DF8,true,Rx,0,8,83,00,00,00,00,00,00,00,
1306180,0280142A,true,Rx,0,8,40,50,00,20,07,00,00,00,
1307784,0240102A,true,Rx,0,8,C0,00,00,00,00,00,00,00,
1311199,00400066,true,Rx,0,8,C0,00,00,06,01,5E,40,7F,
1312753,0140044A,true,Rx,0,8,00,00,00,08,00,00,00,00,
1312931,00608024,true,Rx,1,8,00,00,00,00,00,01,06,3E,
1314424,02001022,true,Rx,0,8,40,00,00,01,35,90,10,43,
1316339,01E01266,true,Rx,0,8,C0,00,02,00,00,00,40,00,
1321326,0261300A,true,Rx,0,8,C0,00,00,27,80,00,00,C0,
1322798,0102C02C,true,Rx,1,8,0F,C1,9A,0D,C0,10,00,00,
1323374,01200028,true,Rx,1,8,48,00,00,48,F0,00,30,2D,
1323456,00613DF8,true,Rx,0,8,C1,00,00,00,00,00,00,00,
1324591,01213FFC,true,Rx,0,8,8D,00,4C,40,60,01,08,00,
1325778,01800028,true,Rx,0,8,80,00,00,00,00,00,00,00,
1326964,04200002,true,Rx,0,8,00,00,00,00,00,00,00,00,
1328336,02A03028,true,Rx,0,8,00,1F,01,01,1A,00,00,00,
1336182,0280142A,true,Rx,0,8,80,10,00,20,07,00,00,00,
1342727,0240102A,true,Rx,0,8,01,00,00,00,00,00,00,00,
1343899,00613DF8,true,Rx,0,8,03,00,00,00,00,00,00,00,
1345020,01C030A2,true,Rx,0,8,00,5B,40,01,89,01,14,00,
1347751,0102C02C,true,Rx,1,8,4F,C1,9A,0D,C0,11,00,00,
1348379,01213FFC,true,Rx,0,8,CD,00,4C,00,70,41,08,00,
1351599,0261300A,true,Rx,0,8,00,00,00,27,80,00,00,C0,
1352700,01200028,true,Rx,1,8,88,08,00,48,F0,00,30,2D,
1352762,0140044A,true,Rx,0,8,40,00,00,18,10,00,00,00,
1353896,02C13428,true,Rx,0,8,00,00,08,80,00,CF,20,00,
1355020,02E10DF4,true,Rx,0,8,0F,A9,2F,AC,99,3A,F8,18,
1359607,02001022,true,Rx,0,8,80,00,00,01,35,90,10,43,
1361346,01E01266,true,Rx,0,8,00,00,06,00,00,00,40,00,
1362477,03A00002,true,Rx,0,8,80,00,00,04,07,04,98,5E,
1363669,00613DF8,true,Rx,0,8,41,00,00,00,00,00,00,00,
1364846,01800028,true,Rx,0,8,C0,00,00,00,00,00,00,00,
1365989,02A03028,true,Rx,0,8,00,9F,C1,09,1A,00,00,00,
1367136,0280142A,true,Rx,0,8,C1,50,00,20,07,00,00,00,
1372812,0102C02C,true,Rx,1,8,8F,C1,9A,0D,C0,10,00,00,
1373438,01213FFC,true,Rx,0,8,0D,00,4C,00,70,01,08,00,
1377727,0240102A,true,Rx,0,8,41,00,00,00,00,00,00,00,
1381579,0261300A,true,Rx,0,8,40,00,00,27,80,00,00,C0,
1382742,01200028,true,Rx,1,8,C8,08,00,48,F0,00,30,2D,
1383392,00613DF8,true,Rx,0,8,83,00,00,00,00,00,00,00,
1384555,0340024C,true,Rx,0,8,80,00,00,00,0C,9B,00,00,
1386543,00400066,true,Rx,0,8,00,00,00,07,01,5E,40,7F,
1390174,01C030A2,true,Rx,0,8,40,5B,40,01,89,01,14,00,
1392699,0140044A,true,Rx,0,8,80,00,00,08,00,00,00,00,
1392852,00608024,true,Rx,1,8,40,00,00,00,00,01,07,3E,
1396167,0280142A,true,Rx,0,8,00,50,00,20,07,00,00,00,
1397753,0102C02C,true,Rx,1,8,CF,C1,9A,0D,C0,10,00,00,
1398382,01213FFC,true,Rx,0,8,4D,00,4C,40,60,01,08,00,
1399526,02A03028,true,Rx,0,8,00,9F,81,01,1A,00,00,00,
1400712,03200008,true,Rx,0,8,00,00,00,00,00,80,00,00,
1403396,00613DF8,true,Rx,0,8,C1,00,00,00,00,00,00,00,
1404599,01800028,true,Rx,0,8,00,00,00,00,00,00,00,00,
1405720,02001022,true,Rx,0,8,C0,00,00,01,35,90,10,43,
1406897,01E01266,true,Rx,0,8,40,00,02,00,00,00,40,00,
1408349,02C13428,true,Rx,0,8,40,00,08,80,00,CF,20,00,
1409435,02E10DF4,true,Rx,0,8,4F,A9,0F,2C,99,3A,F8,18,
1411806,0261300A,true,Rx,0,8,80,00,00,27,80,00,00,C0,
1412712,01200028,true,Rx,1,8,08,08,00,48,F0,00,30,2D,
1412958,0240102A,true,Rx,0,8,80,00,00,00,00,00,00,00,
1422769,0102C02C,true,Rx,1,8,0F,C1,9A,0D,C0,10,00,00,
1423415,00613DF8,true,Rx,0,8,03,00,00,00,00,00,00,00,
1424562,01213FFC,true,Rx,0,8,8D,00,4C,00,70,01,08,00,
1426151,0280142A,true,Rx,0,8,40,10,00,20,07,00,00,00,
1432733,0140044A,true,Rx,0,8,C0,00,00,18,00,00,00,00,
1433885,02A03028,true,Rx,0,8,00,9F,C1,09,1A,00,00,00,
1434985,01C030A2,true,Rx,0,8,80,5B,40,01,89,01,14,00,
1441966,0261300A,true,Rx,0,8,C0,00,00,27,80,00,00,C0,
1442739,01200028,true,Rx,1,8,48,00,00,48,F0,00,30,2D,
1443389,00613DF8,true,Rx,0,8,41,00,00,00,00,00,00,00,
1444584,01800028,true,Rx,0,8,40,00,00,00,00,00,00,00,
1445719,03801028,true,Rx,0,8,40,00,20,08,1C,43,00,00,
1447688,0240102A,true,Rx,0,8,C1,00,00,00,00,00,00,00,
1447711,0102C02C,true,Rx,1,8,4F,C1,9A,0D,C0,10,00,00,
1448832,01213FFC,true,Rx,0,8,CD,00,4C,00,60,41,08,00,
1449968,02001022,true,Rx,0,8,00,00,00,01,35,90,10,43,
1451709,01E01266,true,Rx,0,8,80,00,02,00,00,00,40,00,
1452821,0132C07C,true,Rx,1,8,14,02,02,01,01,02,02,56,
1453440,01613FFC,true,Rx,0,8,14,02,02,01,01,02,02,56,
1456161,0280142A,true,Rx,0,8,80,50,00,28,07,00,00,00,
1462001,00400066,true,Rx,0,8,40,00,00,00,01,5E,40,7F,
1463401,00613DF8,true,Rx,0,8,83,00,00,00,00,00,00,00,
1464533,02C13428,true,Rx,0,8,80,00,08,80,00,CF,20,00,
1465647,02E10DF4,true,Rx,0,8,8F,A9,2F,AC,99,3A,F8,18,
1467781,00608024,true,Rx,1,8,80,00,00,00,00,01,00,3E,
1468417,02A03028,true,Rx,0,8,00,9F,81,01,1A,00,00,00,
1472051,0261300A,true,Rx,0,8,00,00,00,27,80,00,00,C0,
1472689,0102C02C,true,Rx,1,8,8F,C1,9A,0D,C0,10,00,00,
1473226,0140044A,true,Rx,0,8,00,00,00,08,10,00,00,00,
1473260,01200028,true,Rx,1,8,88,08,00,48,F0,00,30,2D,
1474352,01213FFC,true,Rx,0,8,0D,00,4C,40,70,01,08,00,
1475508,04000002,true,Rx,0,8,C0,00,01,00,B4,00,00,4E,
1480240,01C030A2,true,Rx,0,8,C0,5B,40,01,89,01,14,00,
1482671,0240102A,true,Rx,0,8,03,00,00,00,00,00,00,00,
1483833,00613DF8,true,Rx,0,8,C1,00,00,00,00,00,00,00,
1485026,01800028,true,Rx,0,8,80,00,00,00,00,00,00,00,
1486163,0280142A,true,Rx,0,8,C0,50,00,20,07,00,00,00,
1494416,02001022,true,Rx,0,8,40,00,00,01,35,90,10,43,
1496362,01E01266,true,Rx,0,8,C0,00,02,00,00,00,40,00,
1497752,0102C02C,true,Rx,1,8,CF,C1,9A,0D,C0,10,00,00,
1498361,01213FFC,true,Rx,0,8,4D,00,4C,00,70,01,08,00,
1502100,0261300A,true,Rx,0,8,40,00,00,27,80,00,00,C0,
1502707,01200028,true,Rx,1,8,C8,08,00,48,F0,00,30,2D,
1503367,00613DF8,true,Rx,0,8,03,00,00,00,00,00,00,00,
1504511,02A03028,true,Rx,0,8,00,9F,81,01,1A,00,00,00,
1505697,03200008,true,Rx,0,8,00,00,00,00,00,80,00,00,
1512730,0140044A,true,Rx,0,8,40,00,00,08,00,00,00,00,
1516137,0280142A,true,Rx,0,8,00,10,00,20,07,00,00,00,
1517712,0240102A,true,Rx,0,8,40,00,00,00,00,00,00,00,
1518832,02C13428,true,Rx,0,8,C0,00,08,80,00,CF,20,00,
1519928,02E10DF4,true,Rx,0,8,CF,A9,0F,2C,99,3A,F8,18,
1522848,0102C02C,true,Rx,1,8,0F,C1,9A,0D,C0,10,00,00,
1523494,00613DF8,true,Rx,0,8,41,00,00,00,00,00,00,00,
1524629,01213FFC,true,Rx,0,8,8D,00,4C,00,60,01,08,00,
1525813,01800028,true,Rx,0,8,C0,00,00,00,00,00,00,00,
1526935,01C030A2,true,Rx,0,8,00,5B,40,01,89,01,14,00,
1531937,0261300A,true,Rx,0,8,80,00,00,27,80,00,00,C0,
1532709,01200028,true,Rx,1,8,08,08,00,48,F0,00,30,2D,
1536895,00400066,true,Rx,0,8,80,00,00,01,01,5E,40,7F,
1538388,02A03028,true,Rx,0,8,00,9F,C1,09,1A,00,00,00,
1539529,02001022,true,Rx,0,8,80,00,00,01,35,90,10,43,
1541393,01E01266,true,Rx,0,8,00,00,02,00,00,00,40,00,
1542931,00608024,true,Rx,1,8,C0,00,00,00,00,01,01,3E,
1543578,00613DF8,true,Rx,0,8,83,00,00,00,00,00,00,00,
1546153,0280142A,true,Rx,0,8,40,50,00,20,07,00,00,00,
1547769,0102C02C,true,Rx,1,8,4F,C1,9A,0D,C0,11,00,00,
1548399,01213FFC,true,Rx,0,8,CD,00,4C,00,70,41,08,00,
1552694,0140044A,true,Rx,0,8,80,00,00,18,10,00,00,00,
1553856,0240102A,true,Rx,0,8,81,00,00,00,00,00,00,00,
1554987,03C0002A,true,Rx,0,8,00,00,30,C0,2E,00,9F,00,
1562127,0261300A,true,Rx,0,8,C0,00,00,27,80,00,00,C0,
1562733,01200028,true,Rx,1,8,48,00,00,E4,F0,00,30,2E,
1563373,00613DF8,true,Rx,0,8,C1,00,00,00,00,00,00,00,
1564578,01800028,true,Rx,0,8,00,00,00,00,00,00,00,00,
1565703,0340024C,true,Rx,0,8,C1,00,10,01,0C,9B,00,00,
1570187,01C030A2,true,Rx,0,8,40,5B,40,01,89,01,14,00,
1572743,0102C02C,true,Rx,1,8,8F,C1,9A,0E,C0,10,00,00,
1573379,01213FFC,true,Rx,0,8,0E,00,4C,40,70,01,08,00,
1574514,02A03028,true,Rx,0,8,00,9F,91,01,1A,00,80,00,
1575647,02C13428,true,Rx,0,8,00,00,08,80,00,CF,20,00,
1576799,0280142A,true,Rx,0,8,80,50,00,20,07,00,00,00,
1577913,02E10DF4,true,Rx,0,8,0F,A9,2F,AC,99,3A,F8,18,
1583410,00613DF8,true,Rx,0,8,03,00,00,00,00,00,00,00,
1584542,02001022,true,Rx,0,8,C0,00,00,01,35,90,10,43,
1586415,01E01266,true,Rx,0,8,40,00,02,00,00,00,40,00,
1587670,0240102A,true,Rx,0,8,C1,00,00,00,00,00,00,00,
1591056,0360000A,true,Rx,0,8,80,00,00,00,00,14,00,80,
1592190,0261300A,true,Rx,0,8,00,00,00,27,80,00,00,C0,
1592759,01200028,true,Rx,1,8,88,08,00,40,F0,00,30,2E,
1593357,0140044A,true,Rx,0,8,C0,00,00,08,00,00,00,00,
1597835,0102C02C,true,Rx,1,8,CF,C1,9A,0E,C0,10,00,00,
1598460,01213FFC,true,Rx,0,8,4E,00,4C,00,60,01,08,00,
1603474,00613DF8,true,Rx,0,8,41,00,00,00,00,00,00,00,
1604667,01800028,true,Rx,0,8,40,00,00,00,00,00,00,00,
1606140,0280142A,true,Rx,0,8,C0,10,00,20,07,00,00,00,
1606771,0022C01E,true,Rx,1,8,60,00,00,00,00,00,00,00,
1607350,0032C01E,true,Rx,1,8,60,00,00,00,00,00,00,00,
1607938,00B00002,true,Rx,1,8,60,00,00,00,00,00,00,00,
1608434,02A03028,true,Rx,0,8,00,1F,01,01,1A,00,00,00,
1609618,03200008,true,Rx,0,8,00,00,00,00,00,80,00,00,
1610735,0022C01E,true,Rx,1,8,60,00,40,00,44,00,22,EE,
1611315,0032C01E,true,Rx,1,8,60,00,00,00,00,00,60,00,
1611902,00B00002,true,Rx,1,8,60,00,00,00,00,00,00,00,
1612492,01100014,true,Rx,1,8,60,00,00,00,00,00,00,00,
1613080,01500006,true,Rx,1,8,60,00,00,00,00,00,00,00,
1613660,01700012,true,Rx,1,8,60,00,00,00,00,00,00,00,
1614865,01C030A2,true,Rx,0,8,80,5B,40,01,89,01,14,00,
1622259,0261300A,true,Rx,0,8,40,00,00,27,80,00,00,C0,
1622732,0102C02C,true,Rx,1,8,0F,C1,9A,0E,C0,10,00,00,
1623290,0022C01E,true,Rx,1,8,84,00,43,D2,C4,00,A2,EE,
1623434,00613DF8,true,Rx,0,8,83,00,00,00,00,00,00,00,
1623870,0032C01E,true,Rx,1,8,82,00,94,00,00,00,60,00,
1624442,01200028,true,Rx,1,8,C8,08,00,40,F0,00,30,2E,
1624586,01213FFC,true,Rx,0,8,8E,00,4C,00,70,01,08,00,
1625762,0240102A,true,Rx,0,8,01,00,00,00,00,00,00,00,
1628569,02C13428,true,Rx,0,8,41,00,08,88,00,CF,20,00,
1629700,02001022,true,Rx,0,8,00,00,00,01,35,90,10,43,
1630729,00B00002,true,Rx,1,8,80,00,E7,6B,B6,3B,C3,F3,
1630791,02E10DF4,true,Rx,0,8,4F,A9,0F,2C,99,3A,F8,18,
1631321,01100014,true,Rx,1,8,80,00,00,00,00,11,20,00,
1631960,01E01266,true,Rx,0,8,80,00,02,00,00,00,40,00,
1633139,0140044A,true,Rx,0,8,00,00,00,18,00,00,00,00,
1634724,0022C01E,true,Rx,1,8,C4,0B,43,D2,C4,00,A2,EE,
1635303,0032C01E,true,Rx,1,8,C0,00,14,00,00,00,60,00,
1636128,0280142A,true,Rx,0,8,00,50,00,20,07,00,00,00,
1642594,0012C024,true,Rx,1,8,AC,A1,00,00,C1,FF,88,00,
1643190,00524000,true,Rx,1,8,40,00,00,00,40,00,40,00,
1643438,00613DF8,true,Rx,0,8,C1,00,00,20,00,00,00,00,
1643750,00D28026,true,Rx,1,8,6E,8F,64,00,40,00,00,00,
1644329,00F2C006,true,Rx,1,8,6C,00,00,00,90,00,00,00,
1644627,01800028,true,Rx,0,8,80,00,02,00,00,00,00,00,
1644923,01828002,true,Rx,1,8,00,80,00,48,00,00,00,00,
1645779,02A03028,true,Rx,0,8,00,9F,C1,09,1A,00,00,00,
1646739,0022C01E,true,Rx,1,8,04,0B,43,D2,C4,00,A2,EE,
1647318,0032C01E,true,Rx,1,8,00,00,14,00,00,00,60,00,
1648175,0102C02C,true,Rx,1,8,4F,C1,9A,0E,C0,10,00,00,
1648834,01213FFC,true,Rx,0,8,CE,00,5D,C0,E0,C1,88,00,
1650740,00B00002,true,Rx,1,8,C0,00,A7,6B,B6,3B,C3,F3,
1651319,01100014,true,Rx,1,8,C0,00,00,04,00,11,20,00,
1652298,0261300A,true,Rx,0,8,80,00,00,27,80,00,00,C0,
1653012,01200028,true,Rx,1,8,08,00,00,40,F0,00,30,2E,
1656638,0012C024,true,Rx,1,8,A4,A1,00,00,C1,FF,88,00,
1657232,00524000,true,Rx,1,8,40,00,00,00,40,00,40,00,
1657635,0240102A,true,Rx,0,8,40,00,00,00,00,00,00,00,
1657802,00D28026,true,Rx,1,8,8A,8F,64,00,40,00,00,00,
1658741,0022C01E,true,Rx,1,8,40,0B,43,D2,44,00,24,DC,
1659313,0032C01E,true,Rx,1,8,42,00,84,00,04,00,60,00,
1660169,01C030A2,true,Rx,0,8,C0,5B,40,01,89,01,14,00,
1663678,00F2C006,true,Rx,1,8,88,00,00,00,90,00,00,00,
1663715,00613DF8,true,Rx,0,8,03,00,08,20,01,00,00,40,
1666115,0280142A,true,Rx,0,8,40,50,00,28,07,00,00,00,
1670673,0012C024,true,Rx,1,8,AC,A1,00,00,C1,FF,88,00,
1671217,0022C01E,true,Rx,1,8,84,0B,43,D2,C4,00,A6,1D,
1671794,0032C01E,true,Rx,1,8,80,00,14,00,04,00,60,00,
1672384,00524000,true,Rx,1,8,40,00,00,00,40,00,40,00,
1672725,0140044A,true,Rx,0,8,40,00,00,08,10,00,00,00,
1672944,00B00002,true,Rx,1,8,00,00,A7,6B,B6,3B,C3,F3,
1673513,00D28026,true,Rx,1,8,CA,8F,64,00,40,00,00,00,
1673842,01213FFC,true,Rx,0,8,0E,00,5D,80,F0,81,88,00,
1674082,0102C02C,true,Rx,1,8,8F,C1,9A,0E,C0,10,00,00,
1674672,01100014,true,Rx,1,8,00,00,00,00,00,11,20,00,
1674979,02001022,true,Rx,0,8,40,00,00,01,35,90,10,43,
1675240,01500006,true,Rx,1,8,85,0F,08,01,2B,00,00,00,
1675808,01700012,true,Rx,1,8,89,C0,80,00,AA,AA,00,00,
1676405,01E01266,true,Rx,0,8,C0,00,06,00,00,00,40,00,
1679049,02A03028,true,Rx,0,8,00,9F,81,51,1A,2B,00,00,
1682435,0261300A,true,Rx,0,8,C0,00,00,27,80,00,00,C0,
1682753,0022C01E,true,Rx,1,8,C4,0B,43,D2,C4,00,A6,1D,
1683321,0032C01E,true,Rx,1,8,C0,00,14,00,04,00,60,00,
1683611,00613DF8,true,Rx,0,8,41,00,08,20,00,00,00,40,
1683891,01200028,true,Rx,1,8,48,08,00,40,F0,00,30,2E,
1684669,0012C024,true,Rx,1,8,A4,A1,00,00,C1,FF,88,00,
1684803,01800028,true,Rx,0,8,C0,00,02,00,00,00,00,00,
1685260,00524000,true,Rx,1,8,40,00,00,00,40,00,40,00,
1685838,00D28026,true,Rx,1,8,0A,8F,64,00,40,00,00,00,
1685890,02C13428,true,Rx,0,8,81,02,38,8A,00,CF,20,00,
1686408,00F2C006,true,Rx,1,8,CC,00,00,00,90,00,00,00,
1687002,02E10DF4,true,Rx,0,8,8F,A9,2F,AC,99,3A,F8,18,
1690765,00B00002,true,Rx,1,8,40,00,A7,6B,B6,3B,C3,F3,
1691350,01100014,true,Rx,1,8,40,00,00,00,00,11,20,00,
1692680,0240102A,true,Rx,0,8,81,00,00,00,00,00,00,00,
1694751,0022C01E,true,Rx,1,8,04,0B,43,D2,C4,00,A6,1D,
1695327,0032C01E,true,Rx,1,8,02,00,94,00,04,00,60,00,
1696131,0280142A,true,Rx,0,8,80,10,00,20,07,00,00,00,
1697903,0102C02C,true,Rx,1,8,CF,C1,9A,0E,C0,10,00,00,
1698522,01213FFC,true,Rx,0,8,4E,00,5D,80,F0,81,88,00,
1698680,0012C024,true,Rx,1,8,AC,A1,00,00,C1,FF,88,00,
1699270,00524000,true,Rx,1,8,40,00,00,00,40,00,40,00,
1699838,00D28026,true,Rx,1,8,4E,8F,64,00,40,00,00,00,
1703695,00613DF8,true,Rx,0,8,83,00,08,20,01,00,00,40,
1705022,01C030A2,true,Rx,0,8,00,5B,40,01,89,01,14,00,
1705675,00F2C006,true,Rx,1,8,0C,00,00,00,90,00,00,00,
1706766,0022C01E,true,Rx,1,8,40,0B,43,D2,44,00,26,1D,
1707335,0032C01E,true,Rx,1,8,40,00,04,00,04,00,60,00,
1710782,00B00002,true,Rx,1,8,80,00,A7,6B,B6,3B,C3,F3,
1711367,01100014,true,Rx,1,8,80,00,00,04,00,11,20,00,
1712418,0261300A,true,Rx,0,8,00,00,00,27,80,00,00,C0,
1712659,0012C024,true,Rx,1,8,A4,A1,00,00,C1,FF,88,00,
1713258,00524000,true,Rx,1,8,40,00,00,00,40,00,40,00,
1713578,0140044A,true,Rx,0,8,80,00,00,08,00,00,00,00,
1713817,00D28026,true,Rx,1,8,8A,8F,64,00,40,00,00,00,
1714387,01200028,true,Rx,1,8,88,08,00,43,F0,00,30,2E,
1714706,02A03028,true,Rx,0,8,00,9F,81,11,1A,2B,00,00,
1715897,03200008,true,Rx,0,8,00,00,00,00,00,80,00,00,
1718782,0022C01E,true,Rx,1,8,84,0B,43,D2,C4,00,A6,1D,
1719357,0032C01E,true,Rx,1,8,82,00,94,00,04,00,60,00,
1719513,02001022,true,Rx,0,8,80,00,00,01,35,90,10,43,
1719937,01828002,true,Rx,1,8,00,80,00,5D,00,00,00,00,
1720517,00C24008,true,Rx,1,8,FD,00,02,00,80,00,80,00,
1721139,01A00002,true,Rx,1,8,60,00,00,00,00,00,00,04,
1721458,01E01266,true,Rx,0,8,00,00,02,00,00,00,40,00,
1723273,0102C02C,true,Rx,1,8,0F,C1,9A,0E,C0,10,00,00,
1723891,00613DF8,true,Rx,0,8,C1,00,08,20,00,00,00,40,
1725035,01213FFC,true,Rx,0,8,8E,00,5D,C0,E0,81,88,00,
1726243,01800028,true,Rx,0,8,00,00,2E,00,00,00,00,00,
1726853,0012C024,true,Rx,1,8,AC,A1,00,00,C1,FF,88,00,
1727380,0280142A,true,Rx,0,8,C0,50,00,20,07,00,00,00,
1727445,00524000,true,Rx,1,8,40,00,00,00,40,00,40,00,
1728003,00D28026,true,Rx,1,8,CA,8F,64,00,40,00,00,00,
1728539,0240102A,true,Rx,0,8,C1,00,00,00,00,00,00,00,
1728583,00F2C006,true,Rx,1,8,4C,00,00,00,90,00,00,00,
1730445,00C24008,true,Rx,1,8,ED,00,12,00,80,00,80,00,
1730998,0022C01E,true,Rx,1,8,C4,0B,43,D2,C4,00,A6,42,
1731567,0032C01E,true,Rx,1,8,C0,00,14,00,04,00,60,00,
1732115,00B00002,true,Rx,1,8,C0,00,A7,6B,B6,3B,C3,F3,
1732703,01100014,true,Rx,1,8,C0,00,00,00,00,11,20,00,
1733263,01500006,true,Rx,1,8,C5,0F,08,01,2B,00,00,00,
1733832,01700012,true,Rx,1,8,CB,C0,80,00,AA,AA,00,00,
1738590,02C13428,true,Rx,0,8,C1,02,38,8A,00,CF,20,00,
1739691,02E10DF4,true,Rx,0,8,CF,A9,0F,2C,99,3A,F8,18,
1740437,00C24008,true,Rx,1,8,DD,00,22,00,80,00,80,00,
1741013,0012C024,true,Rx,1,8,A4,A1,00,00,C1,FF,88,00,
1741601,00524000,true,Rx,1,8,40,00,00,00,40,00,40,00,
1742181,00D28026,true,Rx,1,8,0A,8F,64,00,40,00,00,00,
1742655,0261300A,true,Rx,0,8,40,00,00,27,80,00,00,C0,
1742751,01200028,true,Rx,1,8,C8,08,00,41,F0,00,30,2E,
1743300,0022C01E,true,Rx,1,8,04,0B,43,D2,C4,00,A6,42,
1743813,00613DF8,true,Rx,0,8,03,00,08,20,00,00,00,40,
1743878,0032C01E,true,Rx,1,8,00,00,14,00,04,00,60,00,
1744458,0132C07C,true,Rx,1,8,19,05,01,01,01,02,01,01,
1744959,01613FFC,true,Rx,0,8,19,05,01,01,01,02,01,01,
1746105,0340024C,true,Rx,0,8,01,00,80,01,04,9B,00,00,
1747899,00F2C006,true,Rx,1,8,88,00,00,00,90,00,00,00,
1748457,0102C02C,true,Rx,1,8,4F,C1,9A,0E,C0,11,91,A1,
1748713,01213FFC,true,Rx,0,8,CE,00,5D,80,F0,C1,98,00,
1749827,02A03028,true,Rx,0,8,00,9F,C1,59,1A,2B,00,00,
1750439,00C24008,true,Rx,1,8,CD,00,32,00,80,00,80,00,
1750933,01C030A2,true,Rx,0,8,40,5B,40,01,89,01,14,00,
1750999,00B00002,true,Rx,1,8,00,00,A7,6B,B6,3B,C3,F3,
1751588,01100014,true,Rx,1,8,00,00,00,00,00,11,20,00,
1752691,0140044A,true,Rx,0,8,C0,00,00,18,10,00,00,00,
1754787,0022C01E,true,Rx,1,8,40,0B,40,86,44,00,26,42,
1755353,0012C024,true,Rx,1,8,AC,A1,00,00,C1,FF,88,00,
1755921,0032C01E,true,Rx,1,8,42,00,84,00,04,00,60,00,
1756148,0280142A,true,Rx,0,8,00,50,00,20,07,00,00,00,
1756512,00524000,true,Rx,1,8,40,00,00,00,40,00,40,00,
1757081,00D28026,true,Rx,1,8,4E,8F,64,00,40,00,00,00,
1760430,00C24008,true,Rx,1,8,BD,00,42,00,80,00,80,00,
1762693,0240102A,true,Rx,0,8,00,00,00,00,00,00,00,00,
1763854,00613DF8,true,Rx,0,8,41,00,08,20,01,00,00,40,
1765027,01800028,true,Rx,0,8,40,00,2A,00,00,00,00,00,
1766163,02001022,true,Rx,0,8,C0,00,00,01,35,90,10,43,
1766783,0022C01E,true,Rx,1,8,84,0B,40,86,C4,00,A4,EC,
1767331,01E01266,true,Rx,0,8,40,00,02,00,00,00,40,00,
1767355,0032C01E,true,Rx,1,8,80,00,14,00,04,00,60,00,
1768467,03801028,true,Rx,0,8,8E,00,20,09,DC,43,00,00,
1768872,0012C024,true,Rx,1,8,A4,A1,00,00,C1,FF,88,00,
1769464,00524000,true,Rx,1,8,40,00,00,00,40,00,40,00,
1770031,00D28026,true,Rx,1,8,8A,8F,64,00,40,00,00,00,
1770600,00C24008,true,Rx,1,8,AD,00,52,00,80,00,80,00,
1771149,00B00002,true,Rx,1,8,42,00,A7,6B,B6,3B,C3,F3,
1771727,00F2C006,true,Rx,1,8,CC,00,00,00,90,00,00,00,
1772306,01100014,true,Rx,1,8,40,00,00,04,00,11,20,00,
1772585,0261300A,true,Rx,0,8,80,00,00,27,80,00,00,C0,
1773167,0102C02C,true,Rx,1,8,8F,C1,9A,0E,C0,10,11,A1,
1773745,01200028,true,Rx,1,8,08,08,00,41,F0,00,30,2E,
1773828,01213FFC,true,Rx,0,8,0E,00,5D,80,F0,81,98,00,
1776439,03A00002,true,Rx,0,8,C0,00,00,04,07,04,98,5E,
1778787,0022C01E,true,Rx,1,8,C4,0B,40,86,C4,00,A4,EC,
1779361,0032C01E,true,Rx,1,8,C0,00,14,00,04,00,60,00,
1780445,00C24008,true,Rx,1,8,9D,00,62,00,80,00,80,00,
1782886,0012C024,true,Rx,1,8,AC,A1,00,00,C1,FF,88,00,
1783472,00524000,true,Rx,1,8,40,00,00,00,40,00,40,00,
1783523,00613DF8,true,Rx,0,8,83,00,08,20,00,00,00,40,
1784041,00D28026,true,Rx,1,8,CA,8F,64,00,40,00,00,00,
1784628,02A03028,true,Rx,0,8,00,9F,91,11,1A,2B,80,00,
1786107,0280142A,true,Rx,0,8,40,10,00,20,07,00,00,00,
1789851,00F2C006,true,Rx,1,8,0C,00,00,00,90,00,00,00,
1790437,00C24008,true,Rx,1,8,8D,00,72,00,80,00,80,00,
1790984,0022C01E,true,Rx,1,8,04,0B,40,86,C4,00,A4,EC,
1791552,0032C01E,true,Rx,1,8,02,00,94,00,04,00,60,00,
1792121,00B00002,true,Rx,1,8,80,00,A7,6B,B6,3B,C3,F3,
1792697,0140044A,true,Rx,0,8,00,00,00,08,00,00,00,00,
1792712,01100014,true,Rx,1,8,80,00,00,00,00,11,20,00,
1793261,01500006,true,Rx,1,8,05,2F,08,85,2B,3C,00,00,
1793825,02C13428,true,Rx,0,8,01,00,18,88,00,CF,20,00,
1793840,01700012,true,Rx,1,8,0B,C0,80,00,AA,AA,00,00,
1794919,01C030A2,true,Rx,0,8,80,5B,40,01,89,01,14,00,
1796039,02E10DF4,true,Rx,0,8,0F,A9,2F,AC,99,3A,F8,18,
1796888,0012C024,true,Rx,1,8,A4,A1,00,00,C1,FF,88,00,
1797477,00524000,true,Rx,1,8,40,00,00,00,40,00,40,00,
1797745,0240102A,true,Rx,0,8,41,00,00,00,00,00,00,00,
1798060,00D28026,true,Rx,1,8,0A,8F,64,00,40,00,00,00,
1798619,0102C02C,true,Rx,1,8,CF,C1,9A,0E,C0,10,11,A1,
1798876,01213FFC,true,Rx,0,8,4E,00,5D,C0,E0,81,98,00,
1799199,01828002,true,Rx,1,8,00,80,00,5D,00,00,00,00,
1799787,00E00020,true,Rx,1,8,4B,00,00,00,00,00,00,00,
1800351,01600022,true,Rx,1,8,61,00,AA,AA,00,00,00,00,
1800929,00C24008,true,Rx,1,8,7D,00,82,00,80,00,80,00,
1802771,0261300A,true,Rx,0,8,C0,00,00,27,80,00,00,C0,
1802825,0022C01E,true,Rx,1,8,40,0B,40,86,44,00,24,EC,
1803394,0032C01E,true,Rx,1,8,40,00,04,00,04,00,60,00,
1803929,00613DF8,true,Rx,0,8,C1,00,08,20,00,00,00,40,
1803975,01200028,true,Rx,1,8,48,40,00,41,F0,00,30,2E,
1805103,01800028,true,Rx,0,8,80,00,2E,00,00,00,00,00,
1809540,02001022,true,Rx,0,8,00,00,00,01,35,90,10,43,
1810425,00C24008,true,Rx,1,8,6D,00,92,00,80,00,80,00,
1811003,0012C024,true,Rx,1,8,AC,A1,00,00,C1,FF,88,00,
1811590,00524000,true,Rx,1,8,40,00,00,00,40,00,40,00,
1811621,01E01266,true,Rx,0,8,80,00,02,00,00,00,40,00,
1812141,00B00002,true,Rx,1,8,C0,00,A7,6B,B6,3B,C3,F3,
1812709,00D28026,true,Rx,1,8,4E,8F,64,00,40,00,00,00,
1813289,00F2C006,true,Rx,1,8,4C,00,00,00,90,00,00,00,
1813870,01100014,true,Rx,1,8,C0,00,00,00,00,11,20,00,
1814810,0022C01E,true,Rx,1,8,84,0B,40,86,C4,00,A4,EC,
1815389,0032C01E,true,Rx,1,8,82,00,94,00,04,00,60,00,
1815967,00E00020,true,Rx,1,8,33,C0,00,13,02,E4,00,00,
1816102,0280142A,true,Rx,0,8,80,50,00,20,07,00,00,00,
1818842,02A03028,true,Rx,0,8,00,9F,81,D1,1A,2B,00,00,
1820024,03200008,true,Rx,0,8,00,00,00,00,00,80,00,00,
1820430,00C24008,true,Rx,1,8,5D,00,A2,00,80,00,80,00,
1822749,0102C02C,true,Rx,1,8,0F,C1,9A,0E,C0,10,11,A1,
1823388,00613DF8,true,Rx,0,8,03,00,08,20,01,00,00,40,
1824531,01213FFC,true,Rx,0,8,8E,00,5D,80,F0,81,98,00,
1824905,0012C024,true,Rx,1,8,A4,A1,00,00,C1,FF,88,00,
1825495,00524000,true,Rx,1,8,40,00,00,00,40,00,40,00,
1826052,00D28026,true,Rx,1,8,8A,8F,64,00,40,00,00,00,
1826827,0022C01E,true,Rx,1,8,C4,0B,40,86,C4,00,A4,EC,
1827396,0032C01E,true,Rx,1,8,C0,00,14,00,04,00,60,00,
1830421,00C24008,true,Rx,1,8,4D,00,B2,00,80,00,80,00,
1830985,00B00002,true,Rx,1,8,00,00,A7,6B,B6,3B,C3,F3,
1831563,00E00020,true,Rx,1,8,03,C0,00,13,03,D8,00,00,
1832142,00F2C006,true,Rx,1,8,88,00,00,00,90,18,00,00,
1832586,0261300A,true,Rx,0,8,00,00,00,27,80,00,00,C0,
1832723,01100014,true,Rx,1,8,00,00,00,04,00,11,20,00,
1833302,01200028,true,Rx,1,8,88,08,00,41,F0,00,30,2E,
1833754,0140044A,true,Rx,0,8,40,00,00,18,00,00,00,00,
1834913,0240102A,true,Rx,0,8,83,00,00,00,00,00,00,00,
1838809,0022C01E,true,Rx,1,8,04,0B,40,86,C4,00,A4,EC,
1839374,0012C024,true,Rx,1,8,AC,A1,00,00,C5,FF,88,00,
1839961,0032C01E,true,Rx,1,8,00,00,14,00,04,00,60,00,
1840170,01C030A2,true,Rx,0,8,C0,5B,40,01,89,01,14,00,
1840553,00524000,true,Rx,1,8,40,00,00,00,40,00,40,00,
1841135,00C24008,true,Rx,1,8,3D,00,C2,00,80,00,80,00,
1841692,00D28026,true,Rx,1,8,CA,8F,64,00,40,00,00,00,
1843576,00613DF8,true,Rx,0,8,41,00,08,20,00,00,00,40,
1844753,01800028,true,Rx,0,8,C0,00,2A,00,00,00,00,00,
1846103,0280142A,true,Rx,0,8,C0,50,00,28,07,00,00,00,
1847319,00E00020,true,Rx,1,8,03,C0,00,13,06,2F,00,00,
1847928,0102C02C,true,Rx,1,8,4F,C1,9A,0E,C0,10,11,A1,
1848558,01213FFC,true,Rx,0,8,CE,00,5D,80,E0,C1,98,00,
1849641,02C13428,true,Rx,0,8,49,02,78,8A,3C,CF,20,00,
1850428,00C24008,true,Rx,1,8,2D,00,D2,00,80,00,80,00,
1850746,02E10DF4,true,Rx,0,8,4F,A9,2F,AC,99,3A,F8,18,
1850987,0022C01E,true,Rx,1,8,40,0B,40,86,44,00,24,EC,
1851555,0032C01E,true,Rx,1,8,42,00,84,00,04,00,60,00,
1852114,00B00002,true,Rx,1,8,40,00,A7,6B,B6,3B,C3,F3,
1852693,01100014,true,Rx,1,8,40,00,00,00,00,11,20,00,
1853254,0012C024,true,Rx,1,8,A4,A1,00,00,C5,FF,88,00,
1853419,02A03028,true,Rx,0,8,00,9F,41,19,1A,2B,00,00,
1853843,00524000,true,Rx,1,8,40,00,00,00,40,00,40,00,
1854422,00D28026,true,Rx,1,8,0A,8F,64,00,40,00,00,00,
1854556,02001022,true,Rx,0,8,40,00,00,01,35,90,10,43,
1854997,00F2C006,true,Rx,1,8,CC,00,00,00,90,09,00,00,
1855556,01500006,true,Rx,1,8,45,0F,08,05,2B,3C,00,00,
1856124,01700012,true,Rx,1,8,4B,C0,80,00,AA,AA,00,00,
1856413,01E01266,true,Rx,0,8,C0,00,06,00,00,00,40,00,
1859275,01600022,true,Rx,1,8,80,00,AA,AA,00,00,00,00,
1860436,00C24008,true,Rx,1,8,1D,00,E2,00,80,00,80,00,
1862720,01200028,true,Rx,1,8,C8,08,00,41,F0,00,30,2E,
1862782,0261300A,true,Rx,0,8,40,00,00,27,80,00,00,C0,
1863271,0022C01E,true,Rx,1,8,84,0B,40,86,C4,00,A4,EC,
1863849,0032C01E,true,Rx,1,8,80,00,14,00,04,00,60,00,
1863942,00613DF8,true,Rx,0,8,83,00,08,00,00,00,00,40,
1864419,00E00020,true,Rx,1,8,03,C0,00,13,05,21,00,00,
1866966,0012C024,true,Rx,1,8,AC,A1,00,00,C1,FF,88,00,
1867551,00524000,true,Rx,1,8,40,00,00,00,C0,00,C0,00,
1867633,0240102A,true,Rx,0,8,C0,00,00,00,00,00,00,00,
1868122,00D28026,true,Rx,1,8,4E,8F,64,00,40,00,00,00,
1870441,00C24008,true,Rx,1,8,0D,00,F2,00,80,00,80,00,
1870999,00B00002,true,Rx,1,8,80,00,A7,6B,B6,3B,C3,F3,
1871587,01100014,true,Rx,1,8,80,00,00,00,00,11,20,00,
1872699,0140044A,true,Rx,0,8,80,00,00,08,10,00,00,00,
1873105,0102C02C,true,Rx,1,8,8F,C1,9A,0E,C0,10,11,A1,
1873837,01213FFC,true,Rx,0,8,0E,00,5D,C0,F0,81,98,00,
1873943,00F2C006,true,Rx,1,8,0C,00,00,00,9F,F7,00,00,
1874532,01828002,true,Rx,1,8,00,80,00,59,00,00,00,00,
1875079,0022C01E,true,Rx,1,8,C4,0B,40,86,C4,00,A4,EC,
1875661,0032C01E,true,Rx,1,8,C0,00,14,00,04,00,60,00,
1876093,0280142A,true,Rx,0,8,00,10,00,20,07,00,00,00,
1879260,00E00020,true,Rx,1,8,03,C0,00,13,05,33,00,00,
1880441,00C24008,true,Rx,1,8,FD,00,02,00,80,00,80,00,
1881009,0012C024,true,Rx,1,8,A4,A1,00,00,C1,FF,88,00,
1881598,00524000,true,Rx,1,8,40,00,00,00,C0,00,C0,00,
1882166,00D28026,true,Rx,1,8,8A,8F,64,00,C0,00,00,00,
1883362,00613DF8,true,Rx,0,8,C1,00,08,20,01,00,00,40,
1884548,01800028,true,Rx,0,8,00,00,2A,00,00,00,00,00,
1885670,01C030A2,true,Rx,0,8,00,5B,40,01,89,01,14,00,
1886836,0022C01E,true,Rx,1,8,04,0B,40,86,C4,00,A4,EC,
1887405,0032C01E,true,Rx,1,8,02,00,94,00,04,00,60,00,
1888499,02A03028,true,Rx,0,8,00,1F,81,51,1A,2B,00,00,
1890445,00C24008,true,Rx,1,8,ED,00,12,00,80,00,80,00,
1890993,00B00002,true,Rx,1,8,C0,00,A7,6B,B6,3B,C3,F3,
1891571,01100014,true,Rx,1,8,C0,00,00,00,00,11,20,00,
1892735,0261300A,true,Rx,0,8,80,00,00,27,80,00,00,C0,
1892923,01200028,true,Rx,1,8,08,08,00,41,F0,00,30,2E,
1894955,0012C024,true,Rx,1,8,AC,A1,00,00,C1,FF,88,00,
1895541,00524000,true,Rx,1,8,40,00,00,00,C0,00,C0,00,
1896110,00D28026,true,Rx,1,8,CA,8F,64,00,C0,00,00,00,
1896697,00E00020,true,Rx,1,8,03,C0,00,13,05,30,00,00,
1897277,00F2C006,true,Rx,1,8,4C,00,00,00,9F,FE,00,00,
1897929,0102C02C,true,Rx,1,8,CF,C1,9A,0E,C0,10,11,A1,
1898579,01213FFC,true,Rx,0,8,4E,00,5D,80,F0,81,98,00,
1898860,0022C01E,true,Rx,1,8,40,0B,40,86,44,00,24,EC,
1899429,0032C01E,true,Rx,1,8,40,00,04,00,04,00,60,00,
1899729,02001022,true,Rx,0,8,80,00,00,01,35,90,10,43,
1900434,00C24008,true,Rx,1,8,DD,00,22,00,80,00,80,00,
1901444,01E01266,true,Rx,0,8,00,00,02,00,00,00,40,00,
1902683,0240102A,true,Rx,0,8,01,00,00,00,00,00,00,00,
1903846,00613DF8,true,Rx,0,8,03,00,08,20,00,00,00,40,
1904939,02C13428,true,Rx,0,8,81,02,78,8A,3C,CF,20,00,
1906031,02E10DF4,true,Rx,0,8,8F,A9,0F,2C,99,3A,F8,18,
1907178,0280142A,true,Rx,0,8,40,50,00,20,07,00,00,00,
1908920,0012C024,true,Rx,1,8,A4,A1,00,00,C1,FF,88,00,
1909509,00524000,true,Rx,1,8,40,00,00,00,C0,00,C0,00,
1910075,00D28026,true,Rx,1,8,0A,8F,64,00,C0,00,00,00,
1910653,00C24008,true,Rx,1,8,CD,00,32,00,80,00,80,00,
1911066,0360000A,true,Rx,0,8,C0,00,00,00,00,14,00,80,
1911204,0022C01E,true,Rx,1,8,84,0B,40,86,C4,00,A4,EC,
1911785,0032C01E,true,Rx,1,8,82,00,94,00,04,00,60,00,
1912344,00B00002,true,Rx,1,8,00,00,A7,6B,B6,3B,C3,F3,
1912703,0140044A,true,Rx,0,8,C0,00,00,08,00,00,00,00,
1912912,00E00020,true,Rx,1,8,7B,C0,00,13,05,1E,00,00,
1913502,01100014,true,Rx,1,8,00,00,00,04,00,11,20,00,
1914054,01500006,true,Rx,1,8,85,0F,0A,45,2B,3C,00,00,
1914613,01700012,true,Rx,1,8,8B,C0,80,00,AA,AA,00,00,
1916002,00F2C006,true,Rx,1,8,88,00,00,00,90,09,00,00,
1919268,01600022,true,Rx,1,8,C1,00,AA,AA,00,00,00,00,
1920439,00C24008,true,Rx,1,8,BD,00,42,00,80,00,80,00,
1922744,0102C02C,true,Rx,1,8,0F,C1,9A,0E,C0,10,11,A1,
1922878,0261300A,true,Rx,0,8,C0,00,00,27,80,00,00,C0,
1923316,0012C024,true,Rx,1,8,AC,A1,00,00,C1,FF,88,00,
1923874,0022C01E,true,Rx,1,8,C4,0B,40,86,C4,00,A4,EC,
1924049,00613DF8,true,Rx,0,8,41,00,08,20,00,00,00,40,
1924443,0032C01E,true,Rx,1,8,C0,00,14,00,04,00,60,00,
1925032,00524000,true,Rx,1,8,40,00,00,00,C0,00,C0,00,
1925177,01213FFC,true,Rx,0,8,8E,00,5D,80,E0,81,98,00,
1925593,00D28026,true,Rx,1,8,4E,8F,64,00,C0,00,00,00,
1926169,01200028,true,Rx,1,8,48,00,00,41,F0,00,30,2E,
1926354,01800028,true,Rx,0,8,40,00,2A,00,00,00,00,00,
1927295,00E00020,true,Rx,1,8,03,C0,00,13,05,0D,00,00,
1927480,02A03028,true,Rx,0,8,00,9F,81,51,1A,2B,00,00,
1928619,00400066,true,Rx,0,8,C0,00,00,02,01,5E,40,7F,
1929811,03200008,true,Rx,0,8,00,00,00,00,00,80,00,00,
1930435,00C24008,true,Rx,1,8,AD,00,52,00,80,00,80,00,
1930909,01C030A2,true,Rx,0,8,40,5B,40,01,89,01,14,00,
1930994,00B00002,true,Rx,1,8,40,00,A7,6B,B6,3B,C3,F3,
1931574,01100014,true,Rx,1,8,40,00,00,00,00,11,20,00,
1932020,0340024C,true,Rx,0,8,41,00,80,01,0C,9B,08,00,
1932899,00608024,true,Rx,1,8,00,00,00,00,00,01,02,3E,
1933179,04000002,true,Rx,0,8,00,00,01,00,F4,00,00,4E,
1934862,0022C01E,true,Rx,1,8,04,0B,40,86,C4,00,A4,EC,
1935441,0032C01E,true,Rx,1,8,00,00,14,00,04,00,60,00,
1936088,0280142A,true,Rx,0,8,80,50,00,20,07,00,00,00,
1936988,0012C024,true,Rx,1,8,A4,A1,00,00,C5,FF,88,00,
1937577,00524000,true,Rx,1,8,40,00,00,00,C0,00,C0,00,
1937649,0240102A,true,Rx,0,8,41,00,00,00,00,00,00,00,
1938139,00D28026,true,Rx,1,8,8A,8F,64,00,C0,00,00,00,
1938727,00F2C006,true,Rx,1,8,CC,00,00,00,90,10,00,00,
1940448,00C24008,true,Rx,1,8,9D,00,62,00,80,00,80,00,
1943270,00E00020,true,Rx,1,8,03,C0,00,13,05,07,00,00,
1943724,00613DF8,true,Rx,0,8,83,00,08,20,01,00,00,40,
1944857,02001022,true,Rx,0,8,C0,00,00,01,35,90,10,43,
1946462,01E01266,true,Rx,0,8,40,00,02,00,00,00,40,00,
1946857,0022C01E,true,Rx,1,8,40,0B,40,86,44,00,24,EC,
1947425,0032C01E,true,Rx,1,8,42,00,84,00,04,00,60,00,
1947983,0102C02C,true,Rx,1,8,4F,C1,9A,0E,C0,31,11,A1,
1948335,01213FFC,true,Rx,0,8,CE,00,5D,C0,F0,C1,98,00,
1950437,00C24008,true,Rx,1,8,8D,00,72,00,80,00,80,00,
1951005,0012C024,true,Rx,1,8,AC,A1,00,00,C5,FF,88,00,
1951595,00524000,true,Rx,1,8,40,00,00,00,C0,00,C0,00,
1952153,00B00002,true,Rx,1,8,80,00,A7,6B,B6,3B,C3,F3,
1952658,0140044A,true,Rx,0,8,00,00,00,18,10,00,00,00,
1952723,00D28026,true,Rx,1,8,CA,8F,64,00,C0,00,00,00,
1953302,01100014,true,Rx,1,8,80,00,00,00,00,11,20,00,
1953786,0261300A,true,Rx,0,8,00,00,00,27,80,00,00,C0,
1953872,01200028,true,Rx,1,8,88,08,00,41,F0,00,30,2E,
1954467,01828002,true,Rx,1,8,00,80,00,7F,00,00,00,00,
1957978,00F2C006,true,Rx,1,8,0C,00,00,00,90,16,00,00,
1958859,02A03028,true,Rx,0,8,00,9F,C1,19,1A,2B,00,00,
1958873,0022C01E,true,Rx,1,8,84,0B,40,86,C4,00,A4,EC,
1959432,0032C01E,true,Rx,1,8,80,00,14,00,04,00,60,00,
1959937,02C13428,true,Rx,0,8,C1,02,78,8A,3C,CF,20,00,
1960012,00E00020,true,Rx,1,8,03,C0,00,13,04,FB,00,00,
1960595,00C24008,true,Rx,1,8,7D,00,82,00,80,00,80,00,
1961028,02E10DF4,true,Rx,0,8,CF,A9,2F,AC,99,3A,F8,18,
1962708,03C0002A,true,Rx,0,8,00,00,30,C0,30,00,1F,00,
1963864,00613DF8,true,Rx,0,8,C1,00,08,20,00,00,00,40,
1964988,0012C024,true,Rx,1,8,A4,A1,00,00,C5,FF,88,00,
1965050,01800028,true,Rx,0,8,80,00,7E,00,00,00,00,00,
1965580,00524000,true,Rx,1,8,40,00,00,00,C0,00,C0,00,
1966138,00D28026,true,Rx,1,8,0A,8F,64,00,C0,00,00,00,
1966200,0280142A,true,Rx,0,8,C0,10,00,20,07,00,00,00,
1970437,00C24008,true,Rx,1,8,6D,00,92,00,80,00,80,00,
1970991,0022C01E,true,Rx,1,8,C4,0B,40,86,C4,00,A4,EC,
1971560,0032C01E,true,Rx,1,8,C0,00,14,00,04,00,60,00,
1972118,00B00002,true,Rx,1,8,C0,00,A7,6B,B6,3B,C3,F3,
1972633,0240102A,true,Rx,0,8,81,00,00,00,00,00,00,00,
1972688,01100014,true,Rx,1,8,C0,00,00,04,00,11,20,00,
1973247,0102C02C,true,Rx,1,8,8F,C1,9A,0E,C0,10,11,A1,
1973762,01213FFC,true,Rx,0,8,0E,00,5D,80,F0,81,98,00,
1973806,01500006,true,Rx,1,8,C5,0F,08,05,2B,3C,00,00,
1974374,01700012,true,Rx,1,8,CB,C0,80,00,AA,AA,00,00,
1974947,01C030A2,true,Rx,0,8,80,5B,40,01,89,01,14,00,
1975333,00E00020,true,Rx,1,8,03,C0,00,13,04,FA,00,00,
1978983,0012C024,true,Rx,1,8,AC,A1,00,00,C5,FF,88,00,
1979569,00524000,true,Rx,1,8,40,00,00,00,C0,00,C0,00,
1980127,00D28026,true,Rx,1,8,4E,8F,64,00,C0,00,00,00,
1980706,00C24008,true,Rx,1,8,5D,00,A2,00,80,00,80,00,
1981285,00F2C006,true,Rx,1,8,4C,00,00,00,90,1C,00,00,
1981853,01600022,true,Rx,1,8,00,00,AA,AA,00,00,00,00,
1982874,0022C01E,true,Rx,1,8,04,0B,40,86,C4,00,A4,EC,
1983290,0261300A,true,Rx,0,8,40,00,00,27,80,00,00,C0,
1983447,0032C01E,true,Rx,1,8,02,00,94,00,04,00,60,00,
1984025,01200028,true,Rx,1,8,C8,08,00,C5,F0,00,30,30,
1984439,00613DF8,true,Rx,0,8,03,00,08,20,01,00,00,40,
1989546,02001022,true,Rx,0,8,00,00,00,01,35,90,10,43,
1990432,00C24008,true,Rx,1,8,4D,00,B2,00,80,00,80,00,
1990989,00B00002,true,Rx,1,8,00,00,A7,6B,B6,3B,C3,F3,
1991559,00E00020,true,Rx,1,8,03,C0,00,13,04,EE,00,00,
1991611,01E01266,true,Rx,0,8,80,00,02,00,00,00,40,00,
1992151,01100014,true,Rx,1,8,00,00,00,00,00,11,20,00,
1992778,0140044A,true,Rx,0,8,40,00,00,08,00,00,00,00,
1993018,0012C024,true,Rx,1,8,A4,A1,00,00,C5,FF,88,00,
1993619,00524000,true,Rx,1,8,40,00,00,00,C0,00,C0,00,
1993898,02A03028,true,Rx,0,8,00,9F,81,51,1A,2B,00,00,
1994170,00D28026,true,Rx,1,8,8A,8F,64,00,C0,00,00,00,
1994892,0022C01E,true,Rx,1,8,40,0B,40,86,44,00,24,EC,
1995461,0032C01E,true,Rx,1,8,40,00,04,00,04,00,60,00,
1996073,0280142A,true,Rx,0,8,00,50,00,20,07,00,00,00,
1998060,0102C02C,true,Rx,1,8,CF,C1,9A,0E,C0,10,11,A1,
1998690,01213FFC,true,Rx,0,8,4E,00,5D,80,E0,81,B8,00,
2000030,00F2C006,true,Rx,1,8,88,00,00,00,90,1E,00,00,
2000610,00C24008,true,Rx,1,8,3D,00,C2,00,80,00,80,00,
2003421,00613DF8,true,Rx,0,8,41,00,08,20,00,00,00,40,
2004563,00400066,true,Rx,0,8,00,00,00,03,01,5E,40,7F,
2005755,01800028,true,Rx,0,8,C0,00,7A,00,00,00,00,00,
2006862,0022C01E,true,Rx,1,8,84,0B,40,86,C4,00,A4,EC,
2007430,0012C024,true,Rx,1,8,AC,A1,00,00,C5,FF,88,00,
2007626,0240102A,true,Rx,0,8,C0,00,00,00,00,00,00,00,
2008002,0032C01E,true,Rx,1,8,82,00,94,00,04,00,60,00,
2008592,00524000,true,Rx,1,8,40,00,00,00,C0,00,C0,00,
2009172,00608024,true,Rx,1,8,40,00,00,00,00,01,03,3E,
2009739,00D28026,true,Rx,1,8,CA,8F,64,00,C0,00,00,00,
2010319,00E00020,true,Rx,1,8,4B,C0,00,13,04,E1,00,00,
2010897,00C24008,true,Rx,1,8,2D,00,D2,00,80,00,80,00,
2011446,00B00002,true,Rx,1,8,40,00,A7,6B,B6,3B,C3,F3,
2012025,01100014,true,Rx,1,8,40,00,00,00,00,11,20,00,
2013111,01200028,true,Rx,1,8,08,00,00,41,F0,00,30,30,
2013440,0261300A,true,Rx,0,8,80,00,00,27,80,00,00,C0,
2014545,02C13428,true,Rx,0,8,01,02,78,8A,3C,CF,20,00,
2015649,02E10DF4,true,Rx,0,8,0F,A9,0F,2C,99,3A,F8,18,
2018891,0022C01E,true,Rx,1,8,C4,0B,40,86,C4,00,A4,EC,
2019467,0032C01E,true,Rx,1,8,C0,00,14,00,04,00,60,00,
2020230,01C030A2,true,Rx,0,8,C0,5B,40,01,89,01,14,00,
2020439,00C24008,true,Rx,1,8,1D,00,E2,00,80,00,80,00,
2021007,0012C024,true,Rx,1,8,A4,A1,00,00,C5,FF,88,00,
2021597,00524000,true,Rx,1,8,40,00,00,00,C0,00,C0,00,
2022166,00D28026,true,Rx,1,8,0A,8F,64,00,C0,00,00,00,
2022743,00F2C006,true,Rx,1,8,CC,00,00,00,90,1F,00,00,
2023314,00E00020,true,Rx,1,8,33,C0,00,13,04,E1,00,00,
2023634,00613DF8,true,Rx,0,8,83,00,00,20,00,00,00,40,
2023884,0102C02C,true,Rx,1,8,0F,C1,9A,0E,C0,10,11,A1,
2024453,0132C07C,true,Rx,1,8,01,0F,B0,55,DD,26,FE,FA,
2024762,01213FFC,true,Rx,0,8,8E,00,5D,80,F0,81,B8,00,
2025902,01613FFC,true,Rx,0,8,01,0F,B0,55,DD,26,FF,F6,
2027054,0280142A,true,Rx,0,8,40,50,00,20,07,00,00,00,
2028066,01828002,true,Rx,1,8,00,80,00,7F,00,00,00,00,
2028542,02A03028,true,Rx,0,8,00,9F,81,11,1A,2B,00,00,
2029728,03200008,true,Rx,0,8,00,00,00,00,00,80,00,00,
2030432,00C24008,true,Rx,1,8,0D,00,F2,00,80,00,80,00,
2030990,0022C01E,true,Rx,1,8,04,0B,40,86,C4,00,A4,EC,
2031570,0032C01E,true,Rx,1,8,00,00,14,00,04,00,60,00,
2032128,00B00002,true,Rx,1,8,80,00,A7,6B,B6,3B,C3,F3,
2032684,0140044A,true,Rx,0,8,80,00,00,18,00,00,00,00,
2032718,01100014,true,Rx,1,8,80,00,00,04,00,11,20,00,
2033269,01500006,true,Rx,1,8,05,2F,08,85,2B,6A,00,00,
2033847,01700012,true,Rx,1,8,0B,C0,80,00,AA,AA,00,00,
2034435,02001022,true,Rx,0,8,40,00,00,01,35,90,10,43,
2035024,0012C024,true,Rx,1,8,AC,A1,00,00,C5,FF,88,00,
2035616,00524000,true,Rx,1,8,40,00,00,00,C0,00,C0,00,
2036175,00D28026,true,Rx,1,8,4E,8F,64,00,C0,00,00,00,
2036412,01E01266,true,Rx,0,8,C0,00,02,00,00,00,40,00,
2039323,00E00020,true,Rx,1,8,03,C0,00,13,04,E1,00,00,
2039887,01600022,true,Rx,1,8,41,00,AA,AA,00,00,00,00,
2040465,00C24008,true,Rx,1,8,FD,00,02,00,80,00,80,00,
2042020,00F2C006,true,Rx,1,8,0C,00,00,00,90,1E,00,00,
2042618,0240102A,true,Rx,0,8,01,00,00,00,00,00,00,00,
2042735,01200028,true,Rx,1,8,48,48,00,41,F0,00,30,30,
2043283,0022C01E,true,Rx,1,8,40,0B,40,86,44,00,24,EC,
2043770,00613DF8,true,Rx,0,8,C1,00,08,20,01,00,00,40,
2043856,0032C01E,true,Rx,1,8,42,00,84,00,04,00,60,00,
2044969,01800028,true,Rx,0,8,00,00,7E,00,00,00,00,00,
2046095,0261300A,true,Rx,0,8,C0,00,00,27,80,00,00,C0,
2047856,0102C02C,true,Rx,1,8,4F,C1,9A,0E,C0,10,11,A1,
2048496,01213FFC,true,Rx,0,8,CE,00,5D,C0,E0,C1,B8,00,
2049076,0012C024,true,Rx,1,8,A4,A1,00,00,C5,FF,88,00,
2049666,00524000,true,Rx,1,8,40,00,00,00,C0,00,C0,00,
2050235,00D28026,true,Rx,1,8,8A,8F,64,00,C0,00,00,00,
2050813,00C24008,true,Rx,1,8,ED,00,12,00,80,00,80,00,
2051361,00B00002,true,Rx,1,8,C0,00,A7,6B,B6,3B,C3,F3,
2051941,01100014,true,Rx,1,8,C0,00,00,00,00,11,20,00,
2054886,0022C01E,true,Rx,1,8,84,0B,40,86,C4,00,A4,EC,
2055465,0032C01E,true,Rx,1,8,80,00,14,00,04,00,60,00,
2056031,00E00020,true,Rx,1,8,03,C0,00,13,04,E1,00,00,
2056104,0280142A,true,Rx,0,8,80,10,00,28,07,00,00,00,
2060427,00C24008,true,Rx,1,8,DD,00,22,00,80,00,80,00,
2063035,0012C024,true,Rx,1,8,AC,A1,00,00,C5,FF,88,00,
2063331,00613DF8,true,Rx,0,8,03,00,08,20,00,00,00,40,
2063623,00524000,true,Rx,1,8,40,00,00,00,C0,00,C0,00,
2064191,00D28026,true,Rx,1,8,CA,8F,64,00,C0,00,00,00,
2064449,02A03028,true,Rx,0,8,00,9F,D1,59,1A,2B,80,00,
2064760,00F2C006,true,Rx,1,8,4C,00,00,00,90,1F,00,00,
2065561,01C030A2,true,Rx,0,8,00,5B,40,01,89,01,14,00,
2066904,0022C01E,true,Rx,1,8,C4,0B,40,86,C4,00,A4,EC,
2067481,0032C01E,true,Rx,1,8,C0,00,14,00,04,00,60,00,
2068512,02C13428,true,Rx,0,8,49,02,78,8A,6A,CF,20,00,
2069613,02E10DF4,true,Rx,0,8,4F,A9,2F,AC,99,3A,F8,18,
2070431,00C24008,true,Rx,1,8,CD,00,32,00,80,00,80,00,
2070988,00B00002,true,Rx,1,8,00,00,A7,6B,B6,3B,C3,F3,
2071558,00E00020,true,Rx,1,8,03,C0,00,13,04,E1,00,00,
2072147,01100014,true,Rx,1,8,00,00,00,00,00,11,20,00,
2072682,0140044A,true,Rx,0,8,C0,00,00,08,10,00,00,00,
2072892,0102C02C,true,Rx,1,8,8F,C1,9A,0E,C0,10,11,A1,
2073463,01200028,true,Rx,1,8,88,08,00,41,F0,00,30,30,
2073813,01213FFC,true,Rx,0,8,0E,00,5D,80,F0,81,B8,00,
2074948,0261300A,true,Rx,0,8,00,00,00,27,80,00,00,C0,
2077033,0012C024,true,Rx,1,8,A4,A1,00,00,C5,FF,88,00,
2077618,00524000,true,Rx,1,8,40,00,00,00,C0,00,C0,00,
2077660,0240102A,true,Rx,0,8,41,00,00,00,00,00,00,00,
2078190,00D28026,true,Rx,1,8,0A,8F,64,00,C0,00,00,00,
2078796,00400066,true,Rx,0,8,40,00,00,04,01,5E,40,7F,
2078893,0022C01E,true,Rx,1,8,04,0B,40,86,C4,00,A4,EC,
2079465,0032C01E,true,Rx,1,8,02,00,94,00,04,00,60,00,
2079939,02001022,true,Rx,0,8,80,00,00,01,35,90,10,43,
2080428,00C24008,true,Rx,1,8,BD,00,42,00,80,00,80,00,
2081479,01E01266,true,Rx,0,8,00,00,02,00,00,00,40,00,
2083332,00608024,true,Rx,1,8,80,00,00,00,00,01,04,3E,
2083981,00613DF8,true,Rx,0,8,41,00,08,20,00,00,00,40,
2084097,00F2C006,true,Rx,1,8,88,00,00,00,90,21,00,00,
2085171,01800028,true,Rx,0,8,40,00,7A,00,00,00,00,00,
2086308,0280142A,true,Rx,0,8,C0,50,00,20,07,00,00,00,
2087275,00E00020,true,Rx,1,8,03,C0,00,13,04,E1,00,00,
2087441,03801028,true,Rx,0,8,C6,00,20,89,9C,43,00,00,
2090420,00C24008,true,Rx,1,8,AD,00,52,00,80,00,80,00,
2090977,0022C01E,true,Rx,1,8,40,0B,40,86,44,00,24,EC,
2091544,0012C024,true,Rx,1,8,AC,A1,00,00,C5,FF,88,00,
2092113,0032C01E,true,Rx,1,8,40,00,04,00,04,00,60,00,
2092700,00524000,true,Rx,1,8,40,00,00,00,C0,00,C0,00,
2093260,00B00002,true,Rx,1,8,40,00,A7,6B,B6,3B,C3,F3,
2093820,00D28026,true,Rx,1,8,4E,8F,64,00,C0,00,00,00,
2094399,01100014,true,Rx,1,8,40,00,00,04,00,11,20,00,
2094956,01500006,true,Rx,1,8,45,0F,08,05,2B,6A,00,00,
2095525,01700012,true,Rx,1,8,4B,C0,80,00,AA,AA,00,00,
2098213,0102C02C,true,Rx,1,8,CF,C1,9A,0E,C0,10,11,A1,
2098850,01213FFC,true,Rx,0,8,4E,00,5D,80,F0,81,B8,00,
2099318,01600022,true,Rx,1,8,81,00,AA,AA,00,00,00,00,
2099967,02A03028,true,Rx,0,8,00,9F,81,51,1A,2B,00,00,
2100425,00C24008,true,Rx,1,8,9D,00,62,00,80,00,80,00,
2102713,01200028,true,Rx,1,8,C8,08,00,41,F0,00,30,30,
2103261,0022C01E,true,Rx,1,8,84,0B,40,86,C4,00,A4,EC,
2103323,00613DF8,true,Rx,0,8,83,00,08,00,01,00,00,40,
2103841,0032C01E,true,Rx,1,8,82,00,94,00,04,00,60,00,
2104410,00E00020,true,Rx,1,8,4B,C0,00,13,04,E1,00,00,
2104462,0261300A,true,Rx,0,8,40,00,00,27,80,00,00,C0,
2105114,0012C024,true,Rx,1,8,A4,A1,00,00,C5,FF,88,00,
2105600,0340024C,true,Rx,0,8,80,00,90,00,0C,9B,08,00,
2105696,00524000,true,Rx,1,8,40,00,00,00,C0,00,C0,00,
2106265,00D28026,true,Rx,1,8,8A,8F,64,00,C0,00,00,00,
2106843,00F2C006,true,Rx,1,8,CC,00,00,00,90,20,00,00,
2107435,01828002,true,Rx,1,8,00,80,00,7F,00,00,00,00,
2110213,01C030A2,true,Rx,0,8,40,5B,40,01,89,01,14,00,
2110423,00C24008,true,Rx,1,8,8D,00,72,00,80,00,80,00,
2110980,00B00002,true,Rx,1,8,80,00,A7,6B,B6,3B,C3,F3,
2111559,01100014,true,Rx,1,8,80,00,00,00,00,11,20,00,
2112590,0240102A,true,Rx,0,8,80,00,00,00,00,00,00,00,
2113765,0140044A,true,Rx,0,8,00,00,00,08,00,00,00,00,
2114911,0022C01E,true,Rx,1,8,C4,0B,40,86,C4,00,A4,EC,
2115488,0032C01E,true,Rx,1,8,C0,00,14,00,04,00,60,00,
2116065,0280142A,true,Rx,0,8,00,50,00,20,07,00,00,00,
2119045,0012C024,true,Rx,1,8,AC,A1,00,00,C5,FF,88,00,
2119631,00524000,true,Rx,1,8,40,00,00,00,C0,00,C0,00,
2120199,00D28026,true,Rx,1,8,CA,8F,64,00,C0,00,00,00,
2120787,00C24008,true,Rx,1,8,7D,00,82,00,80,00,80,00,
2121356,00E00020,true,Rx,1,8,33,C0,00,13,04,E1,00,00,
2122987,0102C02C,true,Rx,1,8,0F,C1,9A,0E,C0,10,11,A1,
2123633,00613DF8,true,Rx,0,8,C1,00,08,20,00,00,00,40,
2124768,01213FFC,true,Rx,0,8,8E,00,5D,C0,E0,81,B8,00,
2125953,01800028,true,Rx,0,8,80,00,7E,00,00,00,00,00,
2126080,00F2C006,true,Rx,1,8,0C,00,00,00,90,1F,00,00,
2126926,0022C01E,true,Rx,1,8,04,0B,40,86,C4,00,A4,EC,
2127123,01E01266,true,Rx,0,8,40,00,02,00,00,00,40,00,
2127507,0032C01E,true,Rx,1,8,00,00,14,00,04,00,60,00,
2128244,02001022,true,Rx,0,8,C0,00,00,01,35,90,10,43,
2129348,02C13428,true,Rx,0,8,81,02,78,8A,6A,CF,20,00,
2130421,00C24008,true,Rx,1,8,6D,00,92,00,80,00,80,00,
2130453,02E10DF4,true,Rx,0,8,8F,A9,0F,2C,99,3A,F8,18,
2130969,00B00002,true,Rx,1,8,C0,00,A7,6B,B6,3B,C3,F3,
2131549,01100014,true,Rx,1,8,C0,00,00,00,00,11,20,00,
2132974,01200028,true,Rx,1,8,08,08,00,43,F0,00,30,30,
2133544,0012C024,true,Rx,1,8,A4,A1,00,00,C5,FF,88,00,
2133595,02A03028,true,Rx,0,8,00,9F,01,11,1A,2B,00,00,
2134124,00524000,true,Rx,1,8,40,00,00,00,C0,00,C0,00,
2134692,00D28026,true,Rx,1,8,0A,8F,64,00,C0,00,00,00,
2134733,0261300A,true,Rx,0,8,80,00,00,27,80,00,00,C0,
2135273,00E00020,true,Rx,1,8,03,C0,00,13,04,E1,00,00,
2135914,03200008,true,Rx,0,8,00,00,00,00,00,80,00,00,
2138945,0022C01E,true,Rx,1,8,40,0B,40,86,44,00,24,EC,
2139501,0032C01E,true,Rx,1,8,42,00,84,00,04,00,60,00,
2140419,00C24008,true,Rx,1,8,5D,00,A2,00,80,00,80,00,
2143434,00613DF8,true,Rx,0,8,03,00,08,20,00,00,00,40,
2146060,0280142A,true,Rx,0,8,40,10,00,20,07,00,00,00,
2147069,0012C024,true,Rx,1,8,AC,A1,00,00,C5,FF,88,00,
2147656,0240102A,true,Rx,0,8,C1,00,00,00,00,00,00,00,
2147670,00524000,true,Rx,1,8,40,00,00,00,C0,00,C0,00,
2148219,00D28026,true,Rx,1,8,4E,8F,64,00,C0,00,00,00,
2148785,01213FFC,true,Rx,0,8,CE,00,5D,80,F0,C1,B8,00,
2148799,00F2C006,true,Rx,1,8,4C,00,00,00,90,21,00,00,
2149347,0102C02C,true,Rx,1,8,4F,C1,9A,0E,C0,11,11,A1,
2150413,00C24008,true,Rx,1,8,4D,00,B2,00,80,00,80,00,
2150969,0022C01E,true,Rx,1,8,84,0B,40,86,C4,00,A4,EC,
2151549,0032C01E,true,Rx,1,8,80,00,14,00,04,00,60,00,
2152107,00B00002,true,Rx,1,8,00,00,A7,6B,B6,3B,C3,F3,
2152645,0140044A,true,Rx,0,8,40,00,00,18,10,00,00,00,
2152680,00E00020,true,Rx,1,8,03,C0,00,13,04,E1,00,00,
2153268,01100014,true,Rx,1,8,00,00,00,04,00,11,20,00,
2153826,01500006,true,Rx,1,8,85,0F,08,05,2B,6A,00,00,
2154387,01700012,true,Rx,1,8,8B,C0,80,00,AA,AA,00,00,
2154665,00400066,true,Rx,0,8,80,00,00,05,01,5E,40,7F,
2155770,01C030A2,true,Rx,0,8,80,5B,40,01,89,01,14,00,
2158154,00608024,true,Rx,1,8,C0,00,00,00,00,01,05,3E,
2159316,01600022,true,Rx,1,8,C0,00,AA,AA,00,00,00,00,
2160427,00C24008,true,Rx,1,8,3D,00,C2,00,80,00,80,00,
2161055,0012C024,true,Rx,1,8,A4,A1,00,00,C5,FF,88,00,
2161645,00524000,true,Rx,1,8,40,00,00,00,C0,00,C0,00,
2162204,00D28026,true,Rx,1,8,8A,8F,64,00,C0,00,00,00,
2162785,01200028,true,Rx,1,8,48,00,00,41,F0,00,30,30,
2163352,0022C01E,true,Rx,1,8,C4,0B,40,86,C4,00,A4,EC,
2163375,00613DF8,true,Rx,0,8,41,00,08,20,01,00,00,40,
2163922,0032C01E,true,Rx,1,8,C0,00,14,00,04,00,60,00,
2164554,01800028,true,Rx,0,8,C0,00,7A,00,00,00,00,00,
2165680,0261300A,true,Rx,0,8,C0,00,00,27,80,00,00,C0,
2167309,00E00020,true,Rx,1,8,03,C0,00,13,04,E1,00,00,
2168125,00F2C006,true,Rx,1,8,88,00,00,00,90,21,00,00,
2168678,02A03028,true,Rx,0,8,00,1F,C1,59,1A,2B,00,00,
2169814,02001022,true,Rx,0,8,00,00,00,01,35,90,10,43,
2170414,00C24008,true,Rx,1,8,2D,00,D2,00,80,00,80,00,
2170970,00B00002,true,Rx,1,8,40,00,A7,6B,B6,3B,C3,F3,
2171550,01100014,true,Rx,1,8,40,00,00,00,00,11,20,00,
2171714,01E01266,true,Rx,0,8,80,00,02,00,00,00,40,00,
2172833,0102C02C,true,Rx,1,8,8F,C1,9A,0E,C0,10,11,A1,
2173473,01213FFC,true,Rx,0,8,0E,00,5D,80,F0,81,B8,00,
2174937,0022C01E,true,Rx,1,8,04,0B,40,86,C4,00,A4,EC,
2175495,0012C024,true,Rx,1,8,AC,A1,00,00,C5,FF,88,00,
2176061,0280142A,true,Rx,0,8,80,50,00,20,07,00,00,00,
2176075,0032C01E,true,Rx,1,8,02,00,94,00,04,00,60,00,
2176657,00524000,true,Rx,1,8,40,00,00,00,C0,00,C0,00,
2177226,00D28026,true,Rx,1,8,CA,8F,64,00,C0,00,00,00,
2178450,02C13428,true,Rx,0,8,C1,02,78,8A,6A,CF,20,00,
2179555,02E10DF4,true,Rx,0,8,CF,A9,2F,AC,99,3A,F8,18,
2180422,00C24008,true,Rx,1,8,1D,00,E2,00,80,00,80,00,
2182144,01828002,true,Rx,1,8,00,80,00,7B,00,00,00,00,
2182657,0240102A,true,Rx,0,8,03,00,00,00,00,00,00,00,
2183309,00E00020,true,Rx,1,8,03,C0,00,13,04,E1,00,00,
2183824,00613DF8,true,Rx,0,8,83,00,08,20,00,00,00,40,
2186942,0022C01E,true,Rx,1,8,40,0B,40,86,44,00,24,EC,
2187518,0032C01E,true,Rx,1,8,40,00,04,00,04,00,60,00,
2189091,0012C024,true,Rx,1,8,A4,A1,00,00,C5,FF,88,00,
2189681,00524000,true,Rx,1,8,40,00,00,00,C0,00,C0,00,
2190251,00D28026,true,Rx,1,8,0A,8F,64,00,C0,00,00,00,
2190828,00C24008,true,Rx,1,8,0D,00,F2,00,80,00,80,00,
2191398,00B00002,true,Rx,1,8,80,00,A7,6B,B6,3B,C3,F3,
2191420,03A00002,true,Rx,0,8,00,00,00,04,07,04,98,5E,
2191969,00F2C006,true,Rx,1,8,CC,00,00,00,90,20,00,00,
2192547,01100014,true,Rx,1,8,80,00,00,00,00,11,20,00,
2192641,0140044A,true,Rx,0,8,80,00,00,08,00,00,00,00,
2193123,01200028,true,Rx,1,8,88,08,00,41,F0,00,30,30,
2195035,0261300A,true,Rx,0,8,00,00,00,27,80,00,00,C0,
2197826,0102C02C,true,Rx,1,8,CF,C1,9A,0E,C0,10,11,A1,
2198476,01213FFC,true,Rx,0,8,4E,00,5D,C0,E0,81,B8,00,
2198943,0022C01E,true,Rx,1,8,84,0B,40,86,C4,00,A4,EC,
2199522,0032C01E,true,Rx,1,8,82,00,94,00,04,00,60,00,
2200089,00E00020,true,Rx,1,8,4B,C0,00,13,04,E1,00,00,
2200246,01C030A2,true,Rx,0,8,C0,5B,40,01,89,01,14,00,
2200671,00C24008,true,Rx,1,8,FD,00,02,00,80,00,80,00,
2203148,0012C024,true,Rx,1,8,AC,A1,00,00,C5,FF,88,00,
2203557,00613DF8,true,Rx,0,8,C1,00,08,20,00,00,00,40,
2203734,00524000,true,Rx,1,8,40,00,00,00,C0,00,C0,00,
2204293,00D28026,true,Rx,1,8,4E,8F,64,00,C0,00,00,00,
2204756,01800028,true,Rx,0,8,00,00,7A,00,00,00,00,00,
2205884,02A03028,true,Rx,0,8,00,9F,81,11,1A,2B,00,00,
2207028,0280142A,true,Rx,0,8,C0,50,00,20,07,00,00,00,
2210096,00F2C006,true,Rx,1,8,0C,00,00,00,90,20,00,00,
2210671,00C24008,true,Rx,1,8,ED,00,12,00,80,00,80,00,
2211230,0022C01E,true,Rx,1,8,C4,0B,40,86,C4,00,A4,EC,
2211798,0032C01E,true,Rx,1,8,C0,00,14,00,04,00,60,00,
2212356,00B00002,true,Rx,1,8,C0,00,A7,6B,B6,3B,C3,F3,
2212935,01100014,true,Rx,1,8,C0,00,00,00,00,11,20,00,
2213493,01500006,true,Rx,1,8,C5,0F,08,05,2B,6A,00,00,
2214061,01700012,true,Rx,1,8,C3,00,00,00,AA,AA,00,00,
2214435,02001022,true,Rx,0,8,40,00,00,01,35,90,10,43,
2215273,00E00020,true,Rx,1,8,33,C0,00,13,04,E1,00,00,
2216436,01E01266,true,Rx,0,8,C0,00,02,00,00,00,40,00,
2217151,0012C024,true,Rx,1,8,A4,A1,00,00,C5,FF,88,00,
2217603,0240102A,true,Rx,0,8,40,00,00,00,00,00,00,00,
2217740,00524000,true,Rx,1,8,40,00,00,00,C0,00,C0,00,
2218311,00D28026,true,Rx,1,8,8A,8F,64,00,C0,00,00,00,
2219281,01600022,true,Rx,1,8,01,00,AA,AA,00,00,00,00,
2220415,00C24008,true,Rx,1,8,DD,00,22,00,80,00,80,00,
2222957,0022C01E,true,Rx,1,8,04,0B,40,86,C4,00,A4,EC,
2223536,0032C01E,true,Rx,1,8,00,00,14,00,04,00,60,00,
2223639,00613DF8,true,Rx,0,8,03,00,08,20,01,00,00,40,
2224095,0102C02C,true,Rx,1,8,0F,C1,9A,0E,C0,10,11,A1,
2224676,01200028,true,Rx,1,8,C8,08,00,41,F0,00,30,30,
2224769,01213FFC,true,Rx,0,8,8E,00,5D,80,F0,81,B8,00,
2225905,0261300A,true,Rx,0,8,40,00,00,27,80,00,00,C0,
2230278,00400066,true,Rx,0,8,C0,00,00,06,01,5E,40,7F,
2230411,00C24008,true,Rx,1,8,CD,00,32,00,80,00,80,00,
2230978,00B00002,true,Rx,1,8,00,00,A7,6B,B6,3B,C3,F3,
2231442,0360000A,true,Rx,0,8,00,00,00,00,00,14,00,80,
2231548,0012C024,true,Rx,1,8,AC,A1,00,00,C5,FF,88,00,
2232138,00524000,true,Rx,1,8,40,00,00,00,C0,00,C0,00,
2232668,0140044A,true,Rx,0,8,C0,00,00,18,00,00,00,00,
2232702,00D28026,true,Rx,1,8,CA,8F,64,00,C0,00,00,00,
2233292,00608024,true,Rx,1,8,00,00,00,00,00,01,06,3E,
2233775,02C13428,true,Rx,0,8,01,02,78,8A,6A,CF,20,00,
2233860,00E00020,true,Rx,1,8,03,C0,00,13,04,E1,00,00,
2234434,00F2C006,true,Rx,1,8,4C,00,00,00,90,20,00,00,
2234898,02E10DF4,true,Rx,0,8,0F,A9,2F,AC,99,3A,F8,18,
2235024,01100014,true,Rx,1,8,00,00,00,04,00,11,20,00,
2235583,0022C01E,true,Rx,1,8,40,0B,40,86,44,00,24,EC,
2236076,04200002,true,Rx,0,8,00,00,00,00,00,00,01,03,
2236153,0032C01E,true,Rx,1,8,42,00,84,00,04,00,60,00,
2237212,0280142A,true,Rx,0,8,00,10,00,20,07,00,00,00,
2238693,02A03028,true,Rx,0,8,00,9F,C1,59,1A,2B,00,00,
2239868,03200008,true,Rx,0,8,00,00,00,00,00,80,00,00,
2240416,00C24008,true,Rx,1,8,BD,00,42,00,80,00,80,00,
2243401,00613DF8,true,Rx,0,8,41,00,08,20,00,00,00,40,
2244583,01800028,true,Rx,0,8,40,00,7A,00,00,00,00,00,
2245113,0012C024,true,Rx,1,8,A4,A1,00,00,C5,FF,88,00,
2245709,01C030A2,true,Rx,0,8,00,5B,40,01,89,01,14,00,
2245723,00524000,true,Rx,1,8,40,00,00,00,C0,00,C0,00,
2246271,00D28026,true,Rx,1,8,0A,8F,64,00,C0,00,00,00,
2246956,0022C01E,true,Rx,1,8,84,0B,40,86,C4,00,A4,EC,
2247536,0032C01E,true,Rx,1,8,80,00,14,00,04,00,60,00,
2248105,00E00020,true,Rx,1,8,03,C0,00,13,04,E1,00,00,
2248516,01213FFC,true,Rx,0,8,CE,00,5D,80,E0,C1,B8,00,
2248664,0102C02C,true,Rx,1,8,4F,C1,9A,0E,C0,10,11,A1,
2250408,00C24008,true,Rx,1,8,AD,00,52,00,80,00,80,00,
2250976,00B00002,true,Rx,1,8,40,00,A7,6B,B6,3B,C3,F3,
2251564,01100014,true,Rx,1,8,40,00,00,00,00,11,20,00,
2252195,00F2C006,true,Rx,1,8,88,00,00,00,90,20,00,00,
2252628,0240102A,true,Rx,0,8,81,00,00,00,00,00,00,00,
2252919,01200028,true,Rx,1,8,08,08,00,41,F0,00,30,30,
2255309,0261300A,true,Rx,0,8,80,00,00,27,80,00,00,C0,
2258957,0022C01E,true,Rx,1,8,C4,0B,40,86,C4,00,A4,EC,
2259531,02001022,true,Rx,0,8,80,00,00,01,35,90,10,43,
2259545,0012C024,true,Rx,1,8,AC,A1,00,00,C5,FF,88,00,
2260091,0032C01E,true,Rx,1,8,C0,00,14,00,04,00,60,00,
2260681,00524000,true,Rx,1,8,40,00,00,00,C0,00,C0,00,
2261262,00C24008,true,Rx,1,8,9D,00,62,00,80,00,80,00,
2261468,01E01266,true,Rx,0,8,00,00,02,00,00,00,40,00,
2261822,00D28026,true,Rx,1,8,4E,8F,64,00,C0,00,00,00,
2262410,01828002,true,Rx,1,8,00,80,00,7F,00,00,00,00,
2263271,00E00020,true,Rx,1,8,03,C0,00,13,04,E1,00,00,
2263580,00613DF8,true,Rx,0,8,83,00,08,20,00,00,00,40,
2266031,0280142A,true,Rx,0,8,40,50,00,28,07,00,00,00,
2270408,00C24008,true,Rx,1,8,8D,00,72,00,80,00,80,00,
2270982,0022C01E,true,Rx,1,8,04,0B,40,86,C4,00,A4,EC,
2271550,0032C01E,true,Rx,1,8,02,00,94,00,04,00,60,00,
2272109,00B00002,true,Rx,1,8,80,00,A7,6B,B6,3B,C3,F3,
2272685,0140044A,true,Rx,0,8,00,00,00,08,10,00,00,00,
2272699,01100014,true,Rx,1,8,80,00,00,00,00,11,20,00,
2273258,0012C024,true,Rx,1,8,A4,A1,00,00,C5,FF,88,00,
2273813,01213FFC,true,Rx,0,8,0E,00,5D,C0,F0,81,B8,00,
2273847,00524000,true,Rx,1,8,40,00,00,00,C0,00,C0,00,
2274416,00D28026,true,Rx,1,8,8A,8F,64,00,C0,00,00,00,
2274949,02A03028,true,Rx,0,8,00,9F,81,11,1A,2B,00,00,
2274993,00F2C006,true,Rx,1,8,CC,00,00,00,90,20,00,00,
2275552,0102C02C,true,Rx,1,8,8F,C1,9A,0E,C0,10,11,A1,
2276110,01500006,true,Rx,1,8,05,2F,08,85,2B,6A,00,00,
2276680,01700012,true,Rx,1,8,0B,C0,80,00,AA,AA,00,00,
2279265,00E00020,true,Rx,1,8,03,C0,00,13,04,E1,00,00,
2279833,01600022,true,Rx,1,8,40,00,AA,AA,00,00,00,00,
2280423,00C24008,true,Rx,1,8,7D,00,82,00,80,00,80,00,
2282734,01200028,true,Rx,1,8,48,40,00,41,F0,00,30,30,
2283299,0022C01E,true,Rx,1,8,40,0B,40,86,44,00,24,EC,
2283371,00613DF8,true,Rx,0,8,C1,00,08,20,01,00,00,40,
2283867,0032C01E,true,Rx,1,8,40,00,04,00,04,00,60,00,
2284548,01800028,true,Rx,0,8,80,00,7E,00,00,00,00,00,
2285676,0261300A,true,Rx,0,8,C0,00,00,27,80,00,00,C0,
2286807,0340024C,true,Rx,0,8,C0,00,80,00,0C,9B,08,00,
2287151,0012C024,true,Rx,1,8,AC,A1,00,00,C5,FF,88,00,
2287739,00524000,true,Rx,1,8,40,00,00,00,C0,00,C0,00,
2287966,0240102A,true,Rx,0,8,C1,00,00,00,00,00,00,00,
2288310,00D28026,true,Rx,1,8,CA,8F,64,00,C0,00,00,00,
2289045,02C13428,true,Rx,0,8,49,02,78,8A,6A,CF,20,00,
2290141,02E10DF4,true,Rx,0,8,4F,A9,0F,2C,99,3A,F8,18,
2290401,00C24008,true,Rx,1,8,6D,00,92,00,80,00,80,00,
2290979,00B00002,true,Rx,1,8,C0,00,A7,6B,B6,3B,C3,F3,
2291238,01C030A2,true,Rx,0,8,40,5B,40,01,89,01,14,00,
2291559,01100014,true,Rx,1,8,C0,00,00,04,00,11,20,00,
2294139,00F2C006,true,Rx,1,8,0C,00,00,00,90,21,00,00,
2294969,0022C01E,true,Rx,1,8,84,0B,40,86,C4,00,A4,EC,
2295549,0032C01E,true,Rx,1,8,82,00,94,00,04,00,60,00,
2296042,0280142A,true,Rx,0,8,80,50,00,20,07,00,00,00,
2296119,00E00020,true,Rx,1,8,03,C0,00,13,04,E1,00,00,
2297895,0102C02C,true,Rx,1,8,CF,C1,9A,0E,C0,10,11,A1,
2298442,0132C07C,true,Rx,1,8,02,4E,BC,43,5E,04,98,5E,
2298547,01213FFC,true,Rx,0,8,4E,00,5D,80,F0,81,B8,00,
2299651,01613FFC,true,Rx,0,8,02,4E,BC,43,5E,04,98,5E,
2300407,00C24008,true,Rx,1,8,5D,00,A2,00,80,00,80,00,
2301190,0012C024,true,Rx,1,8,A4,A1,00,00,C5,FF,88,00,
2301778,00524000,true,Rx,1,8,40,00,00,00,C0,00,C0,00,
2302346,00D28026,true,Rx,1,8,0A,8F,64,00,C0,00,00,00,
2303327,00613DF8,true,Rx,0,8,03,00,08,20,00,00,00,40,
2304667,02001022,true,Rx,0,8,C0,00,00,01,35,90,10,43,
2305821,00400066,true,Rx,0,8,00,00,00,07,01,5E,40,7F,
2306993,01E01266,true,Rx,0,8,40,00,02,00,00,00,40,00,
2307007,0022C01E,true,Rx,1,8,C4,0B,40,86,C4,00,A4,EC,
2307555,0032C01E,true,Rx,1,8,C0,00,14,00,04,00,60,00,
2308144,00608024,true,Rx,1,8,40,00,00,00,00,01,07,3E,
2308629,02A03028,true,Rx,0,8,00,9F,91,51,1A,2B,80,00,
2310398,00C24008,true,Rx,1,8,4D,00,B2,00,80,00,80,00,
2310993,00B00002,true,Rx,1,8,00,00,A7,6B,B6,3B,C3,F3,
2311561,00E00020,true,Rx,1,8,7B,C0,00,13,04,E1,00,00,
2312151,01100014,true,Rx,1,8,00,00,00,00,00,11,20,00,
2312677,0140044A,true,Rx,0,8,40,00,00,08,00,00,00,00,
2312927,01200028,true,Rx,1,8,88,08,00,41,F0,00,30,30,
2315150,0012C024,true,Rx,1,8,AC,A1,00,00,C5,FF,88,00,
2315745,00524000,true,Rx,1,8,40,00,00,00,C0,00,C0,00,
2315796,0261300A,true,Rx,0,8,00,00,00,27,80,00,00,C0,
2316306,00D28026,true,Rx,1,8,4E,8F,64,00,C0,00,00,00,
2316883,00F2C006,true,Rx,1,8,4C,00,00,00,90,20,00,00,
2318999,0022C01E,true,Rx,1,8,04,0B,40,86,C4,00,A4,EC,
2319584,0032C01E,true,Rx,1,8,00,00,14,00,04,00,60,00,
2320411,00C24008,true,Rx,1,8,3D,00,C2,00,80,00,80,00,
2322583,0240102A,true,Rx,0,8,01,00,00,00,00,00,00,00,
2322977,0102C02C,true,Rx,1,8,0F,C1,9A,0E,C0,10,11,A1,
2323748,00613DF8,true,Rx,0,8,41,00,08,20,01,00,00,40,
2324884,01213FFC,true,Rx,0,8,8E,00,5D,80,E0,81,B8,00,
2326078,01800028,true,Rx,0,8,C0,00,7A,00,00,00,00,00,
2327236,0280142A,true,Rx,0,8,C0,10,00,20,07,00,00,00,
2327279,00E00020,true,Rx,1,8,03,C0,00,13,04,E1,00,00,
2329165,0012C024,true,Rx,1,8,A4,A1,00,00,C5,FF,88,00,
2329752,00524000,true,Rx,1,8,40,00,00,00,C0,00,C0,00,
2330321,00D28026,true,Rx,1,8,8A,8F,64,00,C0,00,00,00,
2330899,00C24008,true,Rx,1,8,2D,00,D2,00,80,00,80,00,
2331447,0022C01E,true,Rx,1,8,40,0B,40,86,44,00,24,EC,
2332015,0032C01E,true,Rx,1,8,42,00,84,00,04,00,60,00,
2332574,00B00002,true,Rx,1,8,40,00,A7,6B,B6,3B,C3,F3,
2333153,01100014,true,Rx,1,8,40,00,00,00,00,11,20,00,
2333712,01500006,true,Rx,1,8,45,0F,08,05,2B,6A,00,00,
2334281,01700012,true,Rx,1,8,4B,C0,80,00,AA,AA,00,00,
2334899,01C030A2,true,Rx,0,8,80,5B,40,01,89,01,14,00,
2336202,00F2C006,true,Rx,1,8,88,00,00,00,90,1F,00,00,
2336790,01828002,true,Rx,1,8,00,80,00,7F,00,00,00,00,
2339346,01600022,true,Rx,1,8,81,00,AA,AA,00,00,00,00,
2340405,00C24008,true,Rx,1,8,1D,00,E2,00,80,00,80,00,
2342874,01200028,true,Rx,1,8,C8,08,00,41,F0,00,30,30,
2343439,0012C024,true,Rx,1,8,AC,A1,00,00,C5,FF,88,00,
2343501,00613DF8,true,Rx,0,8,83,00,08,00,00,00,00,40,
2343988,0022C01E,true,Rx,1,8,84,0B,40,86,C4,00,A4,EC,
2344567,0032C01E,true,Rx,1,8,80,00,14,00,04,00,60,00,
2344630,02A03028,true,Rx,0,8,00,9F,C1,59,1A,2B,00,00,
2345148,00524000,true,Rx,1,8,40,00,00,00,C0,00,C0,00,
2345731,02C13428,true,Rx,0,8,81,02,78,8A,6A,CF,20,00,
2345745,00D28026,true,Rx,1,8,CA,8F,64,00,C0,00,00,00,
2346294,00E00020,true,Rx,1,8,03,C0,00,13,04,E1,00,00,
2346869,0261300A,true,Rx,0,8,40,00,00,27,80,00,00,C0,
2347977,02E10DF4,true,Rx,0,8,8F,A9,2F,AC,99,3A,F8,18,
2348031,0102C02C,true,Rx,1,8,4F,C1,9A,0E,C0,11,11,A1,
2349104,01213FFC,true,Rx,0,8,CE,00,5D,C0,F0,C1,B8,00,
2350239,02001022,true,Rx,0,8,00,00,00,01,35,90,10,43,
2350407,00C24008,true,Rx,1,8,0D,00,F2,00,80,00,80,00,
2351016,00B00002,true,Rx,1,8,80,00,A7,6B,B6,3B,C3,F3,
2351429,03200008,true,Rx,0,8,00,00,00,00,00,80,00,00,
2351600,01100014,true,Rx,1,8,80,00,00,04,00,11,20,00,
2352599,01E01266,true,Rx,0,8,80,00,06,00,00,00,40,00,
2353773,0140044A,true,Rx,0,8,80,00,00,18,10,00,00,00,
2354992,0022C01E,true,Rx,1,8,C4,0B,40,86,C4,00,A4,EC,
2355559,0032C01E,true,Rx,1,8,C0,00,14,00,04,00,60,00,
2356053,0280142A,true,Rx,0,8,00,50,00,20,07,00,00,00,
2357181,0012C024,true,Rx,1,8,A4,A1,00,00,C5,FF,88,00,
2357613,0240102A,true,Rx,0,8,40,00,00,00,00,00,00,00,
2357771,00524000,true,Rx,1,8,40,00,00,00,C0,00,C0,00,
2358339,00D28026,true,Rx,1,8,0A,8F,64,00,C0,00,00,00,
2358907,00F2C006,true,Rx,1,8,CC,00,00,00,90,21,00,00,
2359487,00E00020,true,Rx,1,8,03,C0,00,13,04,E2,00,00,
2360399,00C24008,true,Rx,1,8,FD,00,02,00,80,00,80,00,
2363734,00613DF8,true,Rx,0,8,C1,00,08,20,00,00,00,40,
2364928,01800028,true,Rx,0,8,00,00,7E,00,00,00,00,00,
2366998,0022C01E,true,Rx,1,8,04,0B,40,86,C4,00,A4,EC,
2367566,0032C01E,true,Rx,1,8,02,00,94,00,04,00,60,00,
2370404,00C24008,true,Rx,1,8,ED,00,12,00,80,00,80,00,
2370998,00B00002,true,Rx,1,8,C0,00,A7,6B,B6,3B,C3,F3,
2371557,0012C024,true,Rx,1,8,AC,A1,00,00,C5,FF,88,00,
2372146,00524000,true,Rx,1,8,40,00,00,00,C0,00,C0,00,
2372548,03C0002A,true,Rx,0,8,00,00,30,C0,2F,00,9F,00,
2372716,00D28026,true,Rx,1,8,4E,8F,64,00,C0,00,00,00,
2373275,0102C02C,true,Rx,1,8,8F,C1,9A,0E,C0,10,11,A1,
2373676,01213FFC,true,Rx,0,8,0E,00,5D,80,F0,81,B8,00,
2373855,01100014,true,Rx,1,8,C0,00,00,00,00,11,20,00,
2374433,01200028,true,Rx,1,8,08,08,00,49,F0,00,30,30,
2375317,00E00020,true,Rx,1,8,03,C0,00,13,04,E1,00,00,
2376164,0261300A,true,Rx,0,8,80,00,00,27,80,00,00,C0,
2378204,00F2C006,true,Rx,1,8,0C,00,00,00,90,21,00,00,
2378757,02A03028,true,Rx,0,8,00,9F,81,11,1A,2B,00,00,
2379017,0022C01E,true,Rx,1,8,40,0B,40,86,44,00,24,EC,
2379586,0032C01E,true,Rx,1,8,40,00,04,00,04,00,60,00,
2380287,01C030A2,true,Rx,0,8,C0,5B,40,01,89,01,14,00,
2380393,00C24008,true,Rx,1,8,DD,00,22,00,80,00,80,00,
2381428,00400066,true,Rx,0,8,40,00,00,00,01,5E,40,7F,
2383013,00608024,true,Rx,1,8,80,00,00,00,00,01,00,3E,
2383634,00613DF8,true,Rx,0,8,03,00,08,20,01,00,00,40,
2385201,0012C024,true,Rx,1,8,A4,A1,00,00,C5,FF,88,00,
2385790,00524000,true,Rx,1,8,40,00,00,00,C0,00,C0,00,
2386016,0280142A,true,Rx,0,8,41,50,00,20,07,00,00,00,
2386361,00D28026,true,Rx,1,8,8A,8F,64,00,C0,00,00,00,
2390395,00C24008,true,Rx,1,8,CD,00,32,00,80,00,80,00,
2391001,0022C01E,true,Rx,1,8,84,0B,40,86,C4,00,A4,EC,
2391580,0032C01E,true,Rx,1,8,82,00,94,00,04,00,60,00,
2392138,00B00002,true,Rx,1,8,00,00,A7,6B,B6,3B,C3,F3,
2392571,0240102A,true,Rx,0,8,81,00,00,00,00,00,00,00,
2392708,00E00020,true,Rx,1,8,03,C0,00,13,04,E2,00,00,
2393298,01100014,true,Rx,1,8,00,00,00,00,00,11,20,00,
2393740,0140044A,true,Rx,0,8,C0,00,00,08,00,00,00,00,
2393857,01500006,true,Rx,1,8,85,0F,0A,45,2B,6A,00,00,
2394415,01700012,true,Rx,1,8,8B,C0,80,00,AA,AA,00,00,
2394875,02001022,true,Rx,0,8,40,00,00,01,35,90,10,43,
2396020,04000002,true,Rx,0,8,40,00,01,00,B4,00,00,4E,
2397186,01E01266,true,Rx,0,8,C0,00,02,00,00,00,40,00,
2398137,0102C02C,true,Rx,1,8,CF,C1,9A,0E,C0,10,11,A1,
2398774,01213FFC,true,Rx,0,8,4E,00,5D,80,E0,81,B8,00,
2399191,0012C024,true,Rx,1,8,AC,A1,00,00,C5,FF,88,00,
2399778,00524000,true,Rx,1,8,40,00,00,00,C0,00,C0,00,
2399860,02C13428,true,Rx,0,8,C1,02,78,8A,6A,CF,20,00,
2400349,00D28026,true,Rx,1,8,CA,8F,64,00,C0,00,00,00,
2400922,00C24008,true,Rx,1,8,BD,00,42,00,80,00,80,00,
2400963,02E10DF4,true,Rx,0,8,CF,A9,0F,2C,99,3A,F8,18,
2401493,00F2C006,true,Rx,1,8,4C,00,00,00,90,21,00,00,
2402069,01600022,true,Rx,1,8,C1,00,AA,AA,00,00,00,00,
2402992,01200028,true,Rx,1,8,48,00,00,DD,F0,00,30,2F,
2403549,0022C01E,true,Rx,1,8,C4,0B,40,86,C4,00,A4,EC,
2403941,00613DF8,true,Rx,0,8,41,00,00,20,00,00,00,40,
2404120,0032C01E,true,Rx,1,8,C0,00,14,00,04,00,60,00,
2405133,01800028,true,Rx,0,8,40,00,7A,00,00,00,00,00,
2406258,0261300A,true,Rx,0,8,C0,00,00,27,80,00,00,C0,
2407270,00E00020,true,Rx,1,8,4B,C0,00,13,04,E1,00,00,
2407394,03801028,true,Rx,0,8,0E,00,20,89,9C,43,00,00,
2410373,00C24008,true,Rx,1,8,AD,00,52,00,80,00,80,00,
2411040,00B00002,true,Rx,1,8,40,00,A7,6B,B6,3B,C3,F3,
2411609,01100014,true,Rx,1,8,40,00,00,04,00,11,20,00,
2413197,0012C024,true,Rx,1,8,A4,A1,00,00,C5,FF,88,00,
2413351,02A03028,true,Rx,0,8,00,9F,01,51,1A,2B,00,00,
2413787,00524000,true,Rx,1,8,40,00,00,00,C0,00,C0,00,
2414355,00D28026,true,Rx,1,8,0A,8F,64,00,C0,00,00,00,
2414946,01828002,true,Rx,1,8,00,80,00,7B,00,00,00,00,
2415495,0022C01E,true,Rx,1,8,04,0B,40,86,C4,00,A4,EC,
2416029,0280142A,true,Rx,0,8,80,10,00,20,07,00,00,00,
2416075,0032C01E,true,Rx,1,8,00,00,14,00,04,00,60,00,
2420232,00F2C006,true,Rx,1,8,88,00,00,00,90,20,00,00,
2420816,00C24008,true,Rx,1,8,9D,00,62,00,80,00,80,00,
2422771,0102C02C,true,Rx,1,8,0F,C1,9A,0E,C0,10,11,A1,
2423340,00E00020,true,Rx,1,8,33,C0,00,13,04,E1,00,00,
2423412,00613DF8,true,Rx,0,8,83,00,08,20,00,00,00,40,
2424549,01213FFC,true,Rx,0,8,8E,00,5D,80,F0,81,B8,00,
2425663,01C030A2,true,Rx,0,8,00,5B,40,01,89,01,14,00,
2427075,0022C01E,true,Rx,1,8,40,0B,40,86,44,00,24,EC,
2427612,0240102A,true,Rx,0,8,C1,00,00,00,00,00,00,00,
2427636,0012C024,true,Rx,1,8,AC,A1,00,00,C5,FF,88,00,
2428204,0032C01E,true,Rx,1,8,42,00,84,00,04,00,60,00,
2428795,00524000,true,Rx,1,8,40,00,00,00,C0,00,C0,00,
2429354,00D28026,true,Rx,1,8,4E,8F,64,00,C0,00,00,00,
2430363,00C24008,true,Rx,1,8,8D,00,72,00,80,00,80,00,
2431065,00B00002,true,Rx,1,8,80,00,A7,6B,B6,3B,C3,F3,
2431644,01100014,true,Rx,1,8,80,00,00,00,00,11,20,00,
2432685,0140044A,true,Rx,0,8,00,00,00,18,00,00,00,00,
2433090,01200028,true,Rx,1,8,88,08,00,41,F0,00,30,2F,
2436490,0261300A,true,Rx,0,8,00,00,00,27,80,00,00,C0,
2439036,0022C01E,true,Rx,1,8,84,0B,40,86,C4,00,A4,EC,
2439538,02001022,true,Rx,0,8,80,00,00,01,35,90,10,43,
2439613,0032C01E,true,Rx,1,8,80,00,14,00,04,00,60,00,
2440193,00E00020,true,Rx,1,8,03,C0,00,13,04,E7,00,00,
2440771,00C24008,true,Rx,1,8,7D,00,82,00,80,00,80,00,
2441342,0012C024,true,Rx,1,8,A4,A1,00,00,C5,FF,88,00,
2441487,01E01266,true,Rx,0,8,00,00,02,00,00,00,40,00,
2441922,00524000,true,Rx,1,8,40,00,00,00,C0,00,C0,00,
2442492,00D28026,true,Rx,1,8,8A,8F,64,00,C0,00,00,00,
2443070,00F2C006,true,Rx,1,8,CC,00,00,00,90,20,00,00,
2443600,00613DF8,true,Rx,0,8,C1,00,00,20,01,00,00,40,
2444777,01800028,true,Rx,0,8,80,00,7A,00,00,00,00,00,
2446014,0280142A,true,Rx,0,8,C0,50,00,28,07,00,00,00,
2447981,0102C02C,true,Rx,1,8,4F,C1,9A,0E,C0,10,11,A1,
2448610,01213FFC,true,Rx,0,8,CE,00,5D,C0,E0,C1,B8,00,
2449743,02A03028,true,Rx,0,8,00,1F,C1,19,1A,2B,00,00,
2450365,00C24008,true,Rx,1,8,6D,00,92,00,80,00,80,00,
2450921,03200008,true,Rx,0,8,00,00,00,00,00,80,00,00,
2451078,0022C01E,true,Rx,1,8,C4,0B,40,86,C4,00,A4,EC,
2451650,0032C01E,true,Rx,1,8,C0,00,14,00,04,00,60,00,
2452199,00B00002,true,Rx,1,8,C0,00,A7,6B,B6,3B,C3,F3,
