Time Stamp,ID,Extended,Dir,Bus,LEN,D1,D2,D3,D4,D5,D6,D7,D8
13728646,01C030A2,true,Rx,0,8,40,5B,40,01,89,01,14,00,
13729792,0280142A,true,Rx,0,8,80,50,00,20,07,00,00,00,
13730935,02A03028,true,Rx,0,8,00,90,84,01,10,00,00,00,
13732119,03200008,true,Rx,0,8,00,00,00,00,00,80,00,00,
13736447,00613DF8,true,Rx,0,8,83,00,00,00,00,00,00,00,
13737589,02001022,true,Rx,0,8,80,00,00,01,35,90,10,43,
13740038,0240102A,true,Rx,0,8,01,00,00,00,00,00,00,00,
13750781,0102C02C,true,Rx,1,8,80,01,C4,0C,C0,10,00,00,
13751406,01213FFC,true,Rx,0,8,8C,00,4C,00,60,01,08,00,
13753587,0140044A,true,Rx,0,8,C0,00,00,08,00,00,00,00,
13755802,01200028,true,Rx,1,8,C8,00,00,48,F0,00,30,2D,
13756442,00613DF8,true,Rx,0,8,C1,00,00,00,00,00,00,00,
13757647,01800028,true,Rx,0,8,00,00,00,00,00,00,00,00,
13758782,0261300A,true,Rx,0,8,40,00,00,27,80,00,00,C0,
13759936,0280142A,true,Rx,0,8,C0,10,00,20,07,00,00,00,
13761100,01E01266,true,Rx,0,8,C0,00,02,00,00,00,40,00,
13762246,02A03028,true,Rx,0,8,00,10,14,01,10,00,80,00,
13763389,02C13428,true,Rx,0,8,00,00,08,80,00,00,20,00,
13764525,02E10DF4,true,Rx,0,8,00,A9,00,20,90,30,08,10,
13772760,01C030A2,true,Rx,0,8,80,5B,40,01,89,01,14,00,
13774985,0240102A,true,Rx,0,8,41,00,00,00,00,00,00,00,
13775788,0102C02C,true,Rx,1,8,C0,01,C4,0C,C0,10,00,00,
13776438,00613DF8,true,Rx,0,8,03,00,00,00,00,00,00,00,
13777572,00400066,true,Rx,0,8,40,00,00,02,01,5E,40,7F,
13778727,01213FFC,true,Rx,0,8,CC,00,4C,00,70,01,08,00,
13781152,00608024,true,Rx,1,8,80,00,00,00,00,01,02,3E,
13782827,02001022,true,Rx,0,8,C0,00,00,01,35,90,10,43,
13785755,01200028,true,Rx,1,8,08,08,00,48,F0,00,30,2D,
13786865,0280142A,true,Rx,0,8,00,50,00,28,07,00,00,00,
13788006,0261300A,true,Rx,0,8,80,00,00,27,80,00,00,C0,
13793560,0140044A,true,Rx,0,8,00,00,00,18,00,00,00,00,
13796458,00613DF8,true,Rx,0,8,41,00,00,00,00,00,00,00,
13797651,01800028,true,Rx,0,8,40,00,00,00,00,00,00,00,
13798792,02A03028,true,Rx,0,8,00,90,C4,09,10,00,00,00,
13801027,0102C02C,true,Rx,1,8,00,01,C4,0C,C0,10,00,00,
13801667,01213FFC,true,Rx,0,8,0C,00,4C,00,60,41,08,00,
13805901,01E01266,true,Rx,0,8,00,00,02,00,00,00,40,00,
13809981,0240102A,true,Rx,0,8,80,00,00,00,00,00,00,00,
13811412,02C13428,true,Rx,0,8,40,00,08,80,00,00,20,00,
13812521,02E10DF4,true,Rx,0,8,40,A9,20,A0,90,30,08,10,
13815766,01200028,true,Rx,1,8,48,08,00,48,F0,00,30,2D,
13816413,00613DF8,true,Rx,0,8,83,00,00,00,00,00,00,00,
13817538,0261300A,true,Rx,0,8,C0,00,00,27,80,00,00,C0,
13818661,01C030A2,true,Rx,0,8,C0,5B,40,01,89,01,14,00,
13819817,0280142A,true,Rx,0,8,40,50,00,20,07,00,00,00,
13825763,0102C02C,true,Rx,1,8,40,01,C4,0C,C0,10,00,00,
13826389,01213FFC,true,Rx,0,8,4C,00,4C,00,70,01,08,00,
13827524,02001022,true,Rx,0,8,00,00,00,01,35,90,10,43,
13831367,02A03028,true,Rx,0,8,00,90,84,01,10,00,00,00,
13832548,03200008,true,Rx,0,8,00,00,00,00,00,80,00,00,
13833711,0140044A,true,Rx,0,8,40,00,00,08,00,00,00,00,
13836418,00613DF8,true,Rx,0,8,C1,00,00,00,00,00,00,00,
13837601,01800028,true,Rx,0,8,80,00,00,00,00,00,00,00,
13844958,0240102A,true,Rx,0,8,C1,00,00,00,00,00,00,00,
13845730,01200028,true,Rx,1,8,88,08,00,48,F0,00,30,2D,
13846864,0280142A,true,Rx,0,8,80,10,00,20,07,00,00,00,
13847997,0261300A,true,Rx,0,8,00,00,00,27,80,00,00,C0,
13850779,0102C02C,true,Rx,1,8,80,01,C4,0C,C0,10,00,00,
13850913,01E01266,true,Rx,0,8,40,00,02,00,00,00,40,00,
13852057,01213FFC,true,Rx,0,8,8C,00,4C,00,70,01,08,00,
13853189,00400066,true,Rx,0,8,80,00,00,03,01,5E,40,7F,
13855888,00608024,true,Rx,1,8,C0,00,00,00,00,01,03,3E,
13856538,00613DF8,true,Rx,0,8,03,00,00,00,00,00,00,00,
13862824,01C030A2,true,Rx,0,8,00,5B,40,01,89,01,14,00,
13866375,02A03028,true,Rx,0,8,00,90,84,01,10,00,00,00,
13867517,02C13428,true,Rx,0,8,80,00,08,80,00,00,20,00,
13868648,02E10DF4,true,Rx,0,8,80,A9,00,20,90,30,08,10,
13872749,02001022,true,Rx,0,8,40,00,00,01,35,90,10,43,
13873911,0140044A,true,Rx,0,8,80,00,00,18,00,00,00,00,
13875837,0102C02C,true,Rx,1,8,C0,01,C4,0C,C0,10,00,00,
13876446,01200028,true,Rx,1,8,C8,00,00,48,F0,00,30,2D,
13876520,00613DF8,true,Rx,0,8,41,00,00,00,00,00,00,00,
13877675,01213FFC,true,Rx,0,8,CC,00,4C,00,60,01,08,00,
13878858,01800028,true,Rx,0,8,C0,00,00,00,00,00,00,00,
13880003,0261300A,true,Rx,0,8,40,00,00,27,80,00,00,C0,
13881159,0240102A,true,Rx,0,8,03,00,00,00,00,00,00,00,
13882305,0280142A,true,Rx,0,8,C0,50,00,20,07,00,00,00,
13883439,0340024C,true,Rx,0,8,81,00,10,01,0C,AD,00,00,
13885828,0132C07C,true,Rx,1,8,19,05,01,01,01,02,01,01,
13886456,01613FFC,true,Rx,0,8,19,05,01,01,01,02,01,01,
13889966,03C0002A,true,Rx,0,8,00,00,30,C0,2D,00,1F,00,
13896088,01E01266,true,Rx,0,8,80,00,02,00,00,00,40,00,
13897262,00613DF8,true,Rx,0,8,83,00,00,00,00,00,00,00,
13901047,0102C02C,true,Rx,1,8,00,01,C4,0C,C0,11,00,00,
13901683,01213FFC,true,Rx,0,8,0C,00,4C,00,70,41,08,00,
13902819,02A03028,true,Rx,0,8,00,90,C4,09,10,00,00,00,
13905722,01200028,true,Rx,1,8,08,08,00,CC,F0,00,30,2D,
13906851,0280142A,true,Rx,0,8,00,50,00,20,07,00,00,00,
13907950,01C030A2,true,Rx,0,8,40,5B,40,01,89,01,14,00,
13909087,0261300A,true,Rx,0,8,80,00,00,27,80,00,00,C0,
13913571,0140044A,true,Rx,0,8,C0,00,00,08,00,00,00,00,
13914991,0240102A,true,Rx,0,8,40,00,00,00,00,00,00,00,
13916452,00613DF8,true,Rx,0,8,C1,00,00,00,00,00,00,00,
13917644,01800028,true,Rx,0,8,00,00,00,00,00,00,00,00,
13918791,02001022,true,Rx,0,8,80,00,00,01,35,90,10,43,
13919933,03801028,true,Rx,0,8,40,00,20,08,1C,43,00,00,
13921379,02C13428,true,Rx,0,8,C0,00,08,80,00,00,20,00,
13922491,02E10DF4,true,Rx,0,8,C0,A9,20,A0,90,30,08,10,
13925736,0102C02C,true,Rx,1,8,40,01,C4,0C,C0,10,00,00,
13926371,01213FFC,true,Rx,0,8,4C,00,4C,00,70,01,08,00,
13928101,00400066,true,Rx,0,8,C0,00,00,04,01,5E,40,7F,
13930871,00608024,true,Rx,1,8,00,00,00,00,00,01,04,3E,
13935734,01200028,true,Rx,1,8,48,08,00,48,F0,00,30,2D,
13936379,00613DF8,true,Rx,0,8,03,00,00,00,00,00,00,00,
13937525,0280142A,true,Rx,0,8,40,10,00,20,07,00,00,00,
13938657,0261300A,true,Rx,0,8,C0,00,00,27,80,00,00,C0,
13939789,02A03028,true,Rx,0,8,00,90,84,01,10,00,00,00,
13940964,01E01266,true,Rx,0,8,C0,00,02,00,00,00,40,00,
13942141,03200008,true,Rx,0,8,00,00,00,00,00,80,00,00,
13949960,0240102A,true,Rx,0,8,81,00,00,00,00,00,00,00,
13950733,0102C02C,true,Rx,1,8,80,01,C4,0C,C0,10,00,00,
13951362,01213FFC,true,Rx,0,8,8C,00,4C,00,60,01,08,00,
13952835,01C030A2,true,Rx,0,8,80,5B,40,01,89,01,14,00,
13954017,0140044A,true,Rx,0,8,00,00,00,08,00,00,00,00,
13956469,00613DF8,true,Rx,0,8,41,00,00,00,00,00,00,00,
13957665,01800028,true,Rx,0,8,40,00,00,00,00,00,00,00,
13962752,02001022,true,Rx,0,8,C0,00,00,01,35,90,10,43,
13965754,01200028,true,Rx,1,8,88,08,00,48,F0,00,30,2D,
13966842,0280142A,true,Rx,0,8,81,50,00,20,07,00,00,00,
13968335,0261300A,true,Rx,0,8,00,00,00,27,80,00,00,C0,
13971362,02A03028,true,Rx,0,8,00,90,84,01,10,00,00,00,
13972761,0360000A,true,Rx,0,8,80,00,00,00,00,14,00,80,
13975831,0102C02C,true,Rx,1,8,C0,01,C4,0C,C0,10,00,00,
13976477,00613DF8,true,Rx,0,8,83,00,00,00,00,00,00,00,
13977632,01213FFC,true,Rx,0,8,CC,00,4C,00,70,01,08,00,
13978776,02C13428,true,Rx,0,8,00,00,08,80,00,00,20,00,
13979907,02E10DF4,true,Rx,0,8,00,A9,00,20,90,30,08,10,
13984991,0240102A,true,Rx,0,8,C1,00,00,00,00,00,00,00,
13986153,01E01266,true,Rx,0,8,00,00,02,00,00,00,40,00,
13993524,0140044A,true,Rx,0,8,40,00,00,18,00,00,00,00,
13995791,01200028,true,Rx,1,8,C8,00,00,48,F0,00,30,2D,
13996437,00613DF8,true,Rx,0,8,C1,00,00,00,00,00,00,00,
13997623,01800028,true,Rx,0,8,80,00,00,00,00,00,00,00,
13998746,01C030A2,true,Rx,0,8,C0,5B,40,01,89,01,14,00,
13999877,0261300A,true,Rx,0,8,40,00,00,27,80,00,00,C0,
14000922,0102C02C,true,Rx,1,8,00,01,C4,0C,C0,10,00,00,
14001025,0280142A,true,Rx,0,8,C0,50,00,28,07,00,00,00,
14002181,01213FFC,true,Rx,0,8,0C,00,4C,00,60,41,08,00,
14003553,00400066,true,Rx,0,8,00,00,00,05,01,5E,40,7F,
14005883,00608024,true,Rx,1,8,40,00,00,00,00,01,05,3E,
14006508,02A03028,true,Rx,0,8,00,90,D4,09,10,00,80,00,
14007643,02001022,true,Rx,0,8,00,00,00,01,35,90,10,43,
14016358,00613DF8,true,Rx,0,8,03,00,00,00,00,00,00,00,
14020001,0240102A,true,Rx,0,8,01,00,00,00,00,00,00,00,
14025752,0102C02C,true,Rx,1,8,40,01,C4,0C,C0,10,00,00,
14025882,03A00002,true,Rx,0,8,80,00,00,04,07,04,98,5E,
14026350,01200028,true,Rx,1,8,08,08,00,48,F0,00,30,2D,
14027020,01213FFC,true,Rx,0,8,4C,00,4C,00,70,01,08,00,
14028167,0280142A,true,Rx,0,8,00,10,00,20,07,00,00,00,
14029302,0261300A,true,Rx,0,8,80,00,00,27,80,00,00,C0,
14030971,01E01266,true,Rx,0,8,40,00,02,00,00,00,40,00,
14032113,02C13428,true,Rx,0,8,40,00,08,80,00,00,20,00,
14033219,02E10DF4,true,Rx,0,8,40,A9,20,A0,90,30,08,10,
14034382,0140044A,true,Rx,0,8,80,00,00,08,00,00,00,00,
14036482,00613DF8,true,Rx,0,8,41,00,00,00,00,00,00,00,
14037658,01800028,true,Rx,0,8,C0,00,00,00,00,00,00,00,
14041327,02A03028,true,Rx,0,8,00,10,04,01,10,00,00,00,
14042510,03200008,true,Rx,0,8,00,00,00,00,00,80,00,00,
14043630,01C030A2,true,Rx,0,8,00,5B,40,01,89,01,14,00,
14050768,0102C02C,true,Rx,1,8,80,01,C4,0C,C0,10,00,00,
14051393,01213FFC,true,Rx,0,8,8C,00,4C,00,70,01,08,00,
14052776,02001022,true,Rx,0,8,40,00,00,01,35,90,10,43,
14054982,0240102A,true,Rx,0,8,40,00,00,00,00,00,00,00,
14055754,01200028,true,Rx,1,8,48,08,00,48,F0,00,30,2D,
14056394,00613DF8,true,Rx,0,8,83,00,00,00,00,00,00,00,
14057547,0280142A,true,Rx,0,8,40,50,00,20,07,00,00,00,
14058683,0340024C,true,Rx,0,8,C1,00,00,01,0C,AD,00,00,
14059805,0261300A,true,Rx,0,8,C0,00,00,27,80,00,00,C0,
14073557,0140044A,true,Rx,0,8,C0,00,00,18,00,00,00,00,
14074709,04000002,true,Rx,0,8,40,00,01,00,B4,00,00,50,
14075841,0102C02C,true,Rx,1,8,C0,01,C4,0C,C0,10,00,00,
14076077,01E01266,true,Rx,0,8,80,00,02,00,00,00,40,00,
14077245,00613DF8,true,Rx,0,8,C1,00,00,00,00,00,00,00,
14078411,01213FFC,true,Rx,0,8,CC,00,4C,00,60,01,08,00,
14079547,00400066,true,Rx,0,8,40,00,00,06,01,5E,40,7F,
14080752,01800028,true,Rx,0,8,00,00,00,00,00,00,00,00,
14081883,02A03028,true,Rx,0,8,00,90,84,01,10,00,00,00,
14085830,00608024,true,Rx,1,8,80,00,00,00,00,01,06,3E,
14086426,01200028,true,Rx,1,8,88,08,00,48,F0,00,30,2D,
14086498,02C13428,true,Rx,0,8,80,00,08,80,00,00,20,00,
14087643,0280142A,true,Rx,0,8,80,50,00,20,07,00,00,00,
14088749,01C030A2,true,Rx,0,8,40,5B,40,01,89,01,14,00,
14089883,0261300A,true,Rx,0,8,00,00,00,27,80,00,00,C0,
14091048,0240102A,true,Rx,0,8,81,00,00,00,00,00,00,00,
14092179,02E10DF4,true,Rx,0,8,80,A9,00,20,90,30,08,10,
14096436,00613DF8,true,Rx,0,8,03,00,00,00,00,00,00,00,
14097588,02001022,true,Rx,0,8,80,00,00,01,35,90,10,43,
14101021,0102C02C,true,Rx,1,8,00,01,C4,0C,C0,11,00,00,
14101657,01213FFC,true,Rx,0,8,0C,00,4C,00,70,41,08,00,
14111378,02A03028,true,Rx,0,8,00,90,C4,09,10,00,00,00,
14113562,0140044A,true,Rx,0,8,00,00,00,08,00,00,00,00,
14115788,01200028,true,Rx,1,8,C8,00,00,48,F0,00,30,2D,
14116444,00613DF8,true,Rx,0,8,41,00,00,00,00,00,00,00,
14117631,01800028,true,Rx,0,8,40,00,00,00,00,00,00,00,
14118784,0280142A,true,Rx,0,8,C0,10,00,20,07,00,00,00,
14119915,0261300A,true,Rx,0,8,40,00,00,27,80,00,00,C0,
14121092,01E01266,true,Rx,0,8,C0,00,02,00,00,00,40,00,
14124942,0240102A,true,Rx,0,8,C1,00,00,00,00,00,00,00,
14125765,0102C02C,true,Rx,1,8,40,01,C4,0C,C0,10,00,00,
14126395,01213FFC,true,Rx,0,8,4C,00,4C,00,70,01,08,00,
14132866,01C030A2,true,Rx,0,8,80,5B,40,01,89,01,14,00,
14136376,00613DF8,true,Rx,0,8,83,00,00,00,00,00,00,00,
14141442,02C13428,true,Rx,0,8,C0,00,08,80,00,00,20,00,
14142552,02E10DF4,true,Rx,0,8,C0,A9,20,A0,90,30,08,10,
14143683,02001022,true,Rx,0,8,C0,00,00,01,35,90,10,43,
14145744,01200028,true,Rx,1,8,08,08,00,48,F0,00,30,2D,
14146374,02A03028,true,Rx,0,8,00,90,84,01,10,00,00,00,
14147517,0280142A,true,Rx,0,8,00,50,00,20,07,00,00,00,
14148704,03200008,true,Rx,0,8,00,00,00,00,00,80,00,00,
14149837,0261300A,true,Rx,0,8,80,00,00,27,80,00,00,C0,
14150717,0102C02C,true,Rx,1,8,80,01,C4,0C,C0,10,00,00,
14151346,01213FFC,true,Rx,0,8,8C,00,4C,00,60,01,08,00,
14153553,0140044A,true,Rx,0,8,40,00,00,08,00,00,00,00,
14154838,00400066,true,Rx,0,8,80,00,00,07,01,5E,40,7F,
14156495,00613DF8,true,Rx,0,8,C1,00,00,00,00,00,00,00,
14157679,01800028,true,Rx,0,8,80,00,00,00,00,00,00,00,
14159996,0240102A,true,Rx,0,8,00,00,00,00,00,00,00,00,
14160803,00608024,true,Rx,1,8,C0,00,00,00,00,01,07,3E,
14165760,0132C07C,true,Rx,1,8,01,0F,B0,56,07,DE,FE,FA,
14165931,01E01266,true,Rx,0,8,00,00,06,00,00,00,40,00,
14167076,01613FFC,true,Rx,0,8,01,0F,B0,56,07,DE,FF,F6,
14175748,0102C02C,true,Rx,1,8,C0,01,C4,0C,C0,10,00,00,
14176344,01200028,true,Rx,1,8,48,08,00,48,F0,00,30,2D,
14176416,00613DF8,true,Rx,0,8,03,00,00,00,00,00,00,00,
14177573,01213FFC,true,Rx,0,8,CC,00,4C,00,70,01,08,00,
14178687,01C030A2,true,Rx,0,8,C0,5B,40,01,89,01,14,00,
14179839,0280142A,true,Rx,0,8,40,50,00,20,07,00,00,00,
14180963,0261300A,true,Rx,0,8,C0,00,00,27,80,00,00,C0,
14182108,02A03028,true,Rx,0,8,00,90,84,01,10,00,00,00,
14187473,02001022,true,Rx,0,8,00,00,00,01,35,90,10,43,
14193511,0140044A,true,Rx,0,8,80,00,00,18,00,00,00,00,
14194961,0240102A,true,Rx,0,8,41,00,00,00,00,00,00,00,
14196412,00613DF8,true,Rx,0,8,41,00,00,00,00,00,00,00,
14197595,01800028,true,Rx,0,8,C0,00,00,00,00,00,00,00,
14198740,02C13428,true,Rx,0,8,00,00,08,80,00,00,20,00,
14199874,02E10DF4,true,Rx,0,8,00,A9,20,A0,90,30,08,10,
14200938,0102C02C,true,Rx,1,8,00,01,C4,0C,C0,10,00,00,
14201587,01213FFC,true,Rx,0,8,0C,00,4C,00,60,41,08,00,
14205708,01200028,true,Rx,1,8,88,08,00,48,F0,00,30,2D,
14206808,0280142A,true,Rx,0,8,80,10,00,28,07,00,00,00,
14209970,0261300A,true,Rx,0,8,00,00,00,27,80,00,00,C0,
14211133,01E01266,true,Rx,0,8,40,00,02,00,00,00,40,00,
14216441,00613DF8,true,Rx,0,8,83,00,00,00,00,00,00,00,
14217573,02A03028,true,Rx,0,8,00,90,C4,09,10,00,00,00,
14222839,01C030A2,true,Rx,0,8,00,5B,40,01,89,01,14,00,
14225769,0102C02C,true,Rx,1,8,40,01,C4,0C,C0,10,00,00,
14226395,01213FFC,true,Rx,0,8,4C,00,4C,00,70,01,08,00,
14229980,0240102A,true,Rx,0,8,83,00,00,00,00,00,00,00,
14231122,00400066,true,Rx,0,8,C0,00,00,00,01,5E,40,7F,
14232809,02001022,true,Rx,0,8,40,00,00,01,35,90,10,43,
14233975,0140044A,true,Rx,0,8,C0,00,00,08,00,00,00,00,
14235925,00608024,true,Rx,1,8,00,00,00,00,00,01,00,3E,
14236529,01200028,true,Rx,1,8,C8,00,00,48,F0,00,30,2D,
14236591,00613DF8,true,Rx,0,8,C1,00,00,00,00,00,00,00,
14237789,01800028,true,Rx,0,8,00,00,00,00,00,00,00,00,
14238934,0280142A,true,Rx,0,8,C0,50,00,20,07,00,00,00,
14240076,0340024C,true,Rx,0,8,00,00,10,00,0C,AD,00,00,
14241212,0261300A,true,Rx,0,8,40,00,00,27,80,00,00,C0,
14242356,03801028,true,Rx,0,8,80,00,20,08,1C,43,00,00,
14250717,0102C02C,true,Rx,1,8,80,01,C4,0C,C0,10,00,00,
14251342,01213FFC,true,Rx,0,8,8C,00,4C,00,70,01,08,00,
14252477,02A03028,true,Rx,0,8,00,90,94,01,10,00,80,00,
14253611,02C13428,true,Rx,0,8,40,00,08,80,00,00,20,00,
14254724,02E10DF4,true,Rx,0,8,40,A9,00,20,90,30,08,10,
14255910,03200008,true,Rx,0,8,00,00,00,00,00,80,00,00,
14257092,00613DF8,true,Rx,0,8,03,00,00,00,00,00,00,00,
14258259,01E01266,true,Rx,0,8,80,00,02,00,00,00,40,00,
14264908,0240102A,true,Rx,0,8,C0,00,00,00,00,00,00,00,
14265712,01200028,true,Rx,1,8,08,08,00,48,F0,00,30,2D,
14266795,0280142A,true,Rx,0,8,00,50,00,20,07,00,00,00,
14267907,01C030A2,true,Rx,0,8,40,5B,40,01,89,01,14,00,
14270492,0261300A,true,Rx,0,8,80,00,00,27,80,00,00,C0,
14273565,0140044A,true,Rx,0,8,00,00,00,18,00,00,00,00,
14275874,0102C02C,true,Rx,1,8,C0,01,C4,0C,C0,10,00,00,
14276518,00613DF8,true,Rx,0,8,41,00,00,00,00,00,00,00,
14277686,01213FFC,true,Rx,0,8,CC,00,4C,00,60,01,08,00,
14278870,01800028,true,Rx,0,8,40,00,00,00,00,00,00,00,
14280012,02001022,true,Rx,0,8,80,00,00,01,35,90,10,43,
14286342,02A03028,true,Rx,0,8,00,90,84,09,10,00,00,00,
14292700,0360000A,true,Rx,0,8,C0,00,00,00,00,14,00,80,
14295734,01200028,true,Rx,1,8,48,08,00,48,F0,00,30,2D,
14296380,00613DF8,true,Rx,0,8,83,00,00,00,00,00,00,00,
14297527,0280142A,true,Rx,0,8,40,10,00,20,07,00,00,00,
14299981,0240102A,true,Rx,0,8,01,00,00,00,00,00,00,00,
14300835,0102C02C,true,Rx,1,8,00,01,C4,0C,C0,11,00,00,
14301156,01E01266,true,Rx,0,8,C0,00,02,00,00,00,40,00,
14302300,01213FFC,true,Rx,0,8,0C,00,4C,00,70,41,08,00,
14303434,0261300A,true,Rx,0,8,C0,00,00,27,80,00,00,C0,
14304558,03C0002A,true,Rx,0,8,00,00,30,C0,2D,00,9F,00,
14305713,00400066,true,Rx,0,8,00,00,00,01,01,5E,40,7F,
14306857,02C13428,true,Rx,0,8,80,00,08,80,00,00,20,00,
14307971,02E10DF4,true,Rx,0,8,80,A9,20,A0,90,30,08,10,
14311069,00608024,true,Rx,1,8,40,00,00,00,00,01,01,3E,
14312838,01C030A2,true,Rx,0,8,80,5B,40,01,89,01,14,00,
14314000,0140044A,true,Rx,0,8,40,00,00,08,00,00,00,00,
14316430,00613DF8,true,Rx,0,8,C1,00,00,00,00,00,00,00,
14317613,01800028,true,Rx,0,8,80,00,00,00,00,00,00,00,
14321508,02A03028,true,Rx,0,8,00,10,44,01,10,00,00,00,
14322763,02001022,true,Rx,0,8,C0,00,00,01,35,90,10,43,
14325730,0102C02C,true,Rx,1,8,40,01,C4,0C,C0,10,00,00,
14326326,01200028,true,Rx,1,8,88,08,00,CC,F0,00,30,2D,
14326388,01213FFC,true,Rx,0,8,4C,00,4C,00,70,01,08,00,
14327524,0280142A,true,Rx,0,8,80,50,00,20,07,00,00,00,
14330829,0261300A,true,Rx,0,8,00,00,00,27,80,00,00,C0,
14334908,0240102A,true,Rx,0,8,41,00,00,00,00,00,00,00,
14336411,00613DF8,true,Rx,0,8,03,00,00,00,00,00,00,00,
14345907,01E01266,true,Rx,0,8,00,00,02,00,00,00,40,00,
14350775,0102C02C,true,Rx,1,8,80,01,C4,0C,C0,10,00,00,
14351411,01213FFC,true,Rx,0,8,8C,00,4C,00,60,01,08,00,
14353542,0140044A,true,Rx,0,8,80,00,00,08,00,00,00,00,
14355777,01200028,true,Rx,1,8,C8,00,00,48,F0,00,30,2D,
14356426,00613DF8,true,Rx,0,8,41,00,00,00,00,00,00,00,
14357611,01800028,true,Rx,0,8,C0,00,00,00,00,00,00,00,
14358725,01C030A2,true,Rx,0,8,C0,5B,40,01,89,01,14,00,
14359870,0280142A,true,Rx,0,8,C0,50,00,20,07,00,00,00,
14361010,0261300A,true,Rx,0,8,40,00,00,27,80,00,00,C0,
14362147,02A03028,true,Rx,0,8,00,90,84,01,10,00,00,00,
14363280,02C13428,true,Rx,0,8,C0,00,08,80,00,00,20,00,
14364406,02E10DF4,true,Rx,0,8,C0,A9,00,20,90,30,08,10,
14365590,03200008,true,Rx,0,8,00,00,00,00,00,80,00,00,
14367525,02001022,true,Rx,0,8,00,00,00,01,35,90,10,43,
14369934,0240102A,true,Rx,0,8,81,00,00,00,00,00,00,00,
14375761,0102C02C,true,Rx,1,8,C0,01,C4,0C,C0,10,00,00,
14376406,00613DF8,true,Rx,0,8,83,00,00,00,00,00,00,00,
14377562,01213FFC,true,Rx,0,8,CC,00,4C,00,70,01,08,00,
14381052,00400066,true,Rx,0,8,40,00,00,02,01,5E,40,7F,
14385807,00608024,true,Rx,1,8,80,00,00,00,00,01,02,3E,
14386402,01200028,true,Rx,1,8,08,08,00,48,F0,00,30,2D,
14386774,0280142A,true,Rx,0,8,00,10,00,28,07,00,00,00,
14390913,01E01266,true,Rx,0,8,40,00,02,00,00,00,40,00,
14392054,0261300A,true,Rx,0,8,80,00,00,27,80,00,00,C0,
14393186,02A03028,true,Rx,0,8,00,90,C4,09,10,00,00,00,
14394343,0140044A,true,Rx,0,8,C0,00,00,18,00,00,00,00,
14396486,00613DF8,true,Rx,0,8,C1,00,00,00,00,00,00,00,
14397678,01800028,true,Rx,0,8,00,00,00,00,00,00,00,00,
14400698,0102C02C,true,Rx,1,8,00,01,C4,0C,C0,10,00,00,
14401343,01213FFC,true,Rx,0,8,0C,00,4C,00,60,41,08,00,
14402911,01C030A2,true,Rx,0,8,00,5B,40,01,89,01,14,00,
14404941,0240102A,true,Rx,0,8,C0,00,00,00,00,00,00,00,
14412732,02001022,true,Rx,0,8,40,00,00,01,35,90,10,43,
14415735,01200028,true,Rx,1,8,48,08,00,48,F0,00,30,2D,
14416392,00613DF8,true,Rx,0,8,03,00,00,00,00,00,00,00,
14417537,0280142A,true,Rx,0,8,40,50,00,20,07,00,00,00,
14418680,02C13428,true,Rx,0,8,00,00,08,80,00,00,20,00,
14419822,02E10DF4,true,Rx,0,8,00,A9,20,A0,90,30,08,10,
14420967,0340024C,true,Rx,0,8,40,00,00,00,04,AD,00,00,
14422102,0261300A,true,Rx,0,8,C0,00,00,27,80,00,00,C0,
14425727,0102C02C,true,Rx,1,8,40,01,C4,0C,C0,10,00,00,
14426351,01213FFC,true,Rx,0,8,4C,00,4C,00,70,01,08,00,
14427487,02A03028,true,Rx,0,8,00,90,84,01,10,00,00,00,
14433516,0140044A,true,Rx,0,8,00,00,00,08,00,00,00,00,
14436113,01E01266,true,Rx,0,8,80,00,02,00,00,00,40,00,
14437286,00613DF8,true,Rx,0,8,41,00,00,00,00,00,00,00,
14438478,01800028,true,Rx,0,8,40,00,00,00,00,00,00,00,
14439963,0240102A,true,Rx,0,8,01,00,00,00,00,00,00,00,
14441097,03A00002,true,Rx,0,8,C0,00,00,04,07,04,98,5E,
14445742,01200028,true,Rx,1,8,88,08,00,48,F0,00,30,2D,
14446327,0132C07C,true,Rx,1,8,02,50,BC,43,60,04,98,5E,
14446359,01613FFC,true,Rx,0,8,02,50,BC,43,60,04,98,5E,
14447504,0280142A,true,Rx,0,8,80,50,00,20,07,00,00,00,
14448607,01C030A2,true,Rx,0,8,40,5B,40,01,89,01,14,00,
14450730,0102C02C,true,Rx,1,8,80,01,C4,0C,C0,10,00,00,
14451359,01213FFC,true,Rx,0,8,8C,00,4C,00,70,01,08,00,
14452493,0261300A,true,Rx,0,8,00,00,00,27,80,00,00,C0,
14456400,00613DF8,true,Rx,0,8,83,00,00,00,00,00,00,00,
14457541,00400066,true,Rx,0,8,80,00,00,03,01,5E,40,7F,
14458683,02001022,true,Rx,0,8,80,00,00,01,35,90,10,43,
14461115,00608024,true,Rx,1,8,C0,00,00,00,00,01,03,3E,
14461743,02A03028,true,Rx,0,8,00,90,84,01,10,00,00,00,
14462927,03200008,true,Rx,0,8,00,00,00,00,00,80,00,00,
14471363,02C13428,true,Rx,0,8,40,00,08,80,00,00,20,00,
14472484,02E10DF4,true,Rx,0,8,40,A9,00,20,90,30,08,10,
14473646,0140044A,true,Rx,0,8,40,00,00,18,00,00,00,00,
14474977,0240102A,true,Rx,0,8,41,00,00,00,00,00,00,00,
14475824,0102C02C,true,Rx,1,8,C0,01,C4,0C,C0,10,00,00,
14476424,01200028,true,Rx,1,8,C8,00,00,48,F0,00,30,2D,
14476486,00613DF8,true,Rx,0,8,C1,00,00,00,00,00,00,00,
14477651,01213FFC,true,Rx,0,8,CC,00,4C,00,60,01,08,00,
14478839,01800028,true,Rx,0,8,80,00,00,00,00,00,00,00,
14479992,0280142A,true,Rx,0,8,C0,10,00,20,07,00,00,00,
14481161,01E01266,true,Rx,0,8,C0,00,02,00,00,00,40,00,
14482294,0261300A,true,Rx,0,8,40,00,00,27,80,00,00,C0,
14492793,01C030A2,true,Rx,0,8,80,5B,40,01,89,01,14,00,
14496355,00613DF8,true,Rx,0,8,03,00,00,00,00,00,00,00,
14497486,02A03028,true,Rx,0,8,00,90,D4,09,10,00,80,00,
14500825,0102C02C,true,Rx,1,8,00,01,C4,0C,C0,11,00,00,
14501471,01213FFC,true,Rx,0,8,0C,00,4C,00,70,41,08,00,
14502832,02001022,true,Rx,0,8,C0,00,00,01,35,90,10,43,
14505724,01200028,true,Rx,1,8,08,08,00,48,F0,00,30,2D,
14506771,0280142A,true,Rx,0,8,00,50,00,20,07,00,00,00,
14509903,0240102A,true,Rx,0,8,80,00,00,00,00,00,00,00,
14512161,0261300A,true,Rx,0,8,80,00,00,27,80,00,00,C0,
14513570,0140044A,true,Rx,0,8,80,00,00,08,00,00,00,00,
14516486,00613DF8,true,Rx,0,8,41,00,00,00,00,00,00,00,
14517668,01800028,true,Rx,0,8,C0,00,00,00,00,00,00,00,
14525714,0102C02C,true,Rx,1,8,40,01,C4,0C,C0,10,00,00,
14525936,01E01266,true,Rx,0,8,00,00,02,00,00,00,40,00,
14527073,01213FFC,true,Rx,0,8,4C,00,4C,00,70,01,08,00,
14528217,02C13428,true,Rx,0,8,80,00,08,80,00,00,20,00,
14529343,02E10DF4,true,Rx,0,8,80,A9,20,A0,90,30,08,10,
14531382,02A03028,true,Rx,0,8,00,90,84,01,10,00,00,00,
14532514,00400066,true,Rx,0,8,C0,00,00,04,01,5E,40,7F,
14533669,04000002,true,Rx,0,8,80,00,01,00,F4,00,00,4F,
14535845,00608024,true,Rx,1,8,00,00,00,00,00,01,04,3E,
14536451,01200028,true,Rx,1,8,48,08,00,48,F0,00,30,2D,
14536523,00613DF8,true,Rx,0,8,83,00,00,00,00,00,00,00,
14537678,0280142A,true,Rx,0,8,40,50,00,20,07,00,00,00,
14538794,01C030A2,true,Rx,0,8,C0,5B,40,01,89,01,14,00,
14542360,0261300A,true,Rx,0,8,C0,00,00,27,80,00,00,C0,
14544874,0240102A,true,Rx,0,8,C1,00,00,00,00,00,00,00,
14547482,02001022,true,Rx,0,8,00,00,00,01,35,90,10,43,
14550755,0102C02C,true,Rx,1,8,80,01,C4,0C,C0,30,00,00,
14551380,01213FFC,true,Rx,0,8,8C,00,4C,00,60,01,08,00,
14553532,0140044A,true,Rx,0,8,C0,00,00,08,00,00,00,00,
14556395,00613DF8,true,Rx,0,8,C1,00,00,00,00,00,00,00,
14557587,01800028,true,Rx,0,8,00,00,00,00,00,00,00,00,
14558723,03801028,true,Rx,0,8,C0,00,20,08,5C,43,00,00,
14565696,01200028,true,Rx,1,8,88,08,00,48,F0,00,30,2D,
14566332,02A03028,true,Rx,0,8,00,90,84,01,10,00,00,00,
14567487,0280142A,true,Rx,0,8,80,10,00,20,07,00,00,00,
14568672,03200008,true,Rx,0,8,00,00,00,00,00,80,00,00,
14571009,01E01266,true,Rx,0,8,40,00,02,00,00,00,40,00,
14572604,0261300A,true,Rx,0,8,00,00,00,27,80,00,00,C0,
14575818,0102C02C,true,Rx,1,8,C0,01,C4,0C,C0,10,00,00,
14576474,00613DF8,true,Rx,0,8,03,00,00,00,00,00,00,00,
14577619,01213FFC,true,Rx,0,8,CC,00,4C,00,70,01,08,00,
14579958,0240102A,true,Rx,0,8,03,00,00,00,00,00,00,00,
14581306,02C13428,true,Rx,0,8,C0,00,08,80,00,00,20,00,
14582418,02E10DF4,true,Rx,0,8,C0,A9,00,20,90,30,08,10,
14583542,01C030A2,true,Rx,0,8,00,5B,40,01,89,01,14,00,
14592741,02001022,true,Rx,0,8,40,00,00,01,35,90,10,43,
14593914,0140044A,true,Rx,0,8,00,00,00,18,00,00,00,00,
14595788,01200028,true,Rx,1,8,C8,00,00,48,F0,00,30,2D,
14596438,00613DF8,true,Rx,0,8,41,00,00,00,00,00,00,00,
14597635,01800028,true,Rx,0,8,40,00,00,00,00,00,00,00,
14598779,0280142A,true,Rx,0,8,C0,50,00,28,07,00,00,00,
14599922,0340024C,true,Rx,0,8,80,00,00,00,0C,AD,00,00,
14600922,0102C02C,true,Rx,1,8,00,01,C4,0C,C0,10,00,00,
14601562,01213FFC,true,Rx,0,8,0C,00,4C,00,60,41,08,00,
14602707,02A03028,true,Rx,0,8,00,10,44,09,10,00,00,00,
14603843,0261300A,true,Rx,0,8,40,00,00,27,80,00,00,C0,
14607783,00400066,true,Rx,0,8,00,00,00,05,01,5E,40,7F,
14610786,00608024,true,Rx,1,8,40,00,00,00,00,01,05,3E,
14612708,0360000A,true,Rx,0,8,00,00,00,00,00,14,00,80,
14614861,0240102A,true,Rx,0,8,40,00,00,00,00,00,00,00,
14616230,01E01266,true,Rx,0,8,80,00,02,00,00,00,40,00,
14617402,00613DF8,true,Rx,0,8,83,00,00,00,00,00,00,00,
14625693,0102C02C,true,Rx,1,8,40,01,C4,0C,C0,10,00,00,
14626299,01200028,true,Rx,1,8,08,08,00,48,F0,00,30,2D,
14626350,01213FFC,true,Rx,0,8,4C,00,4C,00,70,01,08,00,
14627495,0280142A,true,Rx,0,8,00,50,00,20,07,00,00,00,
14628600,01C030A2,true,Rx,0,8,40,5B,40,01,89,01,14,00,
14633192,0261300A,true,Rx,0,8,80,00,00,27,80,00,00,C0,
14634353,0140044A,true,Rx,0,8,40,00,00,08,00,00,00,00,
14636444,00613DF8,true,Rx,0,8,C1,00,00,00,00,00,00,00,
14637637,01800028,true,Rx,0,8,80,00,00,00,00,00,00,00,
14638771,02001022,true,Rx,0,8,80,00,00,01,35,90,10,43,
14639916,02A03028,true,Rx,0,8,00,90,84,01,10,00,00,00,
14641051,02C13428,true,Rx,0,8,00,00,08,80,00,00,20,00,
14642196,02E10DF4,true,Rx,0,8,00,A9,20,A0,90,30,08,10,
14649876,0240102A,true,Rx,0,8,81,00,00,00,00,00,00,00,
14650741,0102C02C,true,Rx,1,8,80,01,C4,0C,C0,10,00,00,
14651369,01213FFC,true,Rx,0,8,8C,00,4C,00,70,01,08,00,
14655729,01200028,true,Rx,1,8,48,08,00,48,F0,00,30,2D,
14656375,00613DF8,true,Rx,0,8,03,00,00,00,00,00,00,00,
14657520,0280142A,true,Rx,0,8,40,10,00,20,07,00,00,00,
14660972,01E01266,true,Rx,0,8,C0,00,06,00,00,00,40,00,
14663185,0261300A,true,Rx,0,8,C0,00,00,27,80,00,00,C0,
14671306,02A03028,true,Rx,0,8,00,90,84,01,10,00,00,00,
14672489,03200008,true,Rx,0,8,00,00,00,00,00,80,00,00,
14673650,0140044A,true,Rx,0,8,80,00,00,18,00,00,00,00,
14674755,01C030A2,true,Rx,0,8,80,5B,40,01,89,01,14,00,
14675817,0102C02C,true,Rx,1,8,C0,01,C4,0C,C0,10,00,00,
14676467,00613DF8,true,Rx,0,8,41,00,00,00,00,00,00,00,
14677622,01213FFC,true,Rx,0,8,CC,00,4C,00,60,01,08,00,
14678808,01800028,true,Rx,0,8,C0,00,00,00,00,00,00,00,
14682865,02001022,true,Rx,0,8,C0,00,00,01,35,90,10,43,
14684007,00400066,true,Rx,0,8,40,00,00,06,01,5E,40,7F,
14685170,0240102A,true,Rx,0,8,C1,00,00,00,00,00,00,00,
14685821,00608024,true,Rx,1,8,80,00,00,00,00,01,06,3E,
14686421,01200028,true,Rx,1,8,88,08,00,48,F0,00,30,2D,
14686741,0280142A,true,Rx,0,8,80,50,00,20,07,00,00,00,
14691335,02C13428,true,Rx,0,8,40,00,08,80,00,00,20,00,
14692445,02E10DF4,true,Rx,0,8,40,A9,20,A0,90,30,08,10,
14693585,0261300A,true,Rx,0,8,00,00,00,27,80,00,00,C0,
14696388,00613DF8,true,Rx,0,8,83,00,00,00,00,00,00,00,
14700919,0102C02C,true,Rx,1,8,00,01,C4,0C,C0,11,00,00,
14701565,01213FFC,true,Rx,0,8,0C,00,4C,00,70,41,08,00,
14706000,01E01266,true,Rx,0,8,00,00,02,00,00,00,40,00,
14707132,02A03028,true,Rx,0,8,00,90,C4,09,10,00,00,00,
14709851,03C0002A,true,Rx,0,8,00,00,30,C0,2D,00,1F,00,
14713524,0140044A,true,Rx,0,8,C0,00,00,08,00,00,00,00,
14715937,01200028,true,Rx,1,8,C8,00,00,CC,F0,00,30,2D,
14716582,00613DF8,true,Rx,0,8,C1,00,00,00,00,00,00,00,
14717789,01800028,true,Rx,0,8,00,00,00,00,00,00,00,00,
14718902,01C030A2,true,Rx,0,8,C0,5B,40,01,89,01,14,00,
14720085,0240102A,true,Rx,0,8,01,00,00,00,00,00,00,00,
14721222,0280142A,true,Rx,0,8,C0,50,00,20,07,00,00,00,
14723727,0261300A,true,Rx,0,8,40,00,00,27,80,00,00,C0,
14725796,0102C02C,true,Rx,1,8,40,01,C4,0C,C0,10,00,00,
14726402,0132C07C,true,Rx,1,8,1A,01,02,01,04,01,01,03,
14726444,01213FFC,true,Rx,0,8,4C,00,4C,00,70,01,08,00,
14727590,01613FFC,true,Rx,0,8,1A,01,02,01,04,01,01,03,
14728725,02001022,true,Rx,0,8,00,00,00,01,35,90,10,43,
14736322,00613DF8,true,Rx,0,8,03,00,00,00,00,00,00,00,
14741376,02A03028,true,Rx,0,8,00,90,94,01,10,00,80,00,
14745695,01200028,true,Rx,1,8,08,08,00,48,F0,00,30,2D,
14746341,02C13428,true,Rx,0,8,80,00,08,80,00,00,20,00,
14747487,0280142A,true,Rx,0,8,00,10,00,20,07,00,00,00,
14748620,02E10DF4,true,Rx,0,8,80,A9,00,20,90,30,08,10,
14750691,0102C02C,true,Rx,1,8,80,01,C4,0C,C0,10,00,00,
14751009,01E01266,true,Rx,0,8,40,00,02,00,00,00,40,00,
14752156,01213FFC,true,Rx,0,8,8C,00,4C,00,60,01,08,00,
14753569,0140044A,true,Rx,0,8,00,00,00,08,00,00,00,00,
14754702,0261300A,true,Rx,0,8,80,00,00,27,80,00,00,C0,
14755865,0240102A,true,Rx,0,8,40,00,00,00,00,00,00,00,
14757040,00613DF8,true,Rx,0,8,41,00,00,00,00,00,00,00,
14758237,01800028,true,Rx,0,8,40,00,00,00,00,00,00,00,
14759382,00400066,true,Rx,0,8,80,00,00,07,01,5E,40,7F,
14761156,00608024,true,Rx,1,8,C0,00,00,00,00,01,07,3E,
14762873,01C030A2,true,Rx,0,8,00,5B,40,01,89,01,14,00,
14772752,02001022,true,Rx,0,8,40,00,00,01,35,90,10,43,
14775743,0102C02C,true,Rx,1,8,C0,01,C4,0C,C0,10,00,00,
14776350,01200028,true,Rx,1,8,48,08,00,48,F0,00,30,2D,
14776422,00613DF8,true,Rx,0,8,83,00,00,00,00,00,00,00,
14777568,01213FFC,true,Rx,0,8,CC,00,4C,00,70,01,08,00,
14778723,0280142A,true,Rx,0,8,40,50,00,20,07,00,00,00,
14779855,02A03028,true,Rx,0,8,00,90,84,01,10,00,00,00,
14781041,03200008,true,Rx,0,8,00,00,00,00,00,80,00,00,
14782186,0340024C,true,Rx,0,8,C0,00,10,00,0C,AD,00,00,
14784296,0261300A,true,Rx,0,8,C0,00,00,27,80,00,00,C0,
14789850,0240102A,true,Rx,0,8,81,00,00,00,00,00,00,00,
14793474,0140044A,true,Rx,0,8,40,00,00,18,00,00,00,00,
14796206,01E01266,true,Rx,0,8,80,00,02,00,00,00,40,00,
14797368,00613DF8,true,Rx,0,8,C1,00,00,00,00,00,00,00,
14798550,01800028,true,Rx,0,8,80,00,00,00,00,00,00,00,
14800919,0102C02C,true,Rx,1,8,00,01,C4,0C,C0,10,00,00,
14801569,01213FFC,true,Rx,0,8,0C,00,4C,00,60,41,08,00,
14802703,02C13428,true,Rx,0,8,C0,00,08,80,00,00,20,00,
14803817,02E10DF4,true,Rx,0,8,C0,A9,20,A0,90,30,08,10,
14805693,01200028,true,Rx,1,8,88,08,00,48,F0,00,30,2D,
14806710,0280142A,true,Rx,0,8,80,50,00,28,07,00,00,00,
14807876,01C030A2,true,Rx,0,8,40,5B,40,01,89,01,14,00,
14811324,02A03028,true,Rx,0,8,00,90,C4,09,10,00,00,00,
14814398,0261300A,true,Rx,0,8,00,00,00,27,80,00,00,C0,
14816384,00613DF8,true,Rx,0,8,03,00,00,00,00,00,00,00,
14817527,02001022,true,Rx,0,8,80,00,00,01,35,90,10,43,
14824835,0240102A,true,Rx,0,8,C1,00,00,00,00,00,00,00,
14825699,0102C02C,true,Rx,1,8,40,01,C4,0C,C0,10,00,00,
14826329,01213FFC,true,Rx,0,8,4C,00,4C,00,70,01,08,00,
14833465,0140044A,true,Rx,0,8,80,00,00,08,00,00,00,00,
14834606,00400066,true,Rx,0,8,C0,00,00,00,01,5E,40,7F,
14835790,01200028,true,Rx,1,8,C8,00,00,48,F0,00,30,2D,
14836429,00613DF8,true,Rx,0,8,41,00,00,00,00,00,00,00,
14837614,01800028,true,Rx,0,8,C0,00,00,00,00,00,00,00,
14838769,0280142A,true,Rx,0,8,C0,10,00,20,07,00,00,00,
14840996,00608024,true,Rx,1,8,00,00,00,00,00,01,00,3E,
14841027,01E01266,true,Rx,0,8,C0,00,02,00,00,00,40,00,
14844351,0261300A,true,Rx,0,8,40,00,00,27,80,00,00,C0,
14846347,02A03028,true,Rx,0,8,00,90,84,01,10,00,00,00,
14850687,0102C02C,true,Rx,1,8,80,01,C4,0C,C0,10,00,00,
14851312,01213FFC,true,Rx,0,8,8C,00,4C,00,70,01,08,00,
14852875,01C030A2,true,Rx,0,8,80,5B,40,01,89,01,14,00,
14856203,03A00002,true,Rx,0,8,00,00,00,04,07,04,98,5E,
14857375,00613DF8,true,Rx,0,8,83,00,00,00,00,00,00,00,
14858520,02C13428,true,Rx,0,8,00,00,08,80,00,00,20,00,
14859655,02E10DF4,true,Rx,0,8,00,A9,00,20,90,30,08,10,
14860837,0240102A,true,Rx,0,8,00,00,00,00,00,00,00,00,
14862836,02001022,true,Rx,0,8,C0,00,00,01,35,90,10,43,
14865741,01200028,true,Rx,1,8,08,08,00,48,F0,00,30,2D,
14866720,0280142A,true,Rx,0,8,00,50,00,20,07,00,00,00,
14873506,0140044A,true,Rx,0,8,C0,00,00,18,00,00,00,00,
14874647,0261300A,true,Rx,0,8,80,00,00,27,80,00,00,C0,
14875822,0102C02C,true,Rx,1,8,C0,01,C4,0C,C0,10,00,00,
14876462,00613DF8,true,Rx,0,8,C1,00,00,00,00,00,00,00,
14877615,01213FFC,true,Rx,0,8,CC,00,4C,00,60,01,08,00,
14878822,01800028,true,Rx,0,8,00,00,00,00,00,00,00,00,
14879976,03801028,true,Rx,0,8,00,00,20,08,1C,43,00,00,
14881339,02A03028,true,Rx,0,8,00,10,04,01,10,00,00,00,
14882523,03200008,true,Rx,0,8,00,00,00,00,00,80,00,00,
14886079,01E01266,true,Rx,0,8,00,00,02,00,00,00,40,00,
14894834,0240102A,true,Rx,0,8,41,00,00,00,00,00,00,00,
14895699,01200028,true,Rx,1,8,48,08,00,48,F0,00,30,2D,
14896338,00613DF8,true,Rx,0,8,03,00,00,00,00,00,00,00,
14897492,0280142A,true,Rx,0,8,40,50,00,20,07,00,00,00,
14898617,01C030A2,true,Rx,0,8,C0,5B,40,01,89,01,14,00,
14900874,0102C02C,true,Rx,1,8,00,01,C4,0C,C0,11,00,00,
14901510,01213FFC,true,Rx,0,8,0C,00,4C,00,70,41,08,00,
14904568,0261300A,true,Rx,0,8,C0,00,00,27,80,00,00,C0,
14907589,02001022,true,Rx,0,8,00,00,00,01,35,90,10,43,
14909463,00400066,true,Rx,0,8,00,00,00,01,01,5E,40,7F,
14911376,02C13428,true,Rx,0,8,40,00,08,80,00,00,20,00,
14912497,02E10DF4,true,Rx,0,8,40,A9,20,A0,90,30,08,10,
14913669,0140044A,true,Rx,0,8,00,00,00,08,00,00,00,00,
14915844,00608024,true,Rx,1,8,40,00,00,00,00,01,01,3E,
14916504,00613DF8,true,Rx,0,8,41,00,00,00,00,00,00,00,
14917688,01800028,true,Rx,0,8,40,00,00,00,00,00,00,00,
14918825,02A03028,true,Rx,0,8,00,90,C4,09,10,00,00,00,
14925691,0102C02C,true,Rx,1,8,40,01,C4,0C,C0,10,00,00,
14926286,01200028,true,Rx,1,8,88,08,00,48,F0,00,30,2D,
14926339,01213FFC,true,Rx,0,8,4C,00,4C,00,70,01,08,00,
14927494,0280142A,true,Rx,0,8,80,10,00,20,07,00,00,00,
14929898,0240102A,true,Rx,0,8,83,00,00,00,00,00,00,00,
14931071,01E01266,true,Rx,0,8,40,00,02,00,00,00,40,00,
14934544,0261300A,true,Rx,0,8,00,00,00,27,80,00,00,C0,
14936408,00613DF8,true,Rx,0,8,83,00,00,00,00,00,00,00,
14942881,01C030A2,true,Rx,0,8,00,5B,40,01,89,01,14,00,
14950723,0102C02C,true,Rx,1,8,80,01,C4,0C,C0,10,00,00,
14951359,01213FFC,true,Rx,0,8,8C,00,4C,00,60,01,08,00,
14952495,02A03028,true,Rx,0,8,00,90,84,01,10,00,00,00,
14953658,0140044A,true,Rx,0,8,40,00,00,08,00,00,00,00,
14954790,02001022,true,Rx,0,8,40,00,00,01,35,90,10,43,
14955782,01200028,true,Rx,1,8,C8,00,00,48,F0,00,30,2D,
14956421,00613DF8,true,Rx,0,8,C1,00,00,00,00,00,00,00,
14957607,01800028,true,Rx,0,8,80,00,00,00,00,00,00,00,
14958754,0280142A,true,Rx,0,8,C1,50,00,20,07,00,00,00,
14959896,0340024C,true,Rx,0,8,00,00,00,00,04,AD,00,00,
14964521,0261300A,true,Rx,0,8,40,00,00,27,80,00,00,C0,
14965683,0240102A,true,Rx,0,8,C0,00,00,00,00,00,00,00,
14966824,02C13428,true,Rx,0,8,80,00,08,80,00,00,20,00,
14967959,02E10DF4,true,Rx,0,8,80,A9,00,20,90,30,08,10,
14975729,0102C02C,true,Rx,1,8,C0,01,C4,0C,C0,10,00,00,
14976179,01E01266,true,Rx,0,8,80,00,02,00,00,00,40,00,
14977355,00613DF8,true,Rx,0,8,03,00,00,00,00,00,00,00,
14978509,01213FFC,true,Rx,0,8,CC,00,4C,00,70,01,08,00,
14984748,00400066,true,Rx,0,8,40,00,00,02,01,5E,40,7F,
14985715,01200028,true,Rx,1,8,08,08,00,48,F0,00,30,2D,
14986355,02A03028,true,Rx,0,8,00,90,C4,09,10,00,00,00,
14987498,0280142A,true,Rx,0,8,00,50,00,28,07,00,00,00,
14988593,01C030A2,true,Rx,0,8,40,5B,40,01,89,01,14,00,
14989779,03200008,true,Rx,0,8,00,00,00,00,00,80,00,00,
14990818,00608024,true,Rx,1,8,80,00,00,00,00,01,02,3E,
14993464,0140044A,true,Rx,0,8,80,00,00,18,00,00,00,00,
14994619,04000002,true,Rx,0,8,C0,00,01,00,B4,00,00,4F,
14995753,0261300A,true,Rx,0,8,80,00,00,27,80,00,00,C0,
14996924,00613DF8,true,Rx,0,8,41,00,00,00,00,00,00,00,
14998113,01800028,true,Rx,0,8,C0,00,00,00,00,00,00,00,
14999256,02001022,true,Rx,0,8,80,00,00,01,35,90,10,43,
15000433,0240102A,true,Rx,0,8,01,00,00,00,00,00,00,00,
15001083,0102C02C,true,Rx,1,8,00,01,C4,0C,C0,10,00,00,
15001723,01213FFC,true,Rx,0,8,0C,00,4C,00,60,41,08,00,
15005749,0132C07C,true,Rx,1,8,1F,00,00,00,00,00,00,00,
15006384,01613FFC,true,Rx,0,8,1F,00,00,00,00,00,00,00,
15015691,01200028,true,Rx,1,8,48,08,00,48,F0,00,30,2D,
15016337,00613DF8,true,Rx,0,8,83,00,00,00,00,00,00,00,
15017482,0280142A,true,Rx,0,8,40,10,00,20,07,00,00,00,
15021033,01E01266,true,Rx,0,8,C0,00,02,00,00,00,40,00,
15022165,02A03028,true,Rx,0,8,00,90,94,01,10,00,80,00,
15023297,02C13428,true,Rx,0,8,C0,00,08,80,00,00,20,00,
15024411,02E10DF4,true,Rx,0,8,C0,A9,20,A0,90,30,08,10,
15025534,0261300A,true,Rx,0,8,C0,00,00,27,80,00,00,C0,
15025702,0102C02C,true,Rx,1,8,40,01,C4,0C,C0,10,00,00,
15026681,01213FFC,true,Rx,0,8,4C,00,4C,00,70,01,08,00,
15032917,01C030A2,true,Rx,0,8,80,5B,40,01,89,01,14,00,
15034079,0140044A,true,Rx,0,8,C0,00,00,08,00,00,00,00,
15035252,0240102A,true,Rx,0,8,41,00,00,00,00,00,00,00,
15036419,00613DF8,true,Rx,0,8,C1,00,00,00,00,00,00,00,
15037613,01800028,true,Rx,0,8,00,00,00,00,00,00,00,00,
15042804,02001022,true,Rx,0,8,C0,00,00,01,35,90,10,43,
15045704,01200028,true,Rx,1,8,88,08,00,48,F0,00,30,2D,
15046699,0280142A,true,Rx,0,8,80,50,00,20,07,00,00,00,
15050681,0102C02C,true,Rx,1,8,80,01,C4,0C,C0,10,00,00,
15051317,01213FFC,true,Rx,0,8,8C,00,4C,00,70,01,08,00,
15054965,0261300A,true,Rx,0,8,00,00,00,27,80,00,00,C0,
15056354,00613DF8,true,Rx,0,8,03,00,00,00,00,00,00,00,
15057485,02A03028,true,Rx,0,8,00,90,84,01,10,00,00,00,
15059811,00400066,true,Rx,0,8,80,00,00,03,01,5E,40,7F,
15065784,00608024,true,Rx,1,8,C0,00,00,00,00,01,03,3E,
15065996,01E01266,true,Rx,0,8,00,00,02,00,00,00,40,00,
15069816,0240102A,true,Rx,0,8,81,00,00,00,00,00,00,00,
15073504,0140044A,true,Rx,0,8,00,00,00,18,00,00,00,00,
15075802,0102C02C,true,Rx,1,8,C0,01,C4,0C,C0,10,00,00,
15076398,01200028,true,Rx,1,8,C8,00,00,48,F0,00,30,2D,
15076470,00613DF8,true,Rx,0,8,41,00,00,00,00,00,00,00,
15077637,01213FFC,true,Rx,0,8,CC,00,4C,00,60,01,08,00,
15078823,01800028,true,Rx,0,8,40,00,00,00,00,00,00,00,
15079944,01C030A2,true,Rx,0,8,C0,5B,40,01,89,01,14,00,
15081089,0280142A,true,Rx,0,8,C0,50,00,20,07,00,00,00,
15082233,02C13428,true,Rx,0,8,00,00,08,80,00,00,20,00,
15083369,02E10DF4,true,Rx,0,8,00,A9,00,20,90,30,08,10,
15085285,0261300A,true,Rx,0,8,40,00,00,27,80,00,00,C0,
15087551,02001022,true,Rx,0,8,00,00,00,01,35,90,10,43,
15091339,02A03028,true,Rx,0,8,00,90,C4,09,10,00,00,00,
15092522,03200008,true,Rx,0,8,00,00,00,00,00,80,00,00,
15096307,00613DF8,true,Rx,0,8,83,00,00,00,00,00,00,00,
15100753,0102C02C,true,Rx,1,8,00,01,C4,0C,C0,11,00,00,
15101397,01213FFC,true,Rx,0,8,0C,00,4C,00,70,41,08,00,
15104847,0240102A,true,Rx,0,8,C0,00,00,00,00,00,00,00,
15105681,01200028,true,Rx,1,8,08,08,00,48,F0,00,30,2D,
15106691,0280142A,true,Rx,0,8,00,10,00,20,07,00,00,00,
15111021,01E01266,true,Rx,0,8,40,00,02,00,00,00,40,00,
15113495,0140044A,true,Rx,0,8,40,00,00,08,00,00,00,00,
15115400,0261300A,true,Rx,0,8,80,00,00,27,80,00,00,C0,
15116571,00613DF8,true,Rx,0,8,C1,00,00,00,00,00,00,00,
15117754,01800028,true,Rx,0,8,80,00,00,00,00,00,00,00,
15119832,03C0002A,true,Rx,0,8,00,00,30,C0,2D,00,9F,00,
15122891,01C030A2,true,Rx,0,8,00,5B,40,01,89,01,14,00,
15125891,0102C02C,true,Rx,1,8,40,01,C4,0C,C0,10,00,00,
15126516,01213FFC,true,Rx,0,8,4C,00,4C,00,70,01,08,00,
15127662,02A03028,true,Rx,0,8,00,90,84,01,10,00,00,00,
15131338,02C13428,true,Rx,0,8,40,00,08,80,00,00,20,00,
15132449,02E10DF4,true,Rx,0,8,40,A9,20,A0,90,30,08,10,
15133580,02001022,true,Rx,0,8,40,00,00,01,35,90,10,43,
15135357,00400066,true,Rx,0,8,C0,00,00,04,01,5E,40,7F,
15135697,01200028,true,Rx,1,8,48,08,00,CC,F0,00,30,2D,
15136532,00613DF8,true,Rx,0,8,03,00,00,00,00,00,00,00,
15137676,0280142A,true,Rx,0,8,40,50,00,20,07,00,00,00,
15138821,0340024C,true,Rx,0,8,40,00,00,00,0C,AD,00,00,
15139996,0240102A,true,Rx,0,8,01,00,00,00,00,00,00,00,
15140957,00608024,true,Rx,1,8,00,00,00,00,00,01,04,3E,
15145336,0261300A,true,Rx,0,8,C0,00,00,27,80,00,00,C0,
15150702,0102C02C,true,Rx,1,8,80,01,C4,0C,C0,10,00,00,
15151336,01213FFC,true,Rx,0,8,8C,00,4C,00,60,01,08,00,
15153488,0140044A,true,Rx,0,8,80,00,00,08,00,00,00,00,
15156269,01E01266,true,Rx,0,8,80,00,06,00,00,00,40,00,
15157451,00613DF8,true,Rx,0,8,41,00,00,00,00,00,00,00,
15158638,01800028,true,Rx,0,8,C0,00,00,00,00,00,00,00,
15161496,02A03028,true,Rx,0,8,00,10,04,01,10,00,00,00,
15165671,01200028,true,Rx,1,8,88,08,00,48,F0,00,30,2D,
15166687,0280142A,true,Rx,0,8,80,50,00,20,07,00,00,00,
15167788,01C030A2,true,Rx,0,8,40,5B,40,01,89,01,14,00,
15174800,0240102A,true,Rx,0,8,41,00,00,00,00,00,00,00,
15175747,0102C02C,true,Rx,1,8,C0,01,C4,0C,C0,10,00,00,
15175943,0261300A,true,Rx,0,8,00,00,00,27,80,00,00,C0,
15177118,00613DF8,true,Rx,0,8,83,00,00,00,00,00,00,00,
15178264,01213FFC,true,Rx,0,8,CC,00,4C,00,70,01,08,00,
15179407,02001022,true,Rx,0,8,80,00,00,01,35,90,10,43,
15186328,02C13428,true,Rx,0,8,80,00,08,80,00,00,20,00,
15187448,02E10DF4,true,Rx,0,8,80,A9,20,A0,90,30,08,10,
15193440,0140044A,true,Rx,0,8,C0,00,00,18,00,00,00,00,
15195738,01200028,true,Rx,1,8,C8,00,00,48,F0,00,30,2D,
15196384,00613DF8,true,Rx,0,8,C1,00,00,00,00,00,00,00,
15197591,01800028,true,Rx,0,8,00,00,00,00,00,00,00,00,
15198724,0280142A,true,Rx,0,8,C0,10,00,28,07,00,00,00,
15199856,02A03028,true,Rx,0,8,00,90,C4,09,10,00,00,00,
15200920,0102C02C,true,Rx,1,8,00,01,C4,0C,C0,10,00,00,
15201044,03200008,true,Rx,0,8,00,00,00,00,00,80,00,00,
15202202,01213FFC,true,Rx,0,8,0C,00,4C,00,60,41,08,00,
15203367,01E01266,true,Rx,0,8,C0,00,02,00,00,00,40,00,
15204512,03801028,true,Rx,0,8,40,00,20,08,1C,43,00,00,
15205646,0261300A,true,Rx,0,8,40,00,00,27,80,00,00,C0,
15209800,0240102A,true,Rx,0,8,80,00,00,00,00,00,00,00,
15210951,00400066,true,Rx,0,8,00,00,00,05,01,5E,40,7F,
15212835,01C030A2,true,Rx,0,8,80,5B,40,01,89,01,14,00,
15215831,00608024,true,Rx,1,8,40,00,00,00,00,01,05,3E,
15216477,00613DF8,true,Rx,0,8,03,00,00,00,00,00,00,00,
15222809,02001022,true,Rx,0,8,C0,00,00,01,35,90,10,43,
15225718,0102C02C,true,Rx,1,8,40,01,C4,0C,C0,10,00,00,
15226314,01200028,true,Rx,1,8,08,08,00,48,F0,00,30,2D,
15226366,01213FFC,true,Rx,0,8,4C,00,4C,00,70,01,08,00,
15227512,0280142A,true,Rx,0,8,00,50,00,20,07,00,00,00,
15231284,02A03028,true,Rx,0,8,00,90,84,01,10,00,00,00,
15233456,0140044A,true,Rx,0,8,00,00,00,08,00,00,00,00,
15235670,0261300A,true,Rx,0,8,80,00,00,27,80,00,00,C0,
15236853,00613DF8,true,Rx,0,8,41,00,00,00,00,00,00,00,
15238045,01800028,true,Rx,0,8,40,00,00,00,00,00,00,00,
15241589,02C13428,true,Rx,0,8,C0,00,08,80,00,00,20,00,
15242709,02E10DF4,true,Rx,0,8,C0,A9,00,20,90,30,08,10,
15244830,0240102A,true,Rx,0,8,C1,00,00,00,00,00,00,00,
15246117,01E01266,true,Rx,0,8,00,00,02,00,00,00,40,00,
15250768,0102C02C,true,Rx,1,8,80,01,C4,0C,C0,10,00,00,
15251394,01213FFC,true,Rx,0,8,8C,00,4C,00,70,01,08,00,
15255683,01200028,true,Rx,1,8,48,08,00,48,F0,00,30,2D,
15256329,00613DF8,true,Rx,0,8,83,00,00,00,00,00,00,00,
15257486,0280142A,true,Rx,0,8,40,50,00,20,07,00,00,00,
15258598,01C030A2,true,Rx,0,8,C0,5B,40,01,89,01,14,00,
15265614,0261300A,true,Rx,0,8,C0,00,00,27,80,00,00,C0,
15266746,02A03028,true,Rx,0,8,00,90,94,01,10,00,80,00,
15267877,02001022,true,Rx,0,8,00,00,00,01,35,90,10,43,
15271089,03A00002,true,Rx,0,8,40,00,00,04,07,04,98,5E,
15273469,0140044A,true,Rx,0,8,40,00,00,18,00,00,00,00,
15275788,0102C02C,true,Rx,1,8,C0,01,C4,0C,C0,10,00,00,
15276423,00613DF8,true,Rx,0,8,C1,00,00,00,00,00,00,00,
15277589,01213FFC,true,Rx,0,8,CC,00,4C,00,60,01,08,00,
15278773,01800028,true,Rx,0,8,80,00,00,00,00,00,00,00,
15279926,0240102A,true,Rx,0,8,03,00,00,00,00,00,00,00,
15285726,01200028,true,Rx,1,8,88,08,00,48,F0,00,30,2D,
15285878,00400066,true,Rx,0,8,40,00,00,06,01,5E,40,7F,
15286334,0132C07C,true,Rx,1,8,01,0F,B0,56,07,E8,01,05,
15287034,01613FFC,true,Rx,0,8,01,0F,B0,56,07,E8,00,09,
15288182,0280142A,true,Rx,0,8,80,10,00,20,07,00,00,00,
15290766,00608024,true,Rx,1,8,80,00,00,00,00,01,06,3E,
15291044,01E01266,true,Rx,0,8,40,00,02,00,00,00,40,00,
15295817,0261300A,true,Rx,0,8,00,00,00,27,80,00,00,C0,
15297000,00613DF8,true,Rx,0,8,03,00,00,00,00,00,00,00,
15298143,02C13428,true,Rx,0,8,00,00,08,80,00,00,20,00,
15299277,02E10DF4,true,Rx,0,8,00,A9,20,A0,90,30,08,10,
15300967,0102C02C,true,Rx,1,8,00,01,C4,0C,C0,11,00,00,
15301607,01213FFC,true,Rx,0,8,0C,00,4C,00,70,41,08,00,
15302741,02A03028,true,Rx,0,8,00,90,C4,09,10,00,00,00,
15303855,01C030A2,true,Rx,0,8,00,5B,40,01,89,01,14,00,
15305041,03200008,true,Rx,0,8,00,00,00,00,00,80,00,00,
15312774,02001022,true,Rx,0,8,40,00,00,01,35,90,10,43,
15313935,0140044A,true,Rx,0,8,80,00,00,08,00,00,00,00,
15315088,0240102A,true,Rx,0,8,40,00,00,00,00,00,00,00,
15315761,01200028,true,Rx,1,8,C8,00,00,48,F0,00,30,2D,
15316410,00613DF8,true,Rx,0,8,41,00,00,00,00,00,00,00,
15317597,01800028,true,Rx,0,8,C0,00,00,00,00,00,00,00,
15318742,0280142A,true,Rx,0,8,C0,50,00,20,07,00,00,00,
15319876,0340024C,true,Rx,0,8,81,00,10,01,0C,AD,00,00,
15325661,0102C02C,true,Rx,1,8,40,01,C4,0C,C0,10,00,00,
15325853,0261300A,true,Rx,0,8,40,00,00,27,80,00,00,C0,
15326998,01213FFC,true,Rx,0,8,4C,00,4C,00,70,01,08,00,
15336229,01E01266,true,Rx,0,8,80,00,02,00,00,00,40,00,
15337402,00613DF8,true,Rx,0,8,83,00,00,00,00,00,00,00,
15338542,02A03028,true,Rx,0,8,00,90,84,01,10,00,00,00,
15345671,01200028,true,Rx,1,8,08,08,00,48,F0,00,30,2D,
15346656,0280142A,true,Rx,0,8,00,50,00,20,07,00,00,00,
15347776,01C030A2,true,Rx,0,8,40,5B,40,01,89,01,14,00,
15349805,0240102A,true,Rx,0,8,81,00,00,00,00,00,00,00,
15350694,0102C02C,true,Rx,1,8,80,01,C4,0C,C0,10,00,00,
15351324,01213FFC,true,Rx,0,8,8C,00,4C,00,60,01,08,00,
15352458,02C13428,true,Rx,0,8,40,00,08,80,00,00,20,00,
15353625,0140044A,true,Rx,0,8,C0,00,00,08,00,00,00,00,
15354747,02E10DF4,true,Rx,0,8,40,A9,00,20,90,30,08,10,
15356023,0261300A,true,Rx,0,8,80,00,00,27,80,00,00,C0,
15357192,00613DF8,true,Rx,0,8,C1,00,00,00,00,00,00,00,
15358397,01800028,true,Rx,0,8,00,00,00,00,00,00,00,00,
15359543,02001022,true,Rx,0,8,80,00,00,01,35,90,10,43,
15360830,00400066,true,Rx,0,8,80,00,00,07,01,5E,40,7F,
15365777,00608024,true,Rx,1,8,C0,00,00,00,00,01,07,3E,
15371327,02A03028,true,Rx,0,8,00,90,84,01,10,00,00,00,
15375700,0102C02C,true,Rx,1,8,C0,01,C4,0C,C0,10,00,00,
15376305,01200028,true,Rx,1,8,48,08,00,48,F0,00,30,2D,
15376367,00613DF8,true,Rx,0,8,03,00,00,00,00,00,00,00,
15377524,01213FFC,true,Rx,0,8,CC,00,4C,00,70,01,08,00,
15378670,0280142A,true,Rx,0,8,40,10,00,20,07,00,00,00,
15381111,01E01266,true,Rx,0,8,C0,00,02,00,00,00,40,00,
15384791,0240102A,true,Rx,0,8,C1,00,00,00,00,00,00,00,
15386077,0261300A,true,Rx,0,8,C0,00,00,27,80,00,00,C0,
15392848,01C030A2,true,Rx,0,8,80,5B,40,01,89,01,14,00,
15394020,0140044A,true,Rx,0,8,00,00,00,18,00,00,00,00,
15396390,00613DF8,true,Rx,0,8,41,00,00,00,00,00,00,00,
15397582,01800028,true,Rx,0,8,40,00,00,00,00,00,00,00,
15400847,0102C02C,true,Rx,1,8,00,01,C4,0C,C0,10,00,00,
15401483,01213FFC,true,Rx,0,8,0C,00,4C,00,60,41,08,00,
15402865,02001022,true,Rx,0,8,C0,00,00,01,35,90,10,43,
15405695,01200028,true,Rx,1,8,88,08,00,48,F0,00,30,2D,
15406319,02A03028,true,Rx,0,8,00,90,C4,09,10,00,00,00,
15407456,0280142A,true,Rx,0,8,80,50,00,28,07,00,00,00,
15408599,02C13428,true,Rx,0,8,80,00,08,80,00,00,20,00,
15409714,02E10DF4,true,Rx,0,8,80,A9,20,A0,90,30,08,10,
15410898,03200008,true,Rx,0,8,00,00,00,00,00,80,00,00,
15416333,00613DF8,true,Rx,0,8,83,00,00,00,00,00,00,00,
15417464,0261300A,true,Rx,0,8,00,00,00,27,80,00,00,C0,
15419821,0240102A,true,Rx,0,8,01,00,00,00,00,00,00,00,
15425702,0102C02C,true,Rx,1,8,40,01,C4,0C,C0,10,00,00,
15426058,01E01266,true,Rx,0,8,00,00,02,00,00,00,40,00,
15427205,01213FFC,true,Rx,0,8,4C,00,4C,00,70,01,08,00,
15433431,0140044A,true,Rx,0,8,40,00,00,08,00,00,00,00,
15435730,01200028,true,Rx,1,8,C8,00,00,48,F0,00,30,2D,
15436376,00613DF8,true,Rx,0,8,C1,00,00,00,00,00,00,00,
15437521,00400066,true,Rx,0,8,C0,00,00,00,01,5E,40,7F,
15438696,01800028,true,Rx,0,8,80,00,00,00,00,00,00,00,
15439826,01C030A2,true,Rx,0,8,C0,5B,40,01,89,01,14,00,
15440971,0280142A,true,Rx,0,8,C0,50,00,20,07,00,00,00,
15440986,00608024,true,Rx,1,8,00,00,00,00,00,01,00,3E,
15442110,02A03028,true,Rx,0,8,00,10,04,01,10,00,00,00,
15446697,0261300A,true,Rx,0,8,40,00,00,27,80,00,00,C0,
15447829,02001022,true,Rx,0,8,00,00,00,01,35,90,10,43,
15450713,0102C02C,true,Rx,1,8,80,01,C4,0C,C0,10,00,00,
15451338,01213FFC,true,Rx,0,8,8C,00,4C,00,70,01,08,00,
15453480,04000002,true,Rx,0,8,00,00,01,00,B4,00,00,4F,
15454807,0240102A,true,Rx,0,8,40,00,00,00,00,00,00,00,
15456314,00613DF8,true,Rx,0,8,03,00,00,00,00,00,00,00,
15461407,02C13428,true,Rx,0,8,C0,00,08,80,00,00,20,00,
15462529,02E10DF4,true,Rx,0,8,C0,A9,00,20,90,30,08,10,
15465663,01200028,true,Rx,1,8,08,08,00,48,F0,00,30,2D,
15466638,0280142A,true,Rx,0,8,00,10,00,20,07,00,00,00,
15471043,01E01266,true,Rx,0,8,40,00,02,00,00,00,40,00,
15473465,0140044A,true,Rx,0,8,80,00,00,18,00,00,00,00,
15475845,0102C02C,true,Rx,1,8,C0,01,C4,0C,C0,10,00,00,
15476491,00613DF8,true,Rx,0,8,41,00,00,00,00,00,00,00,
15477657,01213FFC,true,Rx,0,8,CC,00,4C,00,60,01,08,00,
15478842,01800028,true,Rx,0,8,C0,00,00,00,00,00,00,00,
15479972,0261300A,true,Rx,0,8,80,00,00,27,80,00,00,C0,
15481110,02A03028,true,Rx,0,8,00,90,84,01,10,00,00,00,
15482994,01C030A2,true,Rx,0,8,00,5B,40,01,89,01,14,00,
15489763,0240102A,true,Rx,0,8,81,00,00,00,00,00,00,00,
15492774,02001022,true,Rx,0,8,40,00,00,01,35,90,10,43,
15495716,01200028,true,Rx,1,8,48,08,00,48,F0,00,30,2D,
15496363,00613DF8,true,Rx,0,8,83,00,00,00,00,00,00,00,
15497518,0280142A,true,Rx,0,8,40,50,00,20,07,00,00,00,
15498652,0340024C,true,Rx,0,8,C1,00,00,01,0C,AD,00,00,
15500835,0102C02C,true,Rx,1,8,00,01,C4,0C,C0,11,00,00,
15501474,01213FFC,true,Rx,0,8,0C,00,4C,00,70,41,08,00,
15507381,0261300A,true,Rx,0,8,C0,00,00,27,80,00,00,C0,
15511295,02A03028,true,Rx,0,8,00,90,D4,09,10,00,80,00,
15512437,00400066,true,Rx,0,8,00,00,00,01,01,5E,40,7F,
15513609,0140044A,true,Rx,0,8,C0,00,00,08,00,00,00,00,
15514796,03200008,true,Rx,0,8,00,00,00,00,00,80,00,00,
15515817,00608024,true,Rx,1,8,40,00,00,00,00,01,01,3E,
15516354,01E01266,true,Rx,0,8,80,00,02,00,00,00,40,00,
15517518,00613DF8,true,Rx,0,8,C1,00,00,00,00,00,00,00,
15518715,01800028,true,Rx,0,8,00,00,00,00,00,00,00,00,
15519869,02C13428,true,Rx,0,8,00,00,08,80,00,00,20,00,
15521004,02E10DF4,true,Rx,0,8,00,A9,20,A0,90,30,08,10,
15522148,03801028,true,Rx,0,8,80,00,20,08,5C,43,00,00,
15524804,0240102A,true,Rx,0,8,C1,00,00,00,00,00,00,00,
15525659,0102C02C,true,Rx,1,8,40,01,C4,0C,C0,10,00,00,
15526259,01200028,true,Rx,1,8,88,08,00,48,F0,00,30,2D,
15526310,01213FFC,true,Rx,0,8,4C,00,4C,00,70,01,08,00,
15527455,0280142A,true,Rx,0,8,80,50,00,20,07,00,00,00,
15528560,01C030A2,true,Rx,0,8,40,5B,40,01,89,01,14,00,
15529816,03C0002A,true,Rx,0,8,00,00,30,C0,2D,00,1F,00,
15536509,00613DF8,true,Rx,0,8,03,00,00,00,00,00,00,00,
15537660,02001022,true,Rx,0,8,80,00,00,01,35,90,10,43,
15538792,0261300A,true,Rx,0,8,00,00,00,27,80,00,00,C0,
15546283,02A03028,true,Rx,0,8,00,90,84,01,10,00,00,00,
15550705,0102C02C,true,Rx,1,8,80,01,C4,0C,C0,10,00,00,
15551330,01213FFC,true,Rx,0,8,8C,00,4C,00,60,01,08,00,
15553482,0140044A,true,Rx,0,8,00,00,00,08,00,00,00,00,
15555727,01200028,true,Rx,1,8,C8,00,00,CC,F0,00,30,2D,
15556377,00613DF8,true,Rx,0,8,41,00,00,00,00,00,00,00,
15557571,01800028,true,Rx,0,8,40,00,00,00,00,00,00,00,
15558717,0280142A,true,Rx,0,8,C0,10,00,20,07,00,00,00,
15559891,0240102A,true,Rx,0,8,00,00,00,00,00,00,00,00,
15561157,01E01266,true,Rx,0,8,C0,00,02,00,00,00,40,00,
15565697,0132C07C,true,Rx,1,8,02,4F,BC,43,61,04,98,5E,
15566291,01613FFC,true,Rx,0,8,02,4F,BC,43,61,04,98,5E,
15567957,0261300A,true,Rx,0,8,40,00,00,27,80,00,00,C0,
15571304,02C13428,true,Rx,0,8,40,00,08,80,00,00,20,00,
15572426,02E10DF4,true,Rx,0,8,40,A9,00,20,90,30,08,10,
15573529,01C030A2,true,Rx,0,8,80,5B,40,01,89,01,14,00,
15575715,0102C02C,true,Rx,1,8,C0,01,C4,0C,C0,10,00,00,
15576361,00613DF8,true,Rx,0,8,83,00,00,00,00,00,00,00,
15577516,01213FFC,true,Rx,0,8,CC,00,4C,00,70,01,08,00,
15581535,02A03028,true,Rx,0,8,00,90,84,01,10,00,00,00,
15582902,02001022,true,Rx,0,8,C0,00,00,01,35,90,10,43,
15585684,01200028,true,Rx,1,8,08,08,00,48,F0,00,30,2D,
15586628,0280142A,true,Rx,0,8,00,50,00,28,07,00,00,00,
15587976,00400066,true,Rx,0,8,40,00,00,02,01,5E,40,7F,
15590757,00608024,true,Rx,1,8,80,00,00,00,00,01,02,3E,
15593413,0140044A,true,Rx,0,8,40,00,00,18,00,00,00,00,
15594781,0240102A,true,Rx,0,8,41,00,00,00,00,00,00,00,
15596387,00613DF8,true,Rx,0,8,C1,00,00,00,00,00,00,00,
15597574,01800028,true,Rx,0,8,80,00,00,00,00,00,00,00,
15598706,0261300A,true,Rx,0,8,80,00,00,27,80,00,00,C0,
15600982,0102C02C,true,Rx,1,8,00,01,C4,0C,C0,10,00,00,
15601622,01213FFC,true,Rx,0,8,0C,00,4C,00,60,41,08,00,
15606108,01E01266,true,Rx,0,8,00,00,02,00,00,00,40,00,
15615670,01200028,true,Rx,1,8,48,08,00,48,F0,00,30,2D,
15616316,00613DF8,true,Rx,0,8,03,00,00,00,00,00,00,00,
15617461,0280142A,true,Rx,0,8,40,50,00,20,07,00,00,00,
15618584,01C030A2,true,Rx,0,8,C0,5B,40,01,89,01,14,00,
15619719,02A03028,true,Rx,0,8,00,90,C4,09,10,00,00,00,
15620904,03200008,true,Rx,0,8,00,00,00,00,00,80,00,00,
15625654,0102C02C,true,Rx,1,8,40,01,C4,0C,C0,10,00,00,
15626280,01213FFC,true,Rx,0,8,4C,00,4C,00,70,01,08,00,
15627425,02C13428,true,Rx,0,8,80,00,08,80,00,00,20,00,
15628559,02001022,true,Rx,0,8,00,00,00,01,35,90,10,43,
15629683,0261300A,true,Rx,0,8,C0,00,00,27,80,00,00,C0,
15630847,0240102A,true,Rx,0,8,83,00,00,00,00,00,00,00,
15631968,02E10DF4,true,Rx,0,8,80,A9,20,A0,90,30,08,10,
15633413,0140044A,true,Rx,0,8,80,00,00,08,00,00,00,00,
15636396,00613DF8,true,Rx,0,8,41,00,00,00,00,00,00,00,
15637589,01800028,true,Rx,0,8,C0,00,00,00,00,00,00,00,
15645654,01200028,true,Rx,1,8,88,08,00,48,F0,00,30,2D,
15646629,0280142A,true,Rx,0,8,80,10,00,20,07,00,00,00,
15650653,0102C02C,true,Rx,1,8,80,01,C4,0C,C0,10,00,00,
15651040,01E01266,true,Rx,0,8,40,00,06,00,00,00,40,00,
15652187,01213FFC,true,Rx,0,8,8C,00,4C,00,70,01,08,00,
15653320,02A03028,true,Rx,0,8,00,90,84,01,10,00,00,00,
15656357,00613DF8,true,Rx,0,8,83,00,00,00,00,00,00,00,
15658601,0261300A,true,Rx,0,8,00,00,00,27,80,00,00,C0,
15662920,01C030A2,true,Rx,0,8,00,5B,40,01,89,01,14,00,
15664061,00400066,true,Rx,0,8,80,00,00,03,01,5E,40,7F,
15665214,0240102A,true,Rx,0,8,C0,00,00,00,00,00,00,00,
15665824,00608024,true,Rx,1,8,C0,00,00,00,00,01,03,3E,
15672789,02001022,true,Rx,0,8,40,00,00,01,35,90,10,43,
15673941,0140044A,true,Rx,0,8,C0,00,00,18,00,00,00,00,
15675775,0102C02C,true,Rx,1,8,C0,01,C4,0C,C0,10,00,00,
15676375,01200028,true,Rx,1,8,C8,00,00,48,F0,00,30,2D,
15676437,00613DF8,true,Rx,0,8,C1,00,00,00,00,00,00,00,
15677604,01213FFC,true,Rx,0,8,CC,00,4C,00,60,01,08,00,
15678800,01800028,true,Rx,0,8,00,00,00,00,00,00,00,00,
15679944,0280142A,true,Rx,0,8,C0,50,00,20,07,00,00,00,
15681095,0340024C,true,Rx,0,8,01,00,00,01,04,AD,00,00,
15682232,02C13428,true,Rx,0,8,C0,00,08,80,00,00,20,00,
15683354,02E10DF4,true,Rx,0,8,C0,A9,00,20,90,30,08,10,
15686290,02A03028,true,Rx,0,8,00,90,84,09,10,00,00,00,
15687432,03A00002,true,Rx,0,8,80,00,00,04,07,04,98,5E,
15688772,0261300A,true,Rx,0,8,40,00,00,27,80,00,00,C0,
15696255,01E01266,true,Rx,0,8,80,00,02,00,00,00,40,00,
15697438,00613DF8,true,Rx,0,8,03,00,00,00,00,00,00,00,
15699775,0240102A,true,Rx,0,8,01,00,00,00,00,00,00,00,
15700824,0102C02C,true,Rx,1,8,00,01,C4,0C,C0,11,00,00,
15701454,01213FFC,true,Rx,0,8,0C,00,4C,00,70,41,08,00,
15705676,01200028,true,Rx,1,8,08,08,00,48,F0,00,30,2D,
15706599,0280142A,true,Rx,0,8,00,50,00,20,07,00,00,00,
15707875,01C030A2,true,Rx,0,8,40,5B,40,01,89,01,14,00,
15713468,0140044A,true,Rx,0,8,00,00,00,08,00,00,00,00,
15716387,00613DF8,true,Rx,0,8,41,00,00,00,00,00,00,00,
15717580,01800028,true,Rx,0,8,40,00,00,00,00,00,00,00,
15718721,02001022,true,Rx,0,8,80,00,00,01,35,90,10,43,
15719857,0261300A,true,Rx,0,8,80,00,00,27,80,00,00,C0,
15721280,02A03028,true,Rx,0,8,00,10,44,01,10,00,00,00,
15722462,03200008,true,Rx,0,8,00,00,00,00,00,80,00,00,
15725716,0102C02C,true,Rx,1,8,40,01,C4,0C,C0,10,00,00,
15726346,01213FFC,true,Rx,0,8,4C,00,4C,00,70,01,08,00,
15734727,0240102A,true,Rx,0,8,41,00,00,00,00,00,00,00,
15735664,01200028,true,Rx,1,8,48,08,00,48,F0,00,30,2D,
15736304,00613DF8,true,Rx,0,8,83,00,00,00,00,00,00,00,
15737448,0280142A,true,Rx,0,8,40,10,00,20,07,00,00,00,
15738593,02C13428,true,Rx,0,8,00,00,08,80,00,00,20,00,
15739727,00400066,true,Rx,0,8,C0,00,00,04,01,5E,40,7F,
15740868,02E10DF4,true,Rx,0,8,00,A9,20,A0,90,30,08,10,
15742034,01E01266,true,Rx,0,8,C0,00,02,00,00,00,40,00,
15745770,00608024,true,Rx,1,8,00,00,00,00,00,01,04,3E,
15749092,0261300A,true,Rx,0,8,C0,00,00,27,80,00,00,C0,
15750679,0102C02C,true,Rx,1,8,80,01,C4,0C,C0,10,00,00,
15751304,01213FFC,true,Rx,0,8,8C,00,4C,00,60,01,08,00,
15752922,01C030A2,true,Rx,0,8,80,5B,40,01,89,01,14,00,
15754086,0140044A,true,Rx,0,8,40,00,00,08,00,00,00,00,
15756362,00613DF8,true,Rx,0,8,C1,00,00,00,00,00,00,00,
15757545,01800028,true,Rx,0,8,80,00,00,00,00,00,00,00,
15758679,02A03028,true,Rx,0,8,00,90,94,01,10,00,80,00,
15762821,02001022,true,Rx,0,8,C0,00,00,01,35,90,10,43,
15765678,01200028,true,Rx,1,8,88,08,00,48,F0,00,30,2D,
15766593,0280142A,true,Rx,0,8,80,50,00,20,07,00,00,00,
15769744,0240102A,true,Rx,0,8,81,00,00,00,00,00,00,00,
15775743,0102C02C,true,Rx,1,8,C0,01,C4,0C,C0,10,00,00,
15776398,00613DF8,true,Rx,0,8,03,00,00,00,00,00,00,00,
15777544,01213FFC,true,Rx,0,8,CC,00,4C,00,70,01,08,00,
15779131,0261300A,true,Rx,0,8,00,00,00,27,80,00,00,C0,
15786078,01E01266,true,Rx,0,8,00,00,02,00,00,00,40,00,
15791329,02A03028,true,Rx,0,8,00,90,C4,09,10,00,00,00,
15792470,02C13428,true,Rx,0,8,40,00,08,80,00,00,20,00,
15793622,0140044A,true,Rx,0,8,80,00,00,18,00,00,00,00,
15794736,02E10DF4,true,Rx,0,8,40,A9,20,A0,90,30,08,10,
15795717,01200028,true,Rx,1,8,C8,00,00,48,F0,00,30,2D,
15796366,00613DF8,true,Rx,0,8,41,00,00,00,00,00,00,00,
15797551,01800028,true,Rx,0,8,C0,00,00,00,00,00,00,00,
15798675,01C030A2,true,Rx,0,8,C0,5B,40,01,89,01,14,00,
15799819,0280142A,true,Rx,0,8,C0,50,00,28,07,00,00,00,
15800842,0102C02C,true,Rx,1,8,00,01,C4,0C,C0,10,00,00,
15801480,01213FFC,true,Rx,0,8,0C,00,4C,00,60,41,08,00,
15804785,0240102A,true,Rx,0,8,C0,00,00,00,00,00,00,00,
15807618,02001022,true,Rx,0,8,00,00,00,01,35,90,10,43,
15809470,0261300A,true,Rx,0,8,40,00,00,27,80,00,00,C0,
15814420,00400066,true,Rx,0,8,00,00,00,05,01,5E,40,7F,
15816334,00613DF8,true,Rx,0,8,83,00,00,00,00,00,00,00,
15820890,00608024,true,Rx,1,8,40,00,00,00,00,01,05,3E,
15825644,0102C02C,true,Rx,1,8,40,01,C4,0C,C0,10,00,00,
15826250,01200028,true,Rx,1,8,08,08,00,48,F0,00,30,2D,
15826302,01213FFC,true,Rx,0,8,4C,00,4C,00,70,01,08,00,
15827437,0280142A,true,Rx,0,8,00,10,00,20,07,00,00,00,
15828582,02A03028,true,Rx,0,8,00,90,84,01,10,00,00,00,
15829765,03200008,true,Rx,0,8,00,00,00,00,00,80,00,00,
15831221,01E01266,true,Rx,0,8,40,00,02,00,00,00,40,00,
15833416,0140044A,true,Rx,0,8,C0,00,00,08,00,00,00,00,
15836394,00613DF8,true,Rx,0,8,C1,00,00,00,00,00,00,00,
15837598,01800028,true,Rx,0,8,00,00,00,00,00,00,00,00,
15838740,03801028,true,Rx,0,8,C0,00,20,08,1C,43,00,00,
15839915,0240102A,true,Rx,0,8,01,00,00,00,00,00,00,00,
15841049,0261300A,true,Rx,0,8,80,00,00,27,80,00,00,C0,
15842923,01C030A2,true,Rx,0,8,00,5B,40,01,89,01,14,00,
15845746,0132C07C,true,Rx,1,8,1B,01,01,01,01,01,01,01,
15846364,01613FFC,true,Rx,0,8,1B,01,01,01,01,01,01,01,
15847508,02C13428,true,Rx,0,8,80,00,08,80,00,00,20,00,
15848629,02E10DF4,true,Rx,0,8,80,A9,00,20,90,30,08,10,
15850689,0102C02C,true,Rx,1,8,80,01,C4,0C,C0,10,00,00,
15851319,01213FFC,true,Rx,0,8,8C,00,4C,00,70,01,08,00,
15852967,02001022,true,Rx,0,8,40,00,00,01,35,90,10,43,
15855678,01200028,true,Rx,1,8,48,08,00,48,F0,00,30,2D,
15856326,00613DF8,true,Rx,0,8,03,00,00,00,00,00,00,00,
15857470,0280142A,true,Rx,0,8,40,50,00,20,07,00,00,00,
15858611,0340024C,true,Rx,0,8,40,00,10,00,0C,AD,00,00,
15861404,02A03028,true,Rx,0,8,00,90,84,01,10,00,00,00,
15869613,0261300A,true,Rx,0,8,C0,00,00,27,80,00,00,C0,
15873454,0140044A,true,Rx,0,8,00,00,00,18,00,00,00,00,
15874759,0240102A,true,Rx,0,8,41,00,00,00,00,00,00,00,
15875769,0102C02C,true,Rx,1,8,C0,01,C4,0C,C0,10,00,00,
15876367,01E01266,true,Rx,0,8,80,00,02,00,00,00,40,00,
15877541,00613DF8,true,Rx,0,8,41,00,00,00,00,00,00,00,
15878708,01213FFC,true,Rx,0,8,CC,00,4C,00,60,01,08,00,
15879902,01800028,true,Rx,0,8,40,00,00,00,00,00,00,00,
15885644,01200028,true,Rx,1,8,88,08,00,48,F0,00,30,2D,
15886578,0280142A,true,Rx,0,8,80,50,00,20,07,00,00,00,
15887801,01C030A2,true,Rx,0,8,40,5B,40,01,89,01,14,00,
15889757,00400066,true,Rx,0,8,40,00,00,06,01,5E,40,7F,
15895786,00608024,true,Rx,1,8,80,00,00,00,00,01,06,3E,
15896432,00613DF8,true,Rx,0,8,83,00,00,00,00,00,00,00,
15897577,02001022,true,Rx,0,8,80,00,00,01,35,90,10,43,
15898711,02A03028,true,Rx,0,8,00,90,C4,09,10,00,00,00,
15899923,0261300A,true,Rx,0,8,00,00,00,27,80,00,00,C0,
15900658,0102C02C,true,Rx,1,8,00,01,C4,0C,C0,11,00,00,
15901298,01213FFC,true,Rx,0,8,0C,00,4C,00,70,41,08,00,
15902433,02C13428,true,Rx,0,8,C0,00,08,80,00,00,20,00,
15903548,02E10DF4,true,Rx,0,8,C0,A9,20,A0,90,30,08,10,
15909743,0240102A,true,Rx,0,8,80,00,00,00,00,00,00,00,
15913429,0140044A,true,Rx,0,8,40,00,00,08,00,00,00,00,
15914590,04000002,true,Rx,0,8,40,00,01,00,F4,00,00,4F,
15915765,01200028,true,Rx,1,8,C8,00,00,48,F0,00,30,2D,
15916405,00613DF8,true,Rx,0,8,C1,00,00,00,00,00,00,00,
15917590,01800028,true,Rx,0,8,80,00,00,00,00,00,00,00,
15918747,0280142A,true,Rx,0,8,C0,10,00,20,07,00,00,00,
15921159,01E01266,true,Rx,0,8,C0,00,02,00,00,00,40,00,
15925662,0102C02C,true,Rx,1,8,40,01,C4,0C,C0,30,00,00,
15926287,01213FFC,true,Rx,0,8,4C,00,4C,00,70,01,08,00,
15929994,0261300A,true,Rx,0,8,40,00,00,27,80,00,00,C0,
15931261,02A03028,true,Rx,0,8,00,90,84,01,10,00,00,00,
15932445,03200008,true,Rx,0,8,00,00,00,00,00,80,00,00,
15933548,01C030A2,true,Rx,0,8,80,5B,40,01,89,01,14,00,
15936333,00613DF8,true,Rx,0,8,03,00,00,00,00,00,00,00,
15939719,03C0002A,true,Rx,0,8,00,00,30,C0,2D,00,9F,00,
15942835,02001022,true,Rx,0,8,C0,00,00,01,35,90,10,43,
15944687,0240102A,true,Rx,0,8,C1,00,00,00,00,00,00,00,
15945841,01200028,true,Rx,1,8,08,08,00,CC,F0,00,30,2D,
15946584,0280142A,true,Rx,0,8,01,50,00,20,07,00,00,00,
15950664,0102C02C,true,Rx,1,8,80,01,C4,0C,C0,10,00,00,
15951300,01213FFC,true,Rx,0,8,8C,00,4C,00,60,01,08,00,
15953431,0140044A,true,Rx,0,8,80,00,00,08,00,00,00,00,
15956366,00613DF8,true,Rx,0,8,41,00,00,00,00,00,00,00,
15957558,01800028,true,Rx,0,8,C0,00,00,00,00,00,00,00,
15958694,02C13428,true,Rx,0,8,00,00,08,80,00,00,20,00,
15959837,02E10DF4,true,Rx,0,8,00,A9,00,20,90,30,08,10,
15960969,0261300A,true,Rx,0,8,80,00,00,27,80,00,00,C0,
15964893,00400066,true,Rx,0,8,80,00,00,07,01,5E,40,7F,
15966119,01E01266,true,Rx,0,8,00,00,02,00,00,00,40,00,
15967251,02A03028,true,Rx,0,8,00,90,84,01,10,00,00,00,
15970805,00608024,true,Rx,1,8,C0,00,00,00,00,01,07,3E,
15975693,0102C02C,true,Rx,1,8,C0,01,C4,0C,C0,10,00,00,
15976299,01200028,true,Rx,1,8,48,08,00,48,F0,00,30,2D,
15976371,00613DF8,true,Rx,0,8,83,00,00,00,00,00,00,00,
15977526,01213FFC,true,Rx,0,8,CC,00,4C,00,70,01,08,00,
15978642,01C030A2,true,Rx,0,8,C0,5B,40,01,89,01,14,00,
15979803,0240102A,true,Rx,0,8,03,00,00,00,00,00,00,00,
15980959,0280142A,true,Rx,0,8,40,50,00,20,07,00,00,00,
15987536,02001022,true,Rx,0,8,00,00,00,01,35,90,10,43,
15990291,0261300A,true,Rx,0,8,C0,00,00,27,80,00,00,C0,
15993396,0140044A,true,Rx,0,8,C0,00,00,18,00,00,00,00,
15996356,00613DF8,true,Rx,0,8,C1,00,00,00,00,00,00,00,
15997558,01800028,true,Rx,0,8,00,00,00,00,00,00,00,00,
16000827,0102C02C,true,Rx,1,8,00,01,C4,0C,C0,10,00,00,
16001472,01213FFC,true,Rx,0,8,0C,00,4C,00,60,41,08,00,
16002607,02A03028,true,Rx,0,8,00,10,54,09,10,00,80,00,
16005643,01200028,true,Rx,1,8,88,08,00,48,F0,00,30,2D,
16006566,0280142A,true,Rx,0,8,80,10,00,28,07,00,00,00,
16011106,01E01266,true,Rx,0,8,40,00,02,00,00,00,40,00,
16012237,02C13428,true,Rx,0,8,40,00,08,80,00,00,20,00,
16013348,02E10DF4,true,Rx,0,8,40,A9,20,A0,90,30,08,10,
16014740,0240102A,true,Rx,0,8,40,00,00,00,00,00,00,00,
16016327,00613DF8,true,Rx,0,8,03,00,00,00,00,00,00,00,
16020474,0261300A,true,Rx,0,8,00,00,00,27,80,00,00,C0,
16022936,01C030A2,true,Rx,0,8,00,5B,40,01,89,01,14,00,
16025701,0102C02C,true,Rx,1,8,40,01,C4,0C,C0,10,00,00,
16026327,01213FFC,true,Rx,0,8,4C,00,4C,00,70,01,08,00,
16032886,02001022,true,Rx,0,8,40,00,00,01,35,90,10,43,
16034058,0140044A,true,Rx,0,8,00,00,00,08,00,00,00,00,
16035727,01200028,true,Rx,1,8,C8,00,00,48,F0,00,30,2D,
16036377,00613DF8,true,Rx,0,8,41,00,00,00,00,00,00,00,
16037571,01800028,true,Rx,0,8,40,00,00,00,00,00,00,00,
16038717,0280142A,true,Rx,0,8,C0,50,00,20,07,00,00,00,
16039850,02A03028,true,Rx,0,8,00,90,84,01,10,00,00,00,
16040992,00400066,true,Rx,0,8,C0,00,00,00,01,5E,40,7F,
16042181,03200008,true,Rx,0,8,00,00,00,00,00,80,00,00,
16043325,0340024C,true,Rx,0,8,80,00,00,00,0C,AD,00,00,
16045735,00608024,true,Rx,1,8,00,00,00,00,00,01,00,3E,
16049691,0240102A,true,Rx,0,8,81,00,00,00,00,00,00,00,
16050638,0102C02C,true,Rx,1,8,80,01,C4,0C,C0,10,00,00,
16050825,0261300A,true,Rx,0,8,40,00,00,27,80,00,00,C0,
16051968,01213FFC,true,Rx,0,8,8C,00,4C,00,70,01,08,00,
16056328,00613DF8,true,Rx,0,8,83,00,00,00,00,00,00,00,
16057489,01E01266,true,Rx,0,8,80,00,02,00,00,00,40,00,
16065639,01200028,true,Rx,1,8,08,08,00,48,F0,00,30,2D,
16066285,02C13428,true,Rx,0,8,80,00,08,80,00,00,20,00,
16067430,0280142A,true,Rx,0,8,00,50,00,20,07,00,00,00,
16068532,01C030A2,true,Rx,0,8,40,5B,40,01,89,01,14,00,
16069657,02E10DF4,true,Rx,0,8,80,A9,00,20,90,30,08,10,
16071275,02A03028,true,Rx,0,8,00,90,84,01,10,00,00,00,
16073416,0140044A,true,Rx,0,8,40,00,00,18,00,00,00,00,
16075764,0102C02C,true,Rx,1,8,C0,01,C4,0C,C0,10,00,00,
16076410,00613DF8,true,Rx,0,8,C1,00,00,00,00,00,00,00,
16077577,01213FFC,true,Rx,0,8,CC,00,4C,00,60,01,08,00,
16078761,01800028,true,Rx,0,8,80,00,00,00,00,00,00,00,
16079903,02001022,true,Rx,0,8,80,00,00,01,35,90,10,43,
16081037,0261300A,true,Rx,0,8,80,00,00,27,80,00,00,C0,
16084680,0240102A,true,Rx,0,8,C1,00,00,00,00,00,00,00,
16095642,01200028,true,Rx,1,8,48,08,00,48,F0,00,30,2D,
16096288,00613DF8,true,Rx,0,8,03,00,00,00,00,00,00,00,
16097433,0280142A,true,Rx,0,8,40,10,00,20,07,00,00,00,
16100646,0102C02C,true,Rx,1,8,00,01,C4,0C,C0,11,00,00,
16101157,01E01266,true,Rx,0,8,C0,00,02,00,00,00,40,00,
16102303,01213FFC,true,Rx,0,8,0C,00,4C,00,70,41,08,00,
16103446,03A00002,true,Rx,0,8,C0,00,00,04,07,04,98,5E,
16106288,02A03028,true,Rx,0,8,00,90,C4,09,10,00,00,00,
16111069,0261300A,true,Rx,0,8,C0,00,00,27,80,00,00,C0,
16112880,01C030A2,true,Rx,0,8,80,5B,40,01,89,01,14,00,
16114042,0140044A,true,Rx,0,8,80,00,00,08,00,00,00,00,
16115968,00400066,true,Rx,0,8,00,00,00,01,01,5E,40,7F,
16117142,00613DF8,true,Rx,0,8,41,00,00,00,00,00,00,00,
16118329,01800028,true,Rx,0,8,C0,00,00,00,00,00,00,00,
16119750,0240102A,true,Rx,0,8,01,00,00,00,00,00,00,00,
16120970,00608024,true,Rx,1,8,40,00,00,00,00,01,01,3E,
16121618,02C13428,true,Rx,0,8,C0,00,08,80,00,00,20,00,
16122722,02E10DF4,true,Rx,0,8,C0,A9,20,A0,90,30,08,10,
16123856,02001022,true,Rx,0,8,C0,00,00,01,35,90,10,43,
16125689,0102C02C,true,Rx,1,8,40,01,C4,0C,C0,10,00,00,
16126289,01200028,true,Rx,1,8,88,08,00,48,F0,00,30,2D,
16126361,01213FFC,true,Rx,0,8,4C,00,4C,00,70,01,08,00,
16126910,0132C07C,true,Rx,1,8,20,00,00,00,00,00,00,00,
16127542,01613FFC,true,Rx,0,8,20,00,00,00,00,00,00,00,
16128686,0280142A,true,Rx,0,8,80,50,00,20,07,00,00,00,
16136309,00613DF8,true,Rx,0,8,83,00,00,00,00,00,00,00,
16141208,0261300A,true,Rx,0,8,00,00,00,27,80,00,00,C0,
16142339,02A03028,true,Rx,0,8,00,90,84,01,10,00,00,00,
16143521,03200008,true,Rx,0,8,00,00,00,00,00,80,00,00,
16146209,01E01266,true,Rx,0,8,00,00,02,00,00,00,40,00,
16150709,0102C02C,true,Rx,1,8,80,01,C4,0C,C0,10,00,00,
16151334,01213FFC,true,Rx,0,8,8C,00,4C,00,60,01,08,00,
16153433,0140044A,true,Rx,0,8,C0,00,00,08,00,00,00,00,
16154753,0240102A,true,Rx,0,8,40,00,00,00,00,00,00,00,
16155703,01200028,true,Rx,1,8,C8,00,00,48,F0,00,30,2D,
16156353,00613DF8,true,Rx,0,8,C1,00,00,00,00,00,00,00,
16157548,01800028,true,Rx,0,8,00,00,00,00,00,00,00,00,
16158663,01C030A2,true,Rx,0,8,C0,5B,40,01,89,01,14,00,
16159807,0280142A,true,Rx,0,8,C0,50,00,20,07,00,00,00,
16160959,03801028,true,Rx,0,8,00,00,20,08,1C,43,00,00,
16167547,02001022,true,Rx,0,8,00,00,00,01,35,90,10,43,
16171348,0261300A,true,Rx,0,8,40,00,00,27,80,00,00,C0,
16175687,0102C02C,true,Rx,1,8,C0,01,C4,0C,C0,10,00,00,
16176343,00613DF8,true,Rx,0,8,03,00,00,00,00,00,00,00,
16177491,01213FFC,true,Rx,0,8,CC,00,4C,00,70,01,08,00,
16178624,02A03028,true,Rx,0,8,00,90,84,01,10,00,00,00,
16179777,02C13428,true,Rx,0,8,00,00,08,80,00,00,20,00,
16180912,02E10DF4,true,Rx,0,8,00,A9,00,20,90,30,08,10,
16185633,01200028,true,Rx,1,8,08,08,00,48,F0,00,30,2D,
16186536,0280142A,true,Rx,0,8,00,10,00,28,07,00,00,00,
16189698,0240102A,true,Rx,0,8,81,00,00,00,00,00,00,00,
16191161,01E01266,true,Rx,0,8,40,00,06,00,00,00,40,00,
16192292,00400066,true,Rx,0,8,40,00,00,02,01,5E,40,7F,
16193468,0140044A,true,Rx,0,8,00,00,00,18,00,00,00,00,
16195883,00608024,true,Rx,1,8,80,00,00,00,00,01,02,3E,
16196569,00613DF8,true,Rx,0,8,41,00,00,00,00,00,00,00,
16197766,01800028,true,Rx,0,8,40,00,00,00,00,00,00,00,
16200616,0102C02C,true,Rx,1,8,00,01,C4,0C,C0,10,00,00,
16201272,01213FFC,true,Rx,0,8,0C,00,4C,00,60,41,08,00,
16202407,0261300A,true,Rx,0,8,80,00,00,27,80,00,00,C0,
16203530,01C030A2,true,Rx,0,8,00,5B,40,01,89,01,14,00,
16211283,02A03028,true,Rx,0,8,00,90,C4,09,10,00,00,00,
16212805,02001022,true,Rx,0,8,40,00,00,01,35,90,10,43,
16215659,01200028,true,Rx,1,8,48,08,00,48,F0,00,30,2D,
16216305,00613DF8,true,Rx,0,8,83,00,00,00,00,00,00,00,
16217462,0280142A,true,Rx,0,8,40,50,00,20,07,00,00,00,
16218605,0340024C,true,Rx,0,8,C0,00,00,00,04,AD,00,00,
16224658,0240102A,true,Rx,0,8,C1,00,00,00,00,00,00,00,
16225646,0102C02C,true,Rx,1,8,40,01,C4,0C,C0,10,00,00,
16226275,01213FFC,true,Rx,0,8,4C,00,4C,00,70,01,08,00,
16231278,02C13428,true,Rx,0,8,40,00,08,80,00,00,20,00,
16232398,0261300A,true,Rx,0,8,C0,00,00,27,80,00,00,C0,
16233560,0140044A,true,Rx,0,8,40,00,00,08,00,00,00,00,
16234675,02E10DF4,true,Rx,0,8,40,A9,20,A0,90,30,08,10,
16236346,00613DF8,true,Rx,0,8,C1,00,00,00,00,00,00,00,
16237529,01800028,true,Rx,0,8,80,00,00,00,00,00,00,00,
16238695,01E01266,true,Rx,0,8,80,00,02,00,00,00,40,00,
16245634,01200028,true,Rx,1,8,88,08,00,48,F0,00,30,2D,
16246260,02A03028,true,Rx,0,8,00,90,94,01,10,00,80,00,
16247406,0280142A,true,Rx,0,8,80,50,00,20,07,00,00,00,
16248508,01C030A2,true,Rx,0,8,40,5B,40,01,89,01,14,00,
16249692,03200008,true,Rx,0,8,00,00,00,00,00,80,00,00,
16250653,0102C02C,true,Rx,1,8,80,01,C4,0C,C0,10,00,00,
16251283,01213FFC,true,Rx,0,8,8C,00,4C,00,70,01,08,00,
16256297,00613DF8,true,Rx,0,8,03,00,00,00,00,00,00,00,
16257706,02001022,true,Rx,0,8,80,00,00,01,35,90,10,43,
16259714,0240102A,true,Rx,0,8,00,00,00,00,00,00,00,00,
16261896,0261300A,true,Rx,0,8,00,00,00,27,80,00,00,C0,
16266874,00400066,true,Rx,0,8,80,00,00,03,01,5E,40,7F,
16270768,00608024,true,Rx,1,8,C0,00,00,00,00,01,03,3E,
16273417,0140044A,true,Rx,0,8,80,00,00,18,00,00,00,00,
16275726,0102C02C,true,Rx,1,8,C0,01,C4,0C,C0,10,00,00,
16276320,01200028,true,Rx,1,8,C8,00,00,48,F0,00,30,2D,
16276393,00613DF8,true,Rx,0,8,41,00,00,00,00,00,00,00,
16277559,01213FFC,true,Rx,0,8,CC,00,4C,00,60,01,08,00,
16278736,01800028,true,Rx,0,8,C0,00,00,00,00,00,00,00,
16279888,0280142A,true,Rx,0,8,C0,10,00,20,07,00,00,00,
16281200,02A03028,true,Rx,0,8,00,10,04,01,10,00,00,00,
16282374,01E01266,true,Rx,0,8,C0,00,02,00,00,00,40,00,
16286311,02C13428,true,Rx,0,8,80,00,08,80,00,00,20,00,
16287432,02E10DF4,true,Rx,0,8,80,A9,00,20,90,30,08,10,
16292304,0261300A,true,Rx,0,8,40,00,00,27,80,00,00,C0,
16293405,01C030A2,true,Rx,0,8,80,5B,40,01,89,01,14,00,
16294648,0240102A,true,Rx,0,8,41,00,00,00,00,00,00,00,
16296320,00613DF8,true,Rx,0,8,83,00,00,00,00,00,00,00,
16300789,0102C02C,true,Rx,1,8,00,01,C4,0C,C0,11,00,00,
16301425,01213FFC,true,Rx,0,8,0C,00,4C,00,70,41,08,00,
16302906,02001022,true,Rx,0,8,C0,00,00,01,35,90,10,43,
16305645,01200028,true,Rx,1,8,08,08,00,48,F0,00,30,2D,
16306523,0280142A,true,Rx,0,8,00,50,00,20,07,00,00,00,
16313422,0140044A,true,Rx,0,8,C0,00,00,08,00,00,00,00,
16316360,00613DF8,true,Rx,0,8,C1,00,00,00,00,00,00,00,
16317553,01800028,true,Rx,0,8,00,00,00,00,00,00,00,00,
16318694,02A03028,true,Rx,0,8,00,90,C4,09,10,00,00,00,
16322392,0261300A,true,Rx,0,8,80,00,00,27,80,00,00,C0,
16325665,0102C02C,true,Rx,1,8,40,01,C4,0C,C0,10,00,00,
16326155,01E01266,true,Rx,0,8,00,00,02,00,00,00,40,00,
16327301,01213FFC,true,Rx,0,8,4C,00,4C,00,70,01,08,00,
16329712,0240102A,true,Rx,0,8,83,00,00,00,00,00,00,00,
16335659,01200028,true,Rx,1,8,48,08,00,48,F0,00,30,2D,
16336304,00613DF8,true,Rx,0,8,03,00,00,00,00,00,00,00,
16337460,0280142A,true,Rx,0,8,40,50,00,20,07,00,00,00,
16338583,01C030A2,true,Rx,0,8,C0,5B,40,01,89,01,14,00,
16341425,02C13428,true,Rx,0,8,C0,00,08,80,00,00,20,00,
16342567,00400066,true,Rx,0,8,C0,00,00,04,01,5E,40,7F,
16343671,02E10DF4,true,Rx,0,8,C0,A9,20,A0,90,30,08,10,
16345723,00608024,true,Rx,1,8,00,00,00,00,00,01,04,3E,
16347604,02001022,true,Rx,0,8,00,00,00,01,35,90,10,43,
16349673,03C0002A,true,Rx,0,8,00,00,30,C0,2D,00,1F,00,
16350682,0102C02C,true,Rx,1,8,80,01,C4,0C,C0,10,00,00,
16351311,01213FFC,true,Rx,0,8,8C,00,4C,00,60,01,08,00,
16352434,0261300A,true,Rx,0,8,C0,00,00,27,80,00,00,C0,
16353611,0140044A,true,Rx,0,8,00,00,00,08,00,00,00,00,
16354754,02A03028,true,Rx,0,8,00,90,84,01,10,00,00,00,
16355937,03200008,true,Rx,0,8,00,00,00,00,00,80,00,00,
16357114,00613DF8,true,Rx,0,8,41,00,00,00,00,00,00,00,
16358300,01800028,true,Rx,0,8,40,00,00,00,00,00,00,00,
16364639,0240102A,true,Rx,0,8,C0,00,00,00,00,00,00,00,
16365618,01200028,true,Rx,1,8,88,08,00,CC,F0,00,30,2D,
16366525,0280142A,true,Rx,0,8,80,10,00,20,07,00,00,00,
16371166,01E01266,true,Rx,0,8,40,00,02,00,00,00,40,00,
16373411,04000002,true,Rx,0,8,80,00,01,00,B4,00,00,4F,
16375740,0102C02C,true,Rx,1,8,C0,01,C4,0C,C0,10,00,00,
16376386,00613DF8,true,Rx,0,8,83,00,00,00,00,00,00,00,
16377541,01213FFC,true,Rx,0,8,CC,00,4C,00,70,01,08,00,
16382720,0261300A,true,Rx,0,8,00,00,00,27,80,00,00,C0,
16383840,01C030A2,true,Rx,0,8,00,5B,40,01,89,01,14,00,
16386301,02A03028,true,Rx,0,8,00,90,C4,09,10,00,00,00,
16392813,02001022,true,Rx,0,8,40,00,00,01,35,90,10,43,
16393974,0140044A,true,Rx,0,8,40,00,00,18,00,00,00,00,
16395716,01200028,true,Rx,1,8,C8,00,00,48,F0,00,30,2D,
16396356,00613DF8,true,Rx,0,8,C1,00,00,00,00,00,00,00,
16397541,01800028,true,Rx,0,8,80,00,00,00,00,00,00,00,
16398687,0280142A,true,Rx,0,8,C0,50,00,28,07,00,00,00,
16399861,0240102A,true,Rx,0,8,01,00,00,00,00,00,00,00,
16400884,0102C02C,true,Rx,1,8,00,01,C4,0C,C0,10,00,00,
16401007,02C13428,true,Rx,0,8,00,00,08,80,00,00,20,00,
16402164,01213FFC,true,Rx,0,8,0C,00,4C,00,60,41,08,00,
16403298,02E10DF4,true,Rx,0,8,00,A9,20,A0,90,30,08,10,
16404443,0340024C,true,Rx,0,8,00,00,10,00,0C,AD,00,00,
16405652,0132C07C,true,Rx,1,8,01,0F,B0,56,07,F2,FE,FA,
16406271,01613FFC,true,Rx,0,8,01,0F,B0,56,07,F2,FF,F6,
16412908,0261300A,true,Rx,0,8,40,00,00,27,80,00,00,C0,
16416284,00613DF8,true,Rx,0,8,03,00,00,00,00,00,00,00,
16417456,01E01266,true,Rx,0,8,80,00,02,00,00,00,40,00,
16418618,00400066,true,Rx,0,8,00,00,00,05,01,5E,40,7F,
16420925,00608024,true,Rx,1,8,40,00,00,00,00,01,05,3E,
16421554,02A03028,true,Rx,0,8,00,90,84,01,10,00,00,00,
16425623,0102C02C,true,Rx,1,8,40,01,C4,0C,C0,10,00,00,
16426217,01200028,true,Rx,1,8,08,08,00,48,F0,00,30,2D,
16426280,01213FFC,true,Rx,0,8,4C,00,4C,00,70,01,08,00,
16427425,0280142A,true,Rx,0,8,00,50,00,20,07,00,00,00,
16428529,01C030A2,true,Rx,0,8,40,5B,40,01,89,01,14,00,
16433370,0140044A,true,Rx,0,8,80,00,00,08,00,00,00,00,
16434675,0240102A,true,Rx,0,8,41,00,00,00,00,00,00,00,
16436354,00613DF8,true,Rx,0,8,41,00,00,00,00,00,00,00,
16437536,01800028,true,Rx,0,8,C0,00,00,00,00,00,00,00,
16438682,02001022,true,Rx,0,8,80,00,00,01,35,90,10,43,
16443248,0261300A,true,Rx,0,8,80,00,00,27,80,00,00,C0,
16450665,0102C02C,true,Rx,1,8,80,01,C4,0C,C0,10,00,00,
16451290,01213FFC,true,Rx,0,8,8C,00,4C,00,70,01,08,00,
16452426,02C13428,true,Rx,0,8,40,00,08,80,00,00,20,00,
16453548,02E10DF4,true,Rx,0,8,40,A9,00,20,90,30,08,10,
16455629,01200028,true,Rx,1,8,48,08,00,48,F0,00,30,2D,
16456279,00613DF8,true,Rx,0,8,83,00,00,00,00,00,00,00,
16457423,0280142A,true,Rx,0,8,40,10,00,20,07,00,00,00,
16458559,02A03028,true,Rx,0,8,00,90,84,01,10,00,00,00,
16459743,03200008,true,Rx,0,8,00,00,00,00,00,80,00,00,
16461276,01E01266,true,Rx,0,8,C0,00,02,00,00,00,40,00,
16469638,0240102A,true,Rx,0,8,81,00,00,00,00,00,00,00,
16472898,01C030A2,true,Rx,0,8,80,5B,40,01,89,01,14,00,
16474061,0140044A,true,Rx,0,8,C0,00,00,18,00,00,00,00,
16475193,0261300A,true,Rx,0,8,C0,00,00,27,80,00,00,C0,
16475793,0102C02C,true,Rx,1,8,C0,01,C4,0C,C0,10,00,00,
16476433,00613DF8,true,Rx,0,8,C1,00,00,00,00,00,00,00,
16477588,01213FFC,true,Rx,0,8,CC,00,4C,00,60,01,08,00,
16478796,01800028,true,Rx,0,8,00,00,00,00,00,00,00,00,
16479939,03801028,true,Rx,0,8,40,00,20,08,1C,43,00,00,
16482945,02001022,true,Rx,0,8,C0,00,00,01,35,90,10,43,
16485649,01200028,true,Rx,1,8,88,08,00,48,F0,00,30,2D,
16486501,0280142A,true,Rx,0,8,80,50,00,20,07,00,00,00,
16491259,02A03028,true,Rx,0,8,00,90,C4,09,10,00,00,00,
16493390,00400066,true,Rx,0,8,40,00,00,06,01,5E,40,7F,
16495771,00608024,true,Rx,1,8,80,00,00,00,00,01,06,3E,
16496427,00613DF8,true,Rx,0,8,03,00,00,00,00,00,00,00,
16500614,0102C02C,true,Rx,1,8,00,01,C4,0C,C0,11,00,00,
16501250,01213FFC,true,Rx,0,8,0C,00,4C,00,70,41,08,00,
16503524,0261300A,true,Rx,0,8,00,00,00,27,80,00,00,C0,
16504687,0240102A,true,Rx,0,8,C0,00,00,00,00,00,00,00,
16506276,01E01266,true,Rx,0,8,00,00,02,00,00,00,40,00,
16507419,02C13428,true,Rx,0,8,80,00,08,80,00,00,20,00,
16508545,02E10DF4,true,Rx,0,8,80,A9,20,A0,90,30,08,10,
16513413,0140044A,true,Rx,0,8,00,00,00,08,00,00,00,00,
16515690,01200028,true,Rx,1,8,C8,00,00,48,F0,00,30,2D,
16516131,03A00002,true,Rx,0,8,00,00,00,04,07,04,98,5E,
16517306,00613DF8,true,Rx,0,8,41,00,00,00,00,00,00,00,
16518491,01800028,true,Rx,0,8,40,00,00,00,00,00,00,00,
16519616,01C030A2,true,Rx,0,8,C0,5B,40,01,89,01,14,00,
16520760,0280142A,true,Rx,0,8,C0,50,00,20,07,00,00,00,
16525674,0102C02C,true,Rx,1,8,40,01,C4,0C,C0,10,00,00,
16526300,01213FFC,true,Rx,0,8,4C,00,4C,00,70,01,08,00,
16527434,02A03028,true,Rx,0,8,00,90,94,01,10,00,80,00,
16528568,02001022,true,Rx,0,8,00,00,00,01,35,90,10,43,
16533490,0261300A,true,Rx,0,8,40,00,00,27,80,00,00,C0,
16536275,00613DF8,true,Rx,0,8,83,00,00,00,00,00,00,00,
16539680,0240102A,true,Rx,0,8,01,00,00,00,00,00,00,00,
16545639,01200028,true,Rx,1,8,08,08,00,48,F0,00,30,2D,
16546490,0280142A,true,Rx,0,8,00,10,00,20,07,00,00,00,
16550617,0102C02C,true,Rx,1,8,80,01,C4,0C,C0,10,00,00,
16551160,01E01266,true,Rx,0,8,40,00,02,00,00,00,40,00,
16552306,01213FFC,true,Rx,0,8,8C,00,4C,00,60,01,08,00,
16553459,0140044A,true,Rx,0,8,40,00,00,08,00,00,00,00,
16556363,00613DF8,true,Rx,0,8,C1,00,00,00,00,00,00,00,
16557555,01800028,true,Rx,0,8,80,00,00,00,00,00,00,00,
16561526,02A03028,true,Rx,0,8,00,10,04,01,10,00,00,00,
16562667,02C13428,true,Rx,0,8,C0,00,08,80,00,00,20,00,
16563778,01C030A2,true,Rx,0,8,00,5B,40,01,89,01,14,00,
16564923,0261300A,true,Rx,0,8,80,00,00,27,80,00,00,C0,
16566036,02E10DF4,true,Rx,0,8,C0,A9,00,20,90,30,08,10,
16567223,03200008,true,Rx,0,8,00,00,00,00,00,80,00,00,
16568542,00400066,true,Rx,0,8,80,00,00,07,01,5E,40,7F,
16570787,00608024,true,Rx,1,8,C0,00,00,00,00,01,07,3E,
16572864,02001022,true,Rx,0,8,40,00,00,01,35,90,10,43,
16574625,0240102A,true,Rx,0,8,41,00,00,00,00,00,00,00,
16575675,0102C02C,true,Rx,1,8,C0,01,C4,0C,C0,10,00,00,
16576275,01200028,true,Rx,1,8,48,08,00,48,F0,00,30,2D,
16576347,00613DF8,true,Rx,0,8,03,00,00,00,00,00,00,00,
16577492,01213FFC,true,Rx,0,8,CC,00,4C,00,70,01,08,00,
16578650,0280142A,true,Rx,0,8,40,50,00,20,07,00,00,00,
16579781,0340024C,true,Rx,0,8,40,00,00,00,0C,AD,00,00,
16593354,0140044A,true,Rx,0,8,80,00,00,18,00,00,00,00,
16594476,0261300A,true,Rx,0,8,C0,00,00,27,80,00,00,C0,
16596307,00613DF8,true,Rx,0,8,41,00,00,00,00,00,00,00,
16597499,01800028,true,Rx,0,8,C0,00,00,00,00,00,00,00,
16598666,01E01266,true,Rx,0,8,80,00,02,00,00,00,40,00,
16599798,02A03028,true,Rx,0,8,00,90,C4,09,10,00,00,00,
16600874,0102C02C,true,Rx,1,8,00,01,C4,0C,C0,10,00,00,
16601511,01213FFC,true,Rx,0,8,0C,00,4C,00,60,41,08,00,
16605612,01200028,true,Rx,1,8,88,08,00,48,F0,00,30,2D,
16606474,0280142A,true,Rx,0,8,80,50,00,28,07,00,00,00,
16607924,01C030A2,true,Rx,0,8,40,5B,40,01,89,01,14,00,
16609647,0240102A,true,Rx,0,8,80,00,00,00,00,00,00,00,
16616312,00613DF8,true,Rx,0,8,83,00,00,00,00,00,00,00,
16617453,02C13428,true,Rx,0,8,00,00,08,80,00,00,20,00,
16618595,02001022,true,Rx,0,8,80,00,00,01,35,90,10,43,
16619740,02E10DF4,true,Rx,0,8,00,A9,20,A0,90,30,08,10,
16623643,0261300A,true,Rx,0,8,00,00,00,27,80,00,00,C0,
16625651,0102C02C,true,Rx,1,8,40,01,C4,0C,C0,10,00,00,
16626287,01213FFC,true,Rx,0,8,4C,00,4C,00,70,01,08,00,
16631271,02A03028,true,Rx,0,8,00,90,84,01,10,00,00,00,
16633360,0140044A,true,Rx,0,8,C0,00,00,08,00,00,00,00,
16635679,01200028,true,Rx,1,8,C8,00,00,48,F0,00,30,2D,
16636325,00613DF8,true,Rx,0,8,C1,00,00,00,00,00,00,00,
16637522,01800028,true,Rx,0,8,00,00,00,00,00,00,00,00,
16638675,0280142A,true,Rx,0,8,C0,10,00,20,07,00,00,00,
16641229,01E01266,true,Rx,0,8,C0,00,02,00,00,00,40,00,
16643525,00400066,true,Rx,0,8,C0,00,00,00,01,5E,40,7F,
16644688,0240102A,true,Rx,0,8,C1,00,00,00,00,00,00,00,
16645732,00608024,true,Rx,1,8,00,00,00,00,00,01,00,3E,
16650643,0102C02C,true,Rx,1,8,80,01,C4,0C,C0,10,00,00,
16651269,01213FFC,true,Rx,0,8,8C,00,4C,00,70,01,08,00,
16652965,01C030A2,true,Rx,0,8,80,5B,40,01,89,01,14,00,
16654101,0261300A,true,Rx,0,8,40,00,00,27,80,00,00,C0,
16656296,00613DF8,true,Rx,0,8,03,00,00,00,00,00,00,00,
16662861,02001022,true,Rx,0,8,C0,00,00,01,35,90,10,43,
16665635,01200028,true,Rx,1,8,08,08,00,48,F0,00,30,2D,
16666271,02A03028,true,Rx,0,8,00,90,84,01,10,00,00,00,
16667417,0280142A,true,Rx,0,8,00,50,00,20,07,00,00,00,
16668601,03200008,true,Rx,0,8,00,00,00,00,00,80,00,00,
16671228,02C13428,true,Rx,0,8,40,00,08,80,00,00,20,00,
16672349,02E10DF4,true,Rx,0,8,40,A9,00,20,90,30,08,10,
16673525,0140044A,true,Rx,0,8,00,00,00,18,00,00,00,00,
16675743,0102C02C,true,Rx,1,8,C0,01,C4,0C,C0,10,00,00,
16676389,00613DF8,true,Rx,0,8,41,00,00,00,00,00,00,00,
16677555,01213FFC,true,Rx,0,8,CC,00,4C,00,60,01,08,00,
16678739,01800028,true,Rx,0,8,40,00,00,00,00,00,00,00,
16679902,0240102A,true,Rx,0,8,03,00,00,00,00,00,00,00,
16683805,0261300A,true,Rx,0,8,80,00,00,27,80,00,00,C0,
16686237,01E01266,true,Rx,0,8,00,00,06,00,00,00,40,00,
16686514,0132C07C,true,Rx,1,8,05,00,3E,9A,00,02,07,A8,
16687380,01613FFC,true,Rx,0,8,05,00,3E,9A,00,02,07,A8,
16695623,01200028,true,Rx,1,8,48,08,00,48,F0,00,30,2D,
16696269,00613DF8,true,Rx,0,8,83,00,00,00,00,00,00,00,
16697426,0280142A,true,Rx,0,8,40,50,00,20,07,00,00,00,
16698538,01C030A2,true,Rx,0,8,C0,5B,40,01,89,01,14,00,
16700783,0102C02C,true,Rx,1,8,00,01,C4,0C,C0,11,00,00,
16701402,01213FFC,true,Rx,0,8,0C,00,4C,00,70,41,08,00,
16702545,02A03028,true,Rx,0,8,00,90,C4,09,10,00,00,00,
16707655,02001022,true,Rx,0,8,00,00,00,01,35,90,10,43,
16713384,0140044A,true,Rx,0,8,40,00,00,08,00,00,00,00,
16714515,0261300A,true,Rx,0,8,C0,00,00,27,80,00,00,C0,
16715667,0240102A,true,Rx,0,8,40,00,00,00,00,00,00,00,
16716843,00613DF8,true,Rx,0,8,C1,00,00,00,00,00,00,00,
16718018,01800028,true,Rx,0,8,80,00,00,00,00,00,00,00,
16719166,00400066,true,Rx,0,8,00,00,00,01,01,5E,40,7F,
16720948,00608024,true,Rx,1,8,40,00,00,00,00,01,01,3E,
16725627,0102C02C,true,Rx,1,8,40,01,C4,0C,C0,10,00,00,
16726234,01200028,true,Rx,1,8,88,08,00,48,F0,00,30,2D,
16726285,01213FFC,true,Rx,0,8,4C,00,4C,00,70,01,08,00,
16727442,0280142A,true,Rx,0,8,80,10,00,20,07,00,00,00,
16728587,02C13428,true,Rx,0,8,80,00,08,80,00,00,20,00,
16729709,02E10DF4,true,Rx,0,8,80,A9,20,A0,90,30,08,10,
16731287,01E01266,true,Rx,0,8,40,00,02,00,00,00,40,00,
16736299,00613DF8,true,Rx,0,8,03,00,00,00,00,00,00,00,
16737431,02A03028,true,Rx,0,8,00,90,94,01,10,00,80,00,
16742976,01C030A2,true,Rx,0,8,00,5B,40,01,89,01,14,00,
16744108,0261300A,true,Rx,0,8,00,00,00,27,80,00,00,C0,
16749603,0240102A,true,Rx,0,8,81,00,00,00,00,00,00,00,
16750652,0102C02C,true,Rx,1,8,80,01,C4,0C,C0,10,00,00,
16751282,01213FFC,true,Rx,0,8,8C,00,4C,00,60,01,08,00,
16752889,02001022,true,Rx,0,8,40,00,00,01,35,90,10,43,
16754050,0140044A,true,Rx,0,8,80,00,00,08,00,00,00,00,
16755730,01200028,true,Rx,1,8,C8,00,00,48,F0,00,30,2D,
16756378,00613DF8,true,Rx,0,8,41,00,00,00,00,00,00,00,
16757555,01800028,true,Rx,0,8,C0,00,00,00,00,00,00,00,
16758700,0280142A,true,Rx,0,8,C0,50,00,20,07,00,00,00,
16759842,0340024C,true,Rx,0,8,81,00,10,01,0C,AD,00,00,
16760966,03C0002A,true,Rx,0,8,00,00,30,C0,2D,00,9F,00,
16771224,02A03028,true,Rx,0,8,00,90,84,01,10,00,00,00,
16772406,03200008,true,Rx,0,8,00,00,00,00,00,80,00,00,
16774051,0261300A,true,Rx,0,8,40,00,00,27,80,00,00,C0,
16775668,0102C02C,true,Rx,1,8,C0,01,C4,0C,C0,10,00,00,
16776318,00613DF8,true,Rx,0,8,83,00,00,00,00,00,00,00,
16777473,01213FFC,true,Rx,0,8,CC,00,4C,00,70,01,08,00,
16778639,01E01266,true,Rx,0,8,80,00,02,00,00,00,40,00,
16781546,02C13428,true,Rx,0,8,C0,00,08,80,00,00,20,00,
16782667,02E10DF4,true,Rx,0,8,C0,A9,00,20,90,30,08,10,
16784643,0240102A,true,Rx,0,8,C1,00,00,00,00,00,00,00,
16785610,01200028,true,Rx,1,8,08,08,00,CC,F0,00,30,2D,
16786467,0280142A,true,Rx,0,8,00,50,00,28,07,00,00,00,
16787887,01C030A2,true,Rx,0,8,40,5B,40,01,89,01,14,00,
16793348,0140044A,true,Rx,0,8,C0,00,00,18,00,00,00,00,
16794479,00400066,true,Rx,0,8,40,00,00,02,01,5E,40,7F,
16796361,00613DF8,true,Rx,0,8,C1,00,00,00,00,00,00,00,
16797555,01800028,true,Rx,0,8,00,00,00,00,00,00,00,00,
16798700,02001022,true,Rx,0,8,80,00,00,01,35,90,10,43,
16799845,03801028,true,Rx,0,8,80,00,20,08,5C,43,00,00,
16800713,00608024,true,Rx,1,8,80,00,00,00,00,01,02,3E,
16801324,0102C02C,true,Rx,1,8,00,01,C4,0C,C0,10,00,00,
16801386,01213FFC,true,Rx,0,8,0C,00,4C,00,60,41,08,00,
16804208,0261300A,true,Rx,0,8,80,00,00,27,80,00,00,C0,
16806255,02A03028,true,Rx,0,8,00,90,C4,09,10,00,00,00,
16815612,01200028,true,Rx,1,8,48,08,00,48,F0,00,30,2D,
16816258,00613DF8,true,Rx,0,8,03,00,00,00,00,00,00,00,
16817404,0280142A,true,Rx,0,8,40,10,00,20,07,00,00,00,
16819660,0240102A,true,Rx,0,8,01,00,00,00,00,00,00,00,
16821286,01E01266,true,Rx,0,8,C0,00,02,00,00,00,40,00,
16825646,0102C02C,true,Rx,1,8,40,01,C4,0C,C0,10,00,00,
16826280,01213FFC,true,Rx,0,8,4C,00,4C,00,70,01,08,00,
16832995,01C030A2,true,Rx,0,8,80,5B,40,01,89,01,14,00,
16834179,0140044A,true,Rx,0,8,00,00,00,08,00,00,00,00,
16835300,0261300A,true,Rx,0,8,C0,00,00,27,80,00,00,C0,
16836476,00613DF8,true,Rx,0,8,41,00,00,00,00,00,00,00,
16837671,01800028,true,Rx,0,8,40,00,00,00,00,00,00,00,
16838816,02C13428,true,Rx,0,8,00,00,08,80,00,00,20,00,
16839949,02E10DF4,true,Rx,0,8,00,A9,20,A0,90,30,08,10,
16841103,04000002,true,Rx,0,8,C0,00,01,00,F4,00,00,4F,
16842238,02A03028,true,Rx,0,8,00,10,04,01,10,00,00,00,
16843372,02001022,true,Rx,0,8,C0,00,00,01,35,90,10,43,
16845678,01200028,true,Rx,1,8,88,08,00,48,F0,00,30,2D,
16846452,0280142A,true,Rx,0,8,80,50,00,20,07,00,00,00,
16850603,0102C02C,true,Rx,1,8,80,01,C4,0C,C0,30,00,00,
16851228,01213FFC,true,Rx,0,8,8C,00,4C,00,70,01,08,00,
16854636,0240102A,true,Rx,0,8,40,00,00,00,00,00,00,00,
16856274,00613DF8,true,Rx,0,8,83,00,00,00,00,00,00,00,
16864281,0261300A,true,Rx,0,8,00,00,00,27,80,00,00,C0,
16866277,01E01266,true,Rx,0,8,00,00,02,00,00,00,40,00,
16869196,00400066,true,Rx,0,8,80,00,00,03,01,5E,40,7F,
16870801,00608024,true,Rx,1,8,C0,00,00,00,00,01,03,3E,
16873365,0140044A,true,Rx,0,8,40,00,00,18,00,00,00,00,
16875695,0102C02C,true,Rx,1,8,C0,01,C4,0C,C0,10,00,00,
16876301,01200028,true,Rx,1,8,C8,00,00,48,F0,00,30,2D,
16876373,00613DF8,true,Rx,0,8,C1,00,00,00,00,00,00,00,
16877528,01213FFC,true,Rx,0,8,CC,00,4C,00,60,01,08,00,
16878716,01800028,true,Rx,0,8,80,00,00,00,00,00,00,00,
16879836,01C030A2,true,Rx,0,8,C0,5B,40,01,89,01,14,00,
16880982,0280142A,true,Rx,0,8,C0,50,00,20,07,00,00,00,
16882116,02A03028,true,Rx,0,8,00,90,84,01,10,00,00,00,
16883293,03200008,true,Rx,0,8,00,00,00,00,00,80,00,00,
16887579,02001022,true,Rx,0,8,00,00,00,01,35,90,10,43,
16889586,0240102A,true,Rx,0,8,81,00,00,00,00,00,00,00,
16891243,02C13428,true,Rx,0,8,40,00,08,80,00,00,20,00,
16892353,02E10DF4,true,Rx,0,8,40,A9,20,A0,90,30,08,10,
16894494,0261300A,true,Rx,0,8,40,00,00,27,80,00,00,C0,
16896255,00613DF8,true,Rx,0,8,03,00,00,00,00,00,00,00,
16900741,0102C02C,true,Rx,1,8,00,01,C4,0C,C0,11,00,00,
16901376,01213FFC,true,Rx,0,8,0C,00,4C,00,70,41,08,00,
16905605,01200028,true,Rx,1,8,08,08,00,48,F0,00,30,2D,
16906446,0280142A,true,Rx,0,8,00,10,00,20,07,00,00,00,
16911204,01E01266,true,Rx,0,8,40,00,02,00,00,00,40,00,
16912335,02A03028,true,Rx,0,8,00,90,C4,09,10,00,00,00,
16913497,0140044A,true,Rx,0,8,80,00,00,08,00,00,00,00,
16916360,00613DF8,true,Rx,0,8,41,00,00,00,00,00,00,00,
16917542,01800028,true,Rx,0,8,C0,00,00,00,00,00,00,00,
16922979,01C030A2,true,Rx,0,8,00,5B,40,01,89,01,14,00,
16924471,0261300A,true,Rx,0,8,80,00,00,27,80,00,00,C0,
16925644,0240102A,true,Rx,0,8,C1,00,00,00,00,00,00,00,
16925658,0102C02C,true,Rx,1,8,40,01,C4,0C,C0,10,00,00,
16926781,01213FFC,true,Rx,0,8,4C,00,4C,00,70,01,08,00,
16931270,03A00002,true,Rx,0,8,40,00,00,04,07,04,98,5E,
16932915,02001022,true,Rx,0,8,40,00,00,01,35,90,10,43,
16935649,01200028,true,Rx,1,8,48,08,00,48,F0,00,30,2D,
16936295,00613DF8,true,Rx,0,8,83,00,00,00,00,00,00,00,
16937450,0280142A,true,Rx,0,8,40,50,00,20,07,00,00,00,
16938584,0340024C,true,Rx,0,8,C1,00,00,01,04,AD,00,00,
16944440,00400066,true,Rx,0,8,C0,00,00,04,01,5E,40,7F,
16946231,02A03028,true,Rx,0,8,00,90,84,01,10,00,00,00,
16947382,02C13428,true,Rx,0,8,80,00,08,80,00,00,20,00,
16948503,02E10DF4,true,Rx,0,8,80,A9,00,20,90,30,08,10,
16950696,00608024,true,Rx,1,8,00,00,00,00,00,01,04,3E,
16951306,0102C02C,true,Rx,1,8,80,01,C4,0C,C0,10,00,00,
16951358,01213FFC,true,Rx,0,8,8C,00,4C,00,60,01,08,00,
16953380,0140044A,true,Rx,0,8,C0,00,00,08,00,00,00,00,
16954749,0261300A,true,Rx,0,8,C0,00,00,27,80,00,00,C0,
16956287,00613DF8,true,Rx,0,8,C1,00,00,00,00,00,00,00,
16957492,01800028,true,Rx,0,8,00,00,00,00,00,00,00,00,
16958654,01E01266,true,Rx,0,8,80,00,02,00,00,00,40,00,
16959840,0240102A,true,Rx,0,8,00,00,00,00,00,00,00,00,
16965631,01200028,true,Rx,1,8,88,08,00,48,F0,00,30,2D,
16966248,0132C07C,true,Rx,1,8,1C,01,04,00,00,00,00,00,
16966310,01613FFC,true,Rx,0,8,1C,01,04,00,00,00,00,00,
16967455,0280142A,true,Rx,0,8,81,50,00,20,07,00,00,00,
16968560,01C030A2,true,Rx,0,8,40,5B,40,01,89,01,14,00,
16975691,0102C02C,true,Rx,1,8,C0,01,C4,0C,C0,10,00,00,
16976337,00613DF8,true,Rx,0,8,03,00,00,00,00,00,00,00,
16977493,01213FFC,true,Rx,0,8,CC,00,4C,00,70,01,08,00,
16978637,02001022,true,Rx,0,8,80,00,00,01,35,90,10,43,
16981221,02A03028,true,Rx,0,8,00,90,84,01,10,00,00,00,
16982404,03200008,true,Rx,0,8,00,00,00,00,00,80,00,00,
16984554,0261300A,true,Rx,0,8,00,00,00,27,80,00,00,C0,
16993343,0140044A,true,Rx,0,8,00,00,00,18,00,00,00,00,
16994609,0240102A,true,Rx,0,8,41,00,00,00,00,00,00,00,
16995669,01200028,true,Rx,1,8,C8,00,00,48,F0,00,30,2D,
16996309,00613DF8,true,Rx,0,8,41,00,00,00,00,00,00,00,
16997503,01800028,true,Rx,0,8,40,00,00,00,00,00,00,00,
16998640,0280142A,true,Rx,0,8,C0,10,00,28,07,00,00,00,
17000805,0102C02C,true,Rx,1,8,00,01,C4,0C,C0,10,00,00,
17001310,01E01266,true,Rx,0,8,C0,00,02,00,00,00,40,00,
17002465,01213FFC,true,Rx,0,8,0C,00,4C,00,60,41,08,00,
17003606,02C13428,true,Rx,0,8,C0,00,08,80,00,00,20,00,
17004712,02E10DF4,true,Rx,0,8,C0,A9,20,A0,90,30,08,10,
17012934,01C030A2,true,Rx,0,8,80,5B,40,01,89,01,14,00,
17014717,0261300A,true,Rx,0,8,40,00,00,27,80,00,00,C0,
17016261,00613DF8,true,Rx,0,8,83,00,00,00,00,00,00,00,
17017382,02A03028,true,Rx,0,8,00,90,D4,09,10,00,80,00,
17019801,00400066,true,Rx,0,8,00,00,00,05,01,5E,40,7F,
17022880,02001022,true,Rx,0,8,C0,00,00,01,35,90,10,43,
17025717,00608024,true,Rx,1,8,40,00,00,00,00,01,05,3E,
17026313,0102C02C,true,Rx,1,8,40,01,C4,0C,C0,10,00,00,
17026396,01213FFC,true,Rx,0,8,4C,00,4C,00,70,01,08,00,
17026914,01200028,true,Rx,1,8,08,08,00,48,F0,00,30,2D,
17027542,0280142A,true,Rx,0,8,00,50,00,20,07,00,00,00,
17029640,0240102A,true,Rx,0,8,83,00,00,00,00,00,00,00,
17033326,0140044A,true,Rx,0,8,40,00,00,08,00,00,00,00,
17036348,00613DF8,true,Rx,0,8,C1,00,00,00,00,00,00,00,
17037530,01800028,true,Rx,0,8,80,00,00,00,00,00,00,00,
17044871,0261300A,true,Rx,0,8,80,00,00,27,80,00,00,C0,
17046271,01E01266,true,Rx,0,8,00,00,02,00,00,00,40,00,
17050692,0102C02C,true,Rx,1,8,80,01,C4,0C,C0,10,00,00,
17051316,01213FFC,true,Rx,0,8,8C,00,4C,00,70,01,08,00,
17052452,02A03028,true,Rx,0,8,00,90,84,01,10,00,00,00,
17055600,01200028,true,Rx,1,8,48,08,00,48,F0,00,30,2D,
17056246,00613DF8,true,Rx,0,8,03,00,00,00,00,00,00,00,
17057401,0280142A,true,Rx,0,8,40,50,00,20,07,00,00,00,
17058525,01C030A2,true,Rx,0,8,C0,5B,40,01,89,01,14,00,
17059666,02C13428,true,Rx,0,8,00,00,08,80,00,00,20,00,
17060801,02E10DF4,true,Rx,0,8,00,A9,00,20,90,30,08,10,
17064609,0240102A,true,Rx,0,8,C0,00,00,00,00,00,00,00,
17067581,02001022,true,Rx,0,8,00,00,00,01,35,90,10,43,
17073360,0140044A,true,Rx,0,8,80,00,00,18,00,00,00,00,
17074974,0261300A,true,Rx,0,8,C0,00,00,27,80,00,00,C0,
17075685,0102C02C,true,Rx,1,8,C0,01,C4,0C,C0,10,00,00,
17076335,00613DF8,true,Rx,0,8,41,00,00,00,00,00,00,00,
17077498,01213FFC,true,Rx,0,8,CC,00,4C,00,60,01,08,00,
17078686,01800028,true,Rx,0,8,C0,00,00,00,00,00,00,00,
17085594,01200028,true,Rx,1,8,88,08,00,48,F0,00,30,2D,
17086230,02A03028,true,Rx,0,8,00,90,84,01,10,00,00,00,
17087385,0280142A,true,Rx,0,8,80,10,00,20,07,00,00,00,
17088570,03200008,true,Rx,0,8,00,00,00,00,00,80,00,00,
17091298,01E01266,true,Rx,0,8,40,00,02,00,00,00,40,00,
17094899,00400066,true,Rx,0,8,40,00,00,06,01,5E,40,7F,
17096320,00613DF8,true,Rx,0,8,83,00,00,00,00,00,00,00,
17099608,0240102A,true,Rx,0,8,01,00,00,00,00,00,00,00,
17100946,00608024,true,Rx,1,8,80,00,00,00,00,01,06,3E,
17101556,0102C02C,true,Rx,1,8,00,01,C4,0C,C0,11,00,00,
17101608,01213FFC,true,Rx,0,8,0C,00,4C,00,70,41,08,00,
17103052,01C030A2,true,Rx,0,8,00,5B,40,01,89,01,14,00,
17105058,0261300A,true,Rx,0,8,00,00,00,27,80,00,00,C0,
17111280,02C13428,true,Rx,0,8,40,00,08,80,00,00,20,00,
17112392,02E10DF4,true,Rx,0,8,40,A9,20,A0,90,30,08,10,
17113564,0140044A,true,Rx,0,8,C0,00,00,08,00,00,00,00,
17114689,02001022,true,Rx,0,8,40,00,00,01,35,90,10,43,
17115690,01200028,true,Rx,1,8,C8,00,00,48,F0,00,30,2D,
17116341,00613DF8,true,Rx,0,8,C1,00,00,00,00,00,00,00,
17117536,01800028,true,Rx,0,8,00,00,00,00,00,00,00,00,
17118681,0280142A,true,Rx,0,8,C0,50,00,20,07,00,00,00,
17119815,0340024C,true,Rx,0,8,01,00,00,01,0C,AD,00,00,
17120960,03801028,true,Rx,0,8,C0,00,20,08,1C,43,00,00,
17122115,02A03028,true,Rx,0,8,00,10,44,09,10,00,00,00,
17125587,0102C02C,true,Rx,1,8,40,01,C4,0C,C0,10,00,00,
17126223,01213FFC,true,Rx,0,8,4C,00,4C,00,70,01,08,00,
17134555,0240102A,true,Rx,0,8,41,00,00,00,00,00,00,00,
17135696,0261300A,true,Rx,0,8,40,00,00,27,80,00,00,C0,
17136869,00613DF8,true,Rx,0,8,03,00,00,00,00,00,00,00,
17138034,01E01266,true,Rx,0,8,80,00,02,00,00,00,40,00,
17145597,01200028,true,Rx,1,8,08,08,00,48,F0,00,30,2D,
17146407,0280142A,true,Rx,0,8,00,50,00,20,07,00,00,00,
17147858,01C030A2,true,Rx,0,8,40,5B,40,01,89,01,14,00,
17150619,0102C02C,true,Rx,1,8,80,01,C4,0C,C0,10,00,00,
17151248,01213FFC,true,Rx,0,8,8C,00,4C,00,60,01,08,00,
17153371,0140044A,true,Rx,0,8,00,00,00,08,00,00,00,00,
17156320,00613DF8,true,Rx,0,8,41,00,00,00,00,00,00,00,
17157513,01800028,true,Rx,0,8,40,00,00,00,00,00,00,00,
17158655,02001022,true,Rx,0,8,80,00,00,01,35,90,10,43,
17159791,02A03028,true,Rx,0,8,00,90,84,01,10,00,00,00,
17165029,0261300A,true,Rx,0,8,80,00,00,27,80,00,00,C0,
17166223,02C13428,true,Rx,0,8,80,00,08,80,00,00,20,00,
17167354,02E10DF4,true,Rx,0,8,80,A9,00,20,90,30,08,10,
17169598,0240102A,true,Rx,0,8,81,00,00,00,00,00,00,00,
17170744,00400066,true,Rx,0,8,80,00,00,07,01,5E,40,7F,
17171887,03C0002A,true,Rx,0,8,00,00,30,C0,2D,00,1F,00,
17175920,00608024,true,Rx,1,8,C0,00,00,00,00,01,07,3E,
17176411,0280142A,true,Rx,0,8,40,10,00,20,07,00,00,00,
17176527,0102C02C,true,Rx,1,8,C0,01,C4,0C,C0,10,00,00,
17177127,01200028,true,Rx,1,8,48,08,00,CC,F0,00,30,2D,
17177591,00613DF8,true,Rx,0,8,83,00,00,00,00,00,00,00,
17178738,01213FFC,true,Rx,0,8,CC,00,4C,00,70,01,08,00,
17181303,01E01266,true,Rx,0,8,C0,00,06,00,00,00,40,00,
17191204,02A03028,true,Rx,0,8,00,90,C4,09,10,00,00,00,
17192385,03200008,true,Rx,0,8,00,00,00,00,00,80,00,00,
17193548,0140044A,true,Rx,0,8,40,00,00,18,00,00,00,00,
17194652,01C030A2,true,Rx,0,8,80,5B,40,01,89,01,14,00,
17195786,0261300A,true,Rx,0,8,C0,00,00,27,80,00,00,C0,
17196951,00613DF8,true,Rx,0,8,C1,00,00,00,00,00,00,00,
17198128,01800028,true,Rx,0,8,80,00,00,00,00,00,00,00,
17200826,0102C02C,true,Rx,1,8,00,01,C4,0C,C0,10,00,00,
17201472,01213FFC,true,Rx,0,8,0C,00,4C,00,60,41,08,00,
17202936,02001022,true,Rx,0,8,C0,00,00,01,35,90,10,43,
17204585,0240102A,true,Rx,0,8,C0,00,00,00,00,00,00,00,
17205616,01200028,true,Rx,1,8,88,08,00,48,F0,00,30,2D,
17206389,0280142A,true,Rx,0,8,80,50,00,28,07,00,00,00,
17216260,00613DF8,true,Rx,0,8,03,00,00,00,00,00,00,00,
17221417,02C13428,true,Rx,0,8,C0,00,08,80,00,00,20,00,
17222527,02E10DF4,true,Rx,0,8,C0,A9,20,A0,90,30,08,10,
17225122,0261300A,true,Rx,0,8,00,00,00,27,80,00,00,C0,
17225625,0102C02C,true,Rx,1,8,40,01,C4,0C,C0,10,00,00,
17226265,01213FFC,true,Rx,0,8,4C,00,4C,00,70,01,08,00,
17227431,01E01266,true,Rx,0,8,00,00,02,00,00,00,40,00,
17228567,02A03028,true,Rx,0,8,00,90,84,01,10,00,00,00,
17233304,0140044A,true,Rx,0,8,80,00,00,08,00,00,00,00,
17235664,01200028,true,Rx,1,8,C8,00,00,48,F0,00,30,2D,
17236310,00613DF8,true,Rx,0,8,41,00,00,00,00,00,00,00,
17237487,01800028,true,Rx,0,8,C0,00,00,00,00,00,00,00,
17238610,01C030A2,true,Rx,0,8,C0,5B,40,01,89,01,14,00,
17239783,0240102A,true,Rx,0,8,01,00,00,00,00,00,00,00,
17240928,0280142A,true,Rx,0,8,C0,50,00,20,07,00,00,00,
17245080,00400066,true,Rx,0,8,C0,00,00,00,01,5E,40,7F,
17245698,0132C07C,true,Rx,1,8,21,00,00,00,00,00,00,00,
17246326,01613FFC,true,Rx,0,8,21,00,00,00,00,00,00,00,
17247655,02001022,true,Rx,0,8,00,00,00,01,35,90,10,43,
17250714,00608024,true,Rx,1,8,00,00,00,00,00,01,00,3E,
17251321,0102C02C,true,Rx,1,8,80,01,C4,0C,C0,10,00,00,
17251362,01213FFC,true,Rx,0,8,8C,00,4C,00,70,01,08,00,
17255165,0261300A,true,Rx,0,8,40,00,00,27,80,00,00,C0,
17256336,00613DF8,true,Rx,0,8,83,00,00,00,00,00,00,00,
17261302,02A03028,true,Rx,0,8,00,90,94,01,10,00,80,00,
17265591,01200028,true,Rx,1,8,08,08,00,48,F0,00,30,2D,
17266392,0280142A,true,Rx,0,8,00,10,00,20,07,00,00,00,
17271243,01E01266,true,Rx,0,8,40,00,02,00,00,00,40,00,
17273354,0140044A,true,Rx,0,8,C0,00,00,18,00,00,00,00,
17274577,0240102A,true,Rx,0,8,41,00,00,00,00,00,00,00,
17276111,0102C02C,true,Rx,1,8,C0,01,C4,0C,C0,10,00,00,
17276760,00613DF8,true,Rx,0,8,C1,00,00,00,00,00,00,00,
17277913,01213FFC,true,Rx,0,8,CC,00,4C,00,60,01,08,00,
17279122,01800028,true,Rx,0,8,00,00,00,00,00,00,00,00,
17280266,02C13428,true,Rx,0,8,00,00,08,80,00,00,20,00,
17281400,02E10DF4,true,Rx,0,8,00,A9,00,20,90,30,08,10,
17283142,01C030A2,true,Rx,0,8,00,5B,40,01,89,01,14,00,
17285096,0261300A,true,Rx,0,8,80,00,00,27,80,00,00,C0,
17292843,02001022,true,Rx,0,8,40,00,00,01,35,90,10,43,
17294014,04000002,true,Rx,0,8,00,00,01,00,B4,00,00,4F,
17295664,01200028,true,Rx,1,8,48,08,00,48,F0,00,30,2D,
17296312,00613DF8,true,Rx,0,8,03,00,00,00,00,00,00,00,
17297467,0280142A,true,Rx,0,8,40,50,00,20,07,00,00,00,
17298602,02A03028,true,Rx,0,8,00,90,C4,09,10,00,00,00,
17299788,03200008,true,Rx,0,8,00,00,00,00,00,80,00,00,
17300821,0102C02C,true,Rx,1,8,00,01,C5,0C,C0,11,00,00,
17300922,0340024C,true,Rx,0,8,40,00,10,00,0C,AD,00,00,
17302079,01213FFC,true,Rx,0,8,0C,00,4C,00,70,41,08,00,
17309535,0240102A,true,Rx,0,8,80,00,00,00,00,00,00,00,
17313356,0140044A,true,Rx,0,8,00,00,00,08,00,00,00,00,
17315280,0261300A,true,Rx,0,8,C0,00,00,27,80,00,00,C0,
17316453,00613DF8,true,Rx,0,8,41,00,00,00,00,00,00,00,
17317645,01800028,true,Rx,0,8,40,00,00,00,00,00,00,00,
17318811,01E01266,true,Rx,0,8,80,00,02,00,00,00,40,00,
17320234,00400066,true,Rx,0,8,00,00,00,01,01,5E,40,7F,
17325675,00608024,true,Rx,1,8,40,00,00,00,00,01,01,3E,
17326280,0102C02C,true,Rx,1,8,40,01,C5,0C,C0,10,00,00,
17326354,01213FFC,true,Rx,0,8,4C,00,4C,00,70,01,08,00,
17326881,01200028,true,Rx,1,8,88,08,00,48,F0,00,30,2D,
17327501,0280142A,true,Rx,0,8,80,50,00,20,07,00,00,00,
17328607,01C030A2,true,Rx,0,8,40,5B,40,01,89,01,14,00,
17331223,02A03028,true,Rx,0,8,00,90,84,01,10,00,00,00,
17332354,02C13428,true,Rx,0,8,40,00,08,80,00,00,20,00,
17333469,02E10DF4,true,Rx,0,8,40,A9,20,A0,90,30,08,10,
17336255,00613DF8,true,Rx,0,8,83,00,00,00,00,00,00,00,
17337705,02001022,true,Rx,0,8,80,00,00,01,35,90,10,43,
17344518,0240102A,true,Rx,0,8,C1,00,00,00,00,00,00,00,
17345650,0261300A,true,Rx,0,8,00,00,00,27,80,00,00,C0,
17346791,03A00002,true,Rx,0,8,80,00,00,04,07,04,98,5E,
17350698,0102C02C,true,Rx,1,8,80,01,C5,0C,C0,10,00,00,
17351334,01213FFC,true,Rx,0,8,8C,00,4C,00,60,01,08,00,
17353342,0140044A,true,Rx,0,8,40,00,00,08,00,00,00,00,
17355649,01200028,true,Rx,1,8,C8,00,00,48,F0,00,30,2D,
17356299,00613DF8,true,Rx,0,8,C1,00,00,00,00,00,00,00,
17357473,01800028,true,Rx,0,8,80,00,00,00,00,00,00,00,
17358630,0280142A,true,Rx,0,8,C0,10,00,20,07,00,00,00,
17361322,01E01266,true,Rx,0,8,C0,00,02,00,00,00,40,00,
