Time Stamp,ID,Extended,Dir,Bus,LEN,D1,D2,D3,D4,D5,D6,D7,D8
40215908,0140044A,true,Rx,0,8,60,00,00,00,00,00,00,00,
40217061,04000002,true,Rx,0,8,60,00,01,00,30,00,00,52,
40218213,02A03028,true,Rx,0,8,00,B0,C0,09,00,00,80,00,
40222707,00613DF8,true,Rx,0,8,63,00,00,00,00,00,00,00,
40223890,01800028,true,Rx,0,8,60,00,00,00,00,00,00,00,
40231945,0102C02C,true,Rx,1,8,60,01,B7,0D,C0,10,00,00,
40232581,01213FFC,true,Rx,0,8,6D,00,4C,00,70,41,08,00,
40237596,02C13428,true,Rx,0,8,60,00,08,80,00,00,00,00,
40238727,02E10DF4,true,Rx,0,8,60,A0,20,A0,90,00,08,00,
40239879,0360000A,true,Rx,0,8,60,00,00,00,00,14,00,80,
40242001,01200028,true,Rx,1,8,68,08,00,48,00,00,00,00,
40242641,00613DF8,true,Rx,0,8,83,00,00,00,00,00,00,00,
40252573,02A03028,true,Rx,0,8,00,90,91,01,00,00,00,00,
40255865,0140044A,true,Rx,0,8,80,00,00,19,10,00,00,00,
40256967,0102C02C,true,Rx,1,8,80,01,B7,0D,C0,10,00,00,
40257039,0280142A,true,Rx,0,8,00,10,00,20,07,00,00,00,
40258173,01213FFC,true,Rx,0,8,8D,00,4C,40,60,01,08,00,
40259310,0261300A,true,Rx,0,8,C0,00,00,27,80,00,00,C0,
40262726,00613DF8,true,Rx,0,8,C1,00,00,00,00,00,00,00,
40263909,01800028,true,Rx,0,8,80,00,00,00,00,00,00,00,
40271922,01C030A2,true,Rx,0,8,00,5B,40,01,89,01,14,00,
40271982,01200028,true,Rx,1,8,88,08,00,48,00,00,00,00,
40272583,0132C07C,true,Rx,1,8,01,0F,B0,55,FA,64,01,05,
40273067,01613FFC,true,Rx,0,8,01,0F,B0,55,FA,64,00,09,
40281758,02001022,true,Rx,0,8,40,00,00,01,35,90,10,43,
40282024,0102C02C,true,Rx,1,8,CF,01,B7,0D,C0,10,00,00,
40282932,00613DF8,true,Rx,0,8,03,00,00,00,00,00,00,00,
40284085,01213FFC,true,Rx,0,8,CD,00,4C,00,70,01,08,00,
40287040,0280142A,true,Rx,0,8,40,10,00,20,07,00,00,00,
40288194,02A03028,true,Rx,0,8,00,9F,81,01,00,00,00,00,
40289328,0261300A,true,Rx,0,8,00,00,00,27,80,00,00,C0,
40290513,03200008,true,Rx,0,8,00,00,00,00,00,80,00,00,
40292653,02C13428,true,Rx,0,8,80,00,08,80,00,00,00,00,
40293789,02E10DF4,true,Rx,0,8,8F,A0,2F,A0,90,00,08,00,
40295860,0140044A,true,Rx,0,8,C0,00,00,09,00,00,00,00,
40301495,0240102A,true,Rx,0,8,60,00,00,00,00,00,00,00,
40302050,01200028,true,Rx,1,8,C8,00,00,48,00,00,00,00,
40302678,00613DF8,true,Rx,0,8,41,00,00,00,00,00,00,00,
40303864,01800028,true,Rx,0,8,C0,00,00,00,00,00,00,00,
40306944,0102C02C,true,Rx,1,8,0F,01,B7,0D,C0,10,00,00,
40307580,01213FFC,true,Rx,0,8,0D,00,4C,00,60,41,08,00,
40317036,0280142A,true,Rx,0,8,80,10,00,20,07,00,00,00,
40318148,01C030A2,true,Rx,0,8,40,5B,40,01,89,01,14,00,
40319279,0261300A,true,Rx,0,8,40,00,00,27,80,00,00,C0,
40322686,00613DF8,true,Rx,0,8,83,00,00,00,00,00,00,00,
40323829,02A03028,true,Rx,0,8,00,9F,C1,09,00,00,00,00,
40326754,02001022,true,Rx,0,8,80,00,00,01,35,90,10,43,
40331983,0102C02C,true,Rx,1,8,4F,01,B7,0D,C0,10,00,00,
40332599,01200028,true,Rx,1,8,08,08,00,48,00,00,00,00,
40332630,01213FFC,true,Rx,0,8,4D,00,4C,40,70,01,08,00,
40335897,0140044A,true,Rx,0,8,00,00,00,19,00,00,00,00,
40337058,0240102A,true,Rx,0,8,83,00,00,00,00,00,00,00,
40338232,01E01266,true,Rx,0,8,60,00,00,00,00,00,00,00,
40339397,03A00002,true,Rx,0,8,60,00,00,00,00,00,00,00,
40340696,04200002,true,Rx,0,8,00,00,00,00,00,00,00,00,
40342795,00613DF8,true,Rx,0,8,C1,00,00,00,00,00,00,00,
40343992,01800028,true,Rx,0,8,00,00,00,00,00,00,00,00,
40347037,0280142A,true,Rx,0,8,C0,10,00,20,07,00,00,00,
40348181,02C13428,true,Rx,0,8,C0,00,08,80,00,00,00,00,
40349312,0261300A,true,Rx,0,8,80,00,00,27,80,00,00,C0,
40350447,02E10DF4,true,Rx,0,8,CF,A0,0F,20,90,00,08,00,
40356992,0102C02C,true,Rx,1,8,8F,01,B7,0D,C0,10,00,00,
40357638,01213FFC,true,Rx,0,8,8D,00,4C,00,70,01,08,00,
40358782,02A03028,true,Rx,0,8,00,9F,81,01,00,00,00,00,
40361878,01C030A2,true,Rx,0,8,80,5B,40,01,89,01,14,00,
40361981,01200028,true,Rx,1,8,48,08,00,48,00,00,00,00,
40363052,00613DF8,true,Rx,0,8,03,00,00,00,00,00,00,00,
40364197,0340024C,true,Rx,0,8,60,00,00,00,0C,A8,00,00,
40371468,0240102A,true,Rx,0,8,C0,00,00,00,00,00,00,00,
40372599,02001022,true,Rx,0,8,C0,00,00,01,35,90,10,43,
40375886,0140044A,true,Rx,0,8,40,00,00,09,10,00,00,00,
40377037,0280142A,true,Rx,0,8,00,10,00,20,07,00,00,00,
40379161,0261300A,true,Rx,0,8,C0,00,00,27,80,00,00,C0,
40382118,0102C02C,true,Rx,1,8,CF,C1,B7,0D,C0,10,00,00,
40382773,00613DF8,true,Rx,0,8,41,00,00,00,00,00,00,00,
40383907,01213FFC,true,Rx,0,8,CD,00,4C,00,60,01,08,00,
40385093,01800028,true,Rx,0,8,40,00,00,00,00,00,00,00,
40386276,01E01266,true,Rx,0,8,80,00,06,00,00,00,40,00,
40391993,01200028,true,Rx,1,8,88,08,00,48,00,00,00,00,
40392629,02A03028,true,Rx,0,8,00,9F,01,01,1A,00,00,00,
40393805,03200008,true,Rx,0,8,00,00,00,00,00,80,00,00,
40402623,00613DF8,true,Rx,0,8,83,00,00,00,00,00,00,00,
40403763,02C13428,true,Rx,0,8,00,00,08,80,00,CF,20,00,
40404884,02E10DF4,true,Rx,0,8,0F,A9,2F,AC,99,3A,F8,18,
40406628,0240102A,true,Rx,0,8,01,00,00,00,00,00,00,00,
40406979,0102C02C,true,Rx,1,8,0F,C1,B7,0D,C0,11,00,00,
40407773,01213FFC,true,Rx,0,8,0D,00,4C,40,70,41,08,00,
40408887,01C030A2,true,Rx,0,8,C0,5B,40,01,89,01,14,00,
40410021,0261300A,true,Rx,0,8,00,00,00,27,80,00,00,C0,
40411167,0280142A,true,Rx,0,8,40,10,00,20,07,00,00,00,
40415879,0140044A,true,Rx,0,8,80,00,00,09,00,00,00,00,
40417020,02001022,true,Rx,0,8,00,00,00,01,35,90,10,43,
40422070,01200028,true,Rx,1,8,C8,00,00,48,00,00,00,00,
40422685,00613DF8,true,Rx,0,8,C1,00,00,00,00,00,00,00,
40423871,01800028,true,Rx,0,8,80,00,00,00,00,00,00,00,
40427529,02A03028,true,Rx,0,8,00,1F,C1,09,1A,00,00,00,
40428701,01E01266,true,Rx,0,8,C0,00,02,00,00,00,40,00,
40432000,0102C02C,true,Rx,1,8,4F,C1,B7,0D,C0,10,00,00,
40432616,01213FFC,true,Rx,0,8,4D,00,4C,00,70,01,08,00,
40437030,0280142A,true,Rx,0,8,80,10,00,20,07,00,00,00,
40439525,0261300A,true,Rx,0,8,40,00,00,27,80,00,00,C0,
40441501,0240102A,true,Rx,0,8,41,00,00,00,00,00,00,00,
40442673,00613DF8,true,Rx,0,8,03,00,00,00,00,00,00,00,
40451806,01C030A2,true,Rx,0,8,00,5B,40,01,89,01,14,00,
40451969,01200028,true,Rx,1,8,08,08,00,48,00,00,00,00,
40455841,0140044A,true,Rx,0,8,C0,00,00,19,10,00,00,00,
40456942,0102C02C,true,Rx,1,8,8F,C1,B7,0D,C0,10,00,00,
40457561,01213FFC,true,Rx,0,8,8D,00,4C,00,60,01,08,00,
40458686,02C13428,true,Rx,0,8,40,00,08,80,00,CF,20,00,
40459779,02E10DF4,true,Rx,0,8,4F,A9,0F,2C,99,3A,F8,18,
40461954,02001022,true,Rx,0,8,40,00,00,01,35,90,10,43,
40463126,00613DF8,true,Rx,0,8,41,00,00,00,00,00,00,00,
40464310,01800028,true,Rx,0,8,C0,00,00,00,00,00,00,00,
40465444,02A03028,true,Rx,0,8,00,9F,91,01,1A,00,80,00,
40467010,0280142A,true,Rx,0,8,C0,10,00,28,07,00,00,00,
40469697,0261300A,true,Rx,0,8,80,00,00,27,80,00,00,C0,
40472780,01E01266,true,Rx,0,8,00,00,02,00,00,00,40,00,
40476478,0240102A,true,Rx,0,8,81,00,00,00,00,00,00,00,
40482009,0102C02C,true,Rx,1,8,CF,C1,B7,0D,C0,10,00,00,
40482615,01200028,true,Rx,1,8,48,08,00,48,00,00,00,00,
40482677,00613DF8,true,Rx,0,8,83,00,00,00,00,00,00,00,
40483822,01213FFC,true,Rx,0,8,CD,00,4C,00,70,01,08,00,
40495845,0140044A,true,Rx,0,8,00,00,00,09,00,00,00,00,
40497006,0280142A,true,Rx,0,8,00,10,00,20,07,00,00,00,
40498119,01C030A2,true,Rx,0,8,40,5B,40,01,89,01,14,00,
40499263,02A03028,true,Rx,0,8,00,9F,C1,09,1A,00,00,00,
40500398,0261300A,true,Rx,0,8,C0,00,00,27,80,00,00,C0,
40501574,03200008,true,Rx,0,8,00,00,00,00,00,80,00,00,
40502749,00613DF8,true,Rx,0,8,C1,00,00,00,00,00,00,00,
40503941,01800028,true,Rx,0,8,00,00,00,00,00,00,00,00,
40505097,03801028,true,Rx,0,8,60,00,20,08,44,00,00,00,
40506797,02001022,true,Rx,0,8,80,00,00,01,35,90,10,43,
40506996,0102C02C,true,Rx,1,8,0F,C1,B7,0D,C0,10,00,00,
40507943,01213FFC,true,Rx,0,8,0D,00,4C,40,60,41,08,00,
40511506,0240102A,true,Rx,0,8,C0,00,00,00,00,00,00,00,
40511989,01200028,true,Rx,1,8,88,08,00,48,00,00,00,00,
40512639,02C13428,true,Rx,0,8,80,00,08,80,00,CF,20,00,
40513742,02E10DF4,true,Rx,0,8,8F,A9,2F,AC,99,3A,F8,18,
40517846,01E01266,true,Rx,0,8,40,00,02,00,00,00,40,00,
40522651,00613DF8,true,Rx,0,8,03,00,00,00,00,00,00,00,
40527009,0280142A,true,Rx,0,8,40,10,00,20,07,00,00,00,
40529887,0261300A,true,Rx,0,8,00,00,00,27,80,00,00,C0,
40532030,0102C02C,true,Rx,1,8,4F,C1,B7,0D,C0,10,00,00,
40532655,01213FFC,true,Rx,0,8,4D,00,4C,00,70,01,08,00,
40533789,02A03028,true,Rx,0,8,00,9F,81,01,1A,00,00,00,
40535881,0140044A,true,Rx,0,8,40,00,00,19,00,00,00,00,
40541794,01C030A2,true,Rx,0,8,80,5B,40,01,89,01,14,00,
40542040,01200028,true,Rx,1,8,C8,00,00,48,00,00,00,00,
40542967,00613DF8,true,Rx,0,8,41,00,00,00,00,00,00,00,
40544164,01800028,true,Rx,0,8,40,00,00,00,00,00,00,00,
40545300,0340024C,true,Rx,0,8,80,00,10,00,0C,A8,00,00,
40546506,0240102A,true,Rx,0,8,01,00,00,00,00,00,00,00,
40551759,02001022,true,Rx,0,8,C0,00,00,01,35,90,10,43,
40556981,0102C02C,true,Rx,1,8,8F,C1,B7,0D,C0,10,00,00,
40557018,0280142A,true,Rx,0,8,80,10,00,20,07,00,00,00,
40557558,0132C07C,true,Rx,1,8,02,52,BC,43,60,04,98,5E,
40558156,01213FFC,true,Rx,0,8,8D,00,4C,00,70,01,08,00,
40559261,01613FFC,true,Rx,0,8,02,52,BC,43,60,04,98,5E,
40560397,0261300A,true,Rx,0,8,40,00,00,27,80,00,00,C0,
40561561,0360000A,true,Rx,0,8,80,00,00,00,00,14,00,80,
40562738,00613DF8,true,Rx,0,8,83,00,00,00,00,00,00,00,
40563913,01E01266,true,Rx,0,8,80,00,02,00,00,00,40,00,
40567612,02A03028,true,Rx,0,8,00,9F,81,01,1A,00,00,00,
40568734,02C13428,true,Rx,0,8,C0,00,08,80,00,CF,20,00,
40569823,02E10DF4,true,Rx,0,8,CF,A9,0F,2C,99,3A,F8,18,
40571966,01200028,true,Rx,1,8,08,08,00,48,00,00,00,00,
40575870,0140044A,true,Rx,0,8,80,00,00,09,10,00,00,00,
40581472,0240102A,true,Rx,0,8,41,00,00,00,00,00,00,00,
40582069,0102C02C,true,Rx,1,8,CF,C1,B7,0D,C0,10,00,00,
40582729,00613DF8,true,Rx,0,8,C1,00,00,00,00,00,00,00,
40583851,01213FFC,true,Rx,0,8,CD,00,4C,40,60,01,08,00,
40585038,01800028,true,Rx,0,8,80,00,00,00,00,00,00,00,
40587007,0280142A,true,Rx,0,8,C0,10,00,20,07,00,00,00,
40588128,01C030A2,true,Rx,0,8,C0,5B,40,01,89,01,14,00,
40589980,00400066,true,Rx,0,8,C0,00,00,04,01,5E,40,7F,
40591116,0261300A,true,Rx,0,8,80,00,00,27,80,00,00,C0,
40592117,00608024,true,Rx,1,8,60,00,00,00,00,01,04,3E,
40596705,02001022,true,Rx,0,8,00,00,00,01,35,90,10,43,
40601988,01200028,true,Rx,1,8,48,08,00,48,00,00,00,00,
40602624,00613DF8,true,Rx,0,8,03,00,00,00,00,00,00,00,
40603779,02A03028,true,Rx,0,8,00,9F,C1,09,1A,00,00,00,
40604964,03200008,true,Rx,0,8,00,00,00,00,00,80,00,00,
40606869,0102C02C,true,Rx,1,8,0F,C1,B7,0D,C0,11,00,00,
40607541,01213FFC,true,Rx,0,8,0D,00,4C,00,70,41,08,00,
40608706,01E01266,true,Rx,0,8,C0,00,02,00,00,00,40,00,
40615866,0140044A,true,Rx,0,8,C0,00,00,09,00,00,00,00,
40617028,0240102A,true,Rx,0,8,80,00,00,00,00,00,00,00,
40618171,0280142A,true,Rx,0,8,00,10,00,20,07,00,00,00,
40620085,0261300A,true,Rx,0,8,C0,00,00,27,80,00,00,C0,
40622732,00613DF8,true,Rx,0,8,41,00,00,00,00,00,00,00,
40623919,01800028,true,Rx,0,8,C0,00,00,00,00,00,00,00,
40625052,02C13428,true,Rx,0,8,00,00,08,80,00,CF,20,00,
40626175,02E10DF4,true,Rx,0,8,0F,A9,2F,AC,99,3A,F8,18,
40631860,01C030A2,true,Rx,0,8,00,5B,40,01,89,01,14,00,
40631951,0102C02C,true,Rx,1,8,4F,C1,B7,0D,C0,10,00,00,
40632562,01200028,true,Rx,1,8,88,08,00,48,00,00,00,00,
40632994,01213FFC,true,Rx,0,8,4D,00,4C,00,70,01,08,00,
40637560,02A03028,true,Rx,0,8,00,9F,81,01,1A,00,00,00,
40641764,02001022,true,Rx,0,8,40,00,00,01,35,90,10,43,
40642936,00613DF8,true,Rx,0,8,83,00,00,00,00,00,00,00,
40646981,0280142A,true,Rx,0,8,40,10,00,28,07,00,00,00,
40650065,0261300A,true,Rx,0,8,00,00,00,27,80,00,00,C0,
40651465,0240102A,true,Rx,0,8,C1,00,00,00,00,00,00,00,
40652842,01E01266,true,Rx,0,8,00,00,02,00,00,00,40,00,
40655838,0140044A,true,Rx,0,8,00,00,00,19,10,00,00,00,
40657043,0102C02C,true,Rx,1,8,8F,C1,B7,0D,C0,10,00,00,
40657663,01213FFC,true,Rx,0,8,8D,00,4C,40,60,01,08,00,
40662032,01200028,true,Rx,1,8,C8,00,00,48,00,00,00,00,
40662657,00613DF8,true,Rx,0,8,C1,00,00,00,00,00,00,00,
40663865,01800028,true,Rx,0,8,00,00,00,00,00,00,00,00,
40665245,00400066,true,Rx,0,8,00,00,00,05,01,5E,40,7F,
40667006,00608024,true,Rx,1,8,80,00,00,00,00,01,05,3E,
40672560,02A03028,true,Rx,0,8,00,9F,81,01,1A,00,00,00,
40675862,04000002,true,Rx,0,8,80,00,01,00,B4,00,00,52,
40677015,0280142A,true,Rx,0,8,80,10,00,20,07,00,00,00,
40678115,01C030A2,true,Rx,0,8,40,5B,40,01,89,01,14,00,
40679241,02C13428,true,Rx,0,8,40,00,08,80,00,CF,20,00,
40680384,0261300A,true,Rx,0,8,40,00,00,27,80,00,00,C0,
40681468,02E10DF4,true,Rx,0,8,4F,A9,0F,2C,99,3A,F8,18,
40682108,0102C02C,true,Rx,1,8,CF,C1,B7,0D,C0,10,00,00,
40682633,03C0002A,true,Rx,0,8,00,00,00,00,00,00,99,00,
40683810,00613DF8,true,Rx,0,8,03,00,00,00,00,00,00,00,
40684945,01213FFC,true,Rx,0,8,CD,00,4C,00,70,01,08,00,
40686551,0240102A,true,Rx,0,8,03,00,00,00,00,00,00,00,
40687697,02001022,true,Rx,0,8,80,00,00,01,35,90,10,43,
40692016,01200028,true,Rx,1,8,08,08,00,CC,00,00,00,00,
40695825,0140044A,true,Rx,0,8,40,00,00,09,00,00,00,00,
40697802,01E01266,true,Rx,0,8,40,00,02,00,00,00,40,00,
40702699,00613DF8,true,Rx,0,8,41,00,00,00,00,00,00,00,
40703892,01800028,true,Rx,0,8,40,00,00,00,00,00,00,00,
40706932,0102C02C,true,Rx,1,8,0F,C1,B7,0D,C0,10,00,00,
40706990,0280142A,true,Rx,0,8,C0,10,00,20,07,00,00,00,
40708136,01213FFC,true,Rx,0,8,0D,00,4C,00,60,41,08,00,
40709249,02A03028,true,Rx,0,8,00,1F,51,09,1A,00,80,00,
40710435,03200008,true,Rx,0,8,00,00,00,00,00,80,00,00,
40711569,0261300A,true,Rx,0,8,80,00,00,27,80,00,00,C0,
40721433,0240102A,true,Rx,0,8,40,00,00,00,00,00,00,00,
40721956,01200028,true,Rx,1,8,48,08,00,48,00,00,00,00,
40722606,00613DF8,true,Rx,0,8,83,00,00,00,00,00,00,00,
40723710,01C030A2,true,Rx,0,8,80,5B,40,01,89,01,14,00,
40724844,0340024C,true,Rx,0,8,C0,00,00,00,0C,A8,00,00,
40731772,02001022,true,Rx,0,8,C0,00,00,01,35,90,10,43,
40731936,0102C02C,true,Rx,1,8,4F,C1,B7,0D,C0,10,00,00,
40732905,01213FFC,true,Rx,0,8,4D,00,4C,40,70,01,08,00,
40734029,02C13428,true,Rx,0,8,80,00,08,80,00,CF,20,00,
40735145,02E10DF4,true,Rx,0,8,8F,A9,2F,AC,99,3A,F8,18,
40736310,0140044A,true,Rx,0,8,80,00,00,19,00,00,00,00,
40737456,0280142A,true,Rx,0,8,00,10,00,20,07,00,00,00,
40740757,00400066,true,Rx,0,8,40,00,00,06,01,5E,40,7F,
40741888,0261300A,true,Rx,0,8,C0,00,00,27,80,00,00,C0,
40743051,00613DF8,true,Rx,0,8,C1,00,00,00,00,00,00,00,
40744238,01800028,true,Rx,0,8,80,00,00,00,00,00,00,00,
40745404,01E01266,true,Rx,0,8,80,00,02,00,00,00,40,00,
40746548,02A03028,true,Rx,0,8,00,9F,81,01,1A,00,00,00,
40747117,00608024,true,Rx,1,8,C0,00,00,00,00,01,06,3E,
40751973,01200028,true,Rx,1,8,88,08,00,48,00,00,00,00,
40752815,03A00002,true,Rx,0,8,80,00,00,00,07,00,00,00,
40756442,0240102A,true,Rx,0,8,81,00,00,00,00,00,00,00,
40756884,0102C02C,true,Rx,1,8,8F,C1,B7,0D,C0,10,00,00,
40757586,01213FFC,true,Rx,0,8,8D,00,4C,00,70,01,08,00,
40762636,00613DF8,true,Rx,0,8,03,00,00,00,00,00,00,00,
40766975,0280142A,true,Rx,0,8,40,10,00,20,07,00,00,00,
40768095,01C030A2,true,Rx,0,8,C0,5B,40,01,89,01,14,00,
40770660,0261300A,true,Rx,0,8,00,00,00,27,80,00,00,C0,
40775868,0140044A,true,Rx,0,8,C0,00,00,09,10,00,00,00,
40776998,02001022,true,Rx,0,8,00,00,00,01,35,90,10,43,
40778140,02A03028,true,Rx,0,8,00,9F,81,01,1A,00,00,00,
40782055,0102C02C,true,Rx,1,8,CF,C1,B7,0D,C0,10,00,00,
40782671,01200028,true,Rx,1,8,C8,00,00,48,00,00,00,00,
40782733,00613DF8,true,Rx,0,8,41,00,00,00,00,00,00,00,
40783869,01213FFC,true,Rx,0,8,CD,00,4C,00,60,01,08,00,
40785055,01800028,true,Rx,0,8,C0,00,00,00,00,00,00,00,
40787507,02C13428,true,Rx,0,8,C0,00,08,80,00,CF,20,00,
40788668,01E01266,true,Rx,0,8,C0,00,02,00,00,00,40,00,
40789763,02E10DF4,true,Rx,0,8,CF,A9,0F,2C,99,3A,F8,18,
40791515,0240102A,true,Rx,0,8,C1,00,00,00,00,00,00,00,
40796989,0280142A,true,Rx,0,8,80,10,00,20,07,00,00,00,
40800934,0261300A,true,Rx,0,8,40,00,00,27,80,00,00,C0,
40802611,00613DF8,true,Rx,0,8,83,00,00,00,00,00,00,00,
40806960,0102C02C,true,Rx,1,8,0F,C1,B7,0D,C0,11,00,00,
40807596,01213FFC,true,Rx,0,8,0D,00,4C,40,70,41,08,00,
40811915,01C030A2,true,Rx,0,8,00,5B,40,01,89,01,14,00,
40811967,01200028,true,Rx,1,8,08,08,00,48,00,00,00,00,
40813058,02A03028,true,Rx,0,8,00,9F,C1,09,1A,00,00,00,
40814244,03200008,true,Rx,0,8,00,00,00,00,00,80,00,00,
40815864,0140044A,true,Rx,0,8,00,00,00,09,00,00,00,00,
40817006,00400066,true,Rx,0,8,80,00,00,07,01,5E,40,7F,
40821778,02001022,true,Rx,0,8,40,00,00,01,35,90,10,43,
40822139,00608024,true,Rx,1,8,00,00,00,00,00,01,07,3E,
40822942,00613DF8,true,Rx,0,8,C1,00,00,00,00,00,00,00,
40824148,01800028,true,Rx,0,8,00,00,00,00,00,00,00,00,
40825283,03801028,true,Rx,0,8,80,00,20,08,1C,43,00,00,
40826478,0240102A,true,Rx,0,8,01,00,00,00,00,00,00,00,
40827634,0280142A,true,Rx,0,8,C0,10,00,20,07,00,00,00,
40831041,0261300A,true,Rx,0,8,80,00,00,27,80,00,00,C0,
40832030,0102C02C,true,Rx,1,8,4F,C1,B7,0D,C0,10,00,00,
40832659,01213FFC,true,Rx,0,8,4D,00,4C,00,70,01,08,00,
40833825,01E01266,true,Rx,0,8,00,00,02,00,00,00,40,00,
40837048,0132C07C,true,Rx,1,8,10,10,01,03,02,03,00,01,
40837674,01613FFC,true,Rx,0,8,10,10,01,03,02,03,00,01,
40841965,01200028,true,Rx,1,8,48,08,00,48,00,00,00,00,
40842599,00613DF8,true,Rx,0,8,03,00,00,00,00,00,00,00,
40843735,02C13428,true,Rx,0,8,00,00,08,80,00,CF,20,00,
40844858,02E10DF4,true,Rx,0,8,0F,A9,2F,AC,99,3A,F8,18,
40847516,02A03028,true,Rx,0,8,00,9F,81,01,1A,00,00,00,
40855810,0140044A,true,Rx,0,8,40,00,00,19,10,00,00,00,
40856951,0102C02C,true,Rx,1,8,8F,C1,B7,0D,C0,10,00,00,
40856973,0280142A,true,Rx,0,8,00,10,00,28,07,00,00,00,
40858096,01213FFC,true,Rx,0,8,8D,00,4C,00,60,01,08,00,
40859201,01C030A2,true,Rx,0,8,40,5B,40,01,89,01,14,00,
40861075,0261300A,true,Rx,0,8,C0,00,00,27,80,00,00,C0,
40862239,0240102A,true,Rx,0,8,40,00,00,00,00,00,00,00,
40863416,00613DF8,true,Rx,0,8,41,00,00,00,00,00,00,00,
40864610,01800028,true,Rx,0,8,40,00,00,00,00,00,00,00,
40866772,02001022,true,Rx,0,8,80,00,00,01,35,90,10,43,
40871976,01200028,true,Rx,1,8,88,08,00,48,00,00,00,00,
40877784,01E01266,true,Rx,0,8,40,00,06,00,00,00,40,00,
40879328,0360000A,true,Rx,0,8,C0,00,00,00,00,14,00,80,
40882038,0102C02C,true,Rx,1,8,CF,C1,B7,0E,C0,10,00,00,
40882694,00613DF8,true,Rx,0,8,83,00,00,00,00,00,00,00,
40883839,01213FFC,true,Rx,0,8,CE,00,4C,00,70,01,08,00,
40884983,02A03028,true,Rx,0,8,00,9F,81,01,1A,00,00,00,
40886958,0280142A,true,Rx,0,8,40,10,00,20,07,00,00,00,
40890917,0261300A,true,Rx,0,8,00,00,00,27,80,00,00,C0,
40895816,0140044A,true,Rx,0,8,80,00,00,09,00,00,00,00,
40896977,0240102A,true,Rx,0,8,81,00,00,00,00,00,00,00,
40898111,02C13428,true,Rx,0,8,40,00,08,80,00,CF,20,00,
40899204,02E10DF4,true,Rx,0,8,4F,A9,2F,AC,99,3A,F8,18,
40901852,01C030A2,true,Rx,0,8,80,5B,40,01,89,01,14,00,
40902046,01200028,true,Rx,1,8,C8,00,00,50,00,00,00,00,
40903025,00613DF8,true,Rx,0,8,C1,00,00,00,00,00,00,00,
40904212,01800028,true,Rx,0,8,80,00,00,00,00,00,00,00,
40905367,0340024C,true,Rx,0,8,00,00,00,00,04,A8,00,00,
40907100,0102C02C,true,Rx,1,8,0F,C1,B7,0E,C0,10,00,00,
40907739,01213FFC,true,Rx,0,8,0E,00,4C,40,60,41,08,00,
40911861,02001022,true,Rx,0,8,C0,00,00,01,35,90,10,43,
40916966,0280142A,true,Rx,0,8,80,10,00,20,07,00,00,00,
40918120,02A03028,true,Rx,0,8,00,9F,C1,09,1A,00,00,00,
40919302,03200008,true,Rx,0,8,00,00,00,00,00,80,00,00,
40921227,0261300A,true,Rx,0,8,40,00,00,27,80,00,00,C0,
40922630,00613DF8,true,Rx,0,8,03,00,00,00,00,00,00,00,
40923804,01E01266,true,Rx,0,8,80,00,02,00,00,00,40,00,
40931401,0240102A,true,Rx,0,8,C1,00,00,00,00,00,00,00,
40932049,0102C02C,true,Rx,1,8,4F,C1,B7,0E,C0,10,00,00,
40932669,01200028,true,Rx,1,8,08,08,00,40,00,00,00,00,
40932700,01213FFC,true,Rx,0,8,4E,00,4C,00,70,01,08,00,
40933249,0022C01E,true,Rx,1,8,60,00,00,00,00,00,00,00,
40933830,0032C01E,true,Rx,1,8,60,00,00,00,00,00,00,00,
40934410,00B00002,true,Rx,1,8,60,00,00,00,00,00,00,00,
40935850,0140044A,true,Rx,0,8,C0,00,00,19,00,00,00,00,
40936780,0022C01E,true,Rx,1,8,60,00,40,00,44,00,22,EE,
40937360,0032C01E,true,Rx,1,8,60,00,00,00,00,00,60,00,
40937948,00B00002,true,Rx,1,8,60,00,00,00,00,00,00,00,
40938537,01100014,true,Rx,1,8,60,00,00,00,00,00,00,00,
40939127,01500006,true,Rx,1,8,60,00,00,00,00,00,00,00,
40939705,01700012,true,Rx,1,8,60,00,00,00,00,00,00,00,
40943288,00613DF8,true,Rx,0,8,41,00,00,00,00,00,00,00,
40944470,01800028,true,Rx,0,8,C0,00,00,00,00,00,00,00,
40946961,0280142A,true,Rx,0,8,C0,10,00,20,07,00,00,00,
40948082,01C030A2,true,Rx,0,8,C0,5B,40,01,89,01,14,00,
40948745,0022C01E,true,Rx,1,8,84,00,43,D1,C4,00,A2,EE,
40949334,0032C01E,true,Rx,1,8,82,00,94,00,00,00,60,00,
40951159,0261300A,true,Rx,0,8,80,00,00,27,80,00,00,C0,
40952804,02A03028,true,Rx,0,8,00,9F,11,01,1A,00,80,00,
40953925,02C13428,true,Rx,0,8,81,00,08,88,00,CF,20,00,
40955020,02E10DF4,true,Rx,0,8,8F,A9,0F,2C,99,3A,F8,18,
40956772,00B00002,true,Rx,1,8,80,00,E1,63,16,FB,85,F7,
40956793,02001022,true,Rx,0,8,00,00,00,01,35,90,10,43,
40957323,0102C02C,true,Rx,1,8,8F,C1,B7,0E,C0,10,00,00,
40957920,01213FFC,true,Rx,0,8,8E,00,5D,00,70,01,08,00,
40957934,01100014,true,Rx,1,8,80,00,00,00,00,11,20,00,
40960756,0022C01E,true,Rx,1,8,C4,0B,43,D1,C4,00,A2,EE,
40961336,0032C01E,true,Rx,1,8,C0,00,14,00,00,00,60,00,
40962026,01200028,true,Rx,1,8,48,48,00,40,00,00,00,00,
40962665,00613DF8,true,Rx,0,8,83,00,00,20,00,00,00,00,
40966453,0240102A,true,Rx,0,8,00,00,00,00,00,00,00,00,
40967904,01E01266,true,Rx,0,8,C0,00,02,00,00,00,40,00,
40968572,0012C024,true,Rx,1,8,AC,A1,00,00,C1,FF,88,00,
40969162,00524000,true,Rx,1,8,40,00,00,00,40,00,40,00,
40969719,00D28026,true,Rx,1,8,6E,8F,64,00,40,00,00,00,
40970299,00F2C006,true,Rx,1,8,6C,00,00,00,90,00,00,00,
40970888,01828002,true,Rx,1,8,00,80,00,48,00,00,00,00,
40972772,0022C01E,true,Rx,1,8,04,0B,43,D1,C4,00,A2,EE,
40973341,0032C01E,true,Rx,1,8,00,00,14,00,00,00,60,00,
40975853,0140044A,true,Rx,0,8,00,00,00,09,10,00,00,00,
40976769,00B00002,true,Rx,1,8,C0,00,A1,63,16,FB,85,F7,
40977005,0280142A,true,Rx,0,8,00,10,00,20,07,00,00,00,
40977340,01100014,true,Rx,1,8,C0,00,00,04,00,11,20,00,
40981229,0261300A,true,Rx,0,8,C0,00,00,27,80,00,00,C0,
40982206,0102C02C,true,Rx,1,8,CF,C1,B7,0E,C0,10,00,00,
40982774,0012C024,true,Rx,1,8,A4,A1,00,00,C1,FF,88,00,
40982836,00613DF8,true,Rx,0,8,C1,00,08,20,01,00,00,40,
40983366,00524000,true,Rx,1,8,40,00,00,00,40,00,40,00,
40983933,00D28026,true,Rx,1,8,8A,8F,64,00,40,00,00,00,
40983974,01213FFC,true,Rx,0,8,CE,00,5D,C0,E0,81,88,00,
40984772,0022C01E,true,Rx,1,8,40,0B,43,D1,44,00,24,DC,
40985164,01800028,true,Rx,0,8,00,00,02,00,00,00,00,00,
40985336,0032C01E,true,Rx,1,8,42,00,84,00,04,00,60,00,
40988115,02A03028,true,Rx,0,8,00,1F,81,01,1A,00,00,00,
40989659,00F2C006,true,Rx,1,8,88,00,00,00,90,00,00,00,
40991829,01C030A2,true,Rx,0,8,00,5B,40,01,89,01,14,00,
40992048,01200028,true,Rx,1,8,88,00,00,40,00,00,00,00,
40996641,0012C024,true,Rx,1,8,AC,A1,00,00,C1,FF,88,00,
40997186,0022C01E,true,Rx,1,8,84,0B,43,D1,C4,00,A6,28,
40997763,0032C01E,true,Rx,1,8,80,00,14,00,04,00,60,00,
40998352,00524000,true,Rx,1,8,40,00,00,00,40,00,40,00,
40998920,00B00002,true,Rx,1,8,00,00,A1,63,16,FB,85,F7,
40999479,00D28026,true,Rx,1,8,CA,8F,64,00,40,00,00,00,
41000077,01100014,true,Rx,1,8,00,00,00,00,00,11,20,00,
41000646,01500006,true,Rx,1,8,85,0F,08,01,2A,00,00,00,
41001217,01700012,true,Rx,1,8,89,C0,80,00,AA,AA,00,00,
41001403,0240102A,true,Rx,0,8,41,00,00,00,00,00,00,00,
41002528,02001022,true,Rx,0,8,40,00,00,01,35,90,10,43,
41003694,00613DF8,true,Rx,0,8,03,00,08,20,00,00,00,40,
41006948,0280142A,true,Rx,0,8,40,10,00,20,07,00,00,00,
41007278,0102C02C,true,Rx,1,8,0F,C1,B7,0E,C0,11,00,00,
41008092,01213FFC,true,Rx,0,8,0E,00,5D,80,F0,C1,88,00,
41008775,0022C01E,true,Rx,1,8,C4,0B,43,D1,C4,00,A6,28,
41009188,02C13428,true,Rx,0,8,C1,02,38,8A,00,CF,20,00,
41009347,0032C01E,true,Rx,1,8,C0,00,14,00,04,00,60,00,
41010284,02E10DF4,true,Rx,0,8,CF,A9,2F,AC,99,3A,F8,18,
41010647,0012C024,true,Rx,1,8,A4,A1,00,00,C1,FF,88,00,
41011239,00524000,true,Rx,1,8,40,00,00,00,40,00,40,00,
41011414,0261300A,true,Rx,0,8,00,00,00,27,80,00,00,C0,
41011819,00D28026,true,Rx,1,8,0A,8F,64,00,40,00,00,00,
41012388,00F2C006,true,Rx,1,8,CC,00,00,00,90,00,00,00,
41012985,01E01266,true,Rx,0,8,00,00,06,00,00,00,40,00,
41015841,0140044A,true,Rx,0,8,40,00,00,09,00,00,00,00,
41016787,00B00002,true,Rx,1,8,40,00,A1,63,16,FB,85,F7,
41017367,01100014,true,Rx,1,8,40,00,00,00,00,11,20,00,
41020782,0022C01E,true,Rx,1,8,04,0B,43,D1,C4,00,A6,28,
41021347,0032C01E,true,Rx,1,8,02,00,94,00,04,00,60,00,
41022069,01200028,true,Rx,1,8,C8,08,00,40,00,00,00,00,
41022699,00613DF8,true,Rx,0,8,41,00,08,20,00,00,00,40,
41023885,01800028,true,Rx,0,8,40,00,02,00,00,00,00,00,
41024651,0012C024,true,Rx,1,8,AC,A1,00,00,C1,FF,88,00,
41025010,02A03028,true,Rx,0,8,00,9F,C1,59,1A,2A,00,00,
41025240,00524000,true,Rx,1,8,40,00,00,00,40,00,40,00,
41025808,00D28026,true,Rx,1,8,4E,8F,64,00,40,00,00,00,
41026190,03200008,true,Rx,0,8,00,00,00,00,00,80,00,00,
41031631,00F2C006,true,Rx,1,8,0C,00,00,00,90,00,00,00,
41032195,0102C02C,true,Rx,1,8,4F,C1,B7,0E,C0,10,00,00,
41032802,01213FFC,true,Rx,0,8,4E,00,5D,80,F0,81,88,00,
41032816,0022C01E,true,Rx,1,8,40,0B,43,D1,44,00,26,28,
41033365,0032C01E,true,Rx,1,8,40,00,04,00,04,00,60,00,
41036453,0240102A,true,Rx,0,8,83,00,00,00,00,00,00,00,
41036801,00B00002,true,Rx,1,8,80,00,A1,63,16,FB,85,F7,
41037391,01100014,true,Rx,1,8,80,00,00,04,00,11,20,00,
41037556,01C030A2,true,Rx,0,8,40,5B,40,01,89,01,14,00,
41038642,0012C024,true,Rx,1,8,A4,A1,00,00,C1,FF,88,00,
41038704,0280142A,true,Rx,0,8,80,10,00,20,07,00,00,00,
41039232,00524000,true,Rx,1,8,40,00,00,00,40,00,40,00,
41039800,00D28026,true,Rx,1,8,8A,8F,64,00,40,00,00,00,
41041451,0261300A,true,Rx,0,8,40,00,00,27,80,00,00,C0,
41042902,00613DF8,true,Rx,0,8,83,00,08,20,01,00,00,40,
41044787,0022C01E,true,Rx,1,8,84,0B,43,D1,C4,00,A6,28,
41045365,0032C01E,true,Rx,1,8,82,00,94,00,04,00,60,00,
41045954,01828002,true,Rx,1,8,00,80,00,5D,00,00,00,00,
41046533,00C24008,true,Rx,1,8,FD,00,02,00,80,00,80,00,
41046772,02001022,true,Rx,0,8,80,00,00,01,35,90,10,43,
41047148,01A00002,true,Rx,1,8,60,00,00,00,00,00,00,04,
41052154,01200028,true,Rx,1,8,08,08,00,43,00,00,00,00,
41052800,0012C024,true,Rx,1,8,AC,A1,00,00,C1,FF,88,00,
41053389,00524000,true,Rx,1,8,40,00,00,00,40,00,40,00,
41053958,00D28026,true,Rx,1,8,CA,8F,64,00,40,00,00,00,
41054536,00F2C006,true,Rx,1,8,4C,00,00,00,90,00,00,00,
41055814,0140044A,true,Rx,0,8,80,00,00,19,10,00,00,00,
41056465,00C24008,true,Rx,1,8,ED,00,12,00,80,00,80,00,
41057013,0022C01E,true,Rx,1,8,C4,0B,43,D1,C4,00,A6,62,
41057591,0032C01E,true,Rx,1,8,C0,00,14,00,04,00,60,00,
41057788,01213FFC,true,Rx,0,8,8E,00,5D,C0,E0,81,88,00,
41058141,00B00002,true,Rx,1,8,C0,00,A1,63,16,FB,85,F7,
41058703,0102C02C,true,Rx,1,8,8F,C1,B7,0E,C0,10,B5,D0,
41058950,01E01266,true,Rx,0,8,40,00,02,00,00,00,40,00,
41059274,01100014,true,Rx,1,8,C0,00,00,00,00,11,20,00,
41059851,01500006,true,Rx,1,8,C5,0F,08,01,2A,00,00,00,
41060079,02A03028,true,Rx,0,8,00,9F,81,11,1A,2A,00,00,
41060417,01700012,true,Rx,1,8,CB,C0,80,00,AA,AA,00,00,
41063206,00613DF8,true,Rx,0,8,C1,00,08,20,00,00,00,40,
41064388,01800028,true,Rx,0,8,80,00,2E,00,00,00,00,00,
41065493,02C13428,true,Rx,0,8,01,02,38,8A,00,CF,20,00,
41066462,00C24008,true,Rx,1,8,DD,00,22,00,80,00,80,00,
41066596,02E10DF4,true,Rx,0,8,0F,A9,0F,2C,99,3A,F8,18,
41067032,0012C024,true,Rx,1,8,A4,A1,00,00,C1,FF,88,00,
41067621,00524000,true,Rx,1,8,40,00,00,00,40,00,40,00,
41067735,0280142A,true,Rx,0,8,C0,10,00,28,07,00,00,00,
41068202,00D28026,true,Rx,1,8,0A,8F,64,00,40,00,00,00,
41068807,0022C01E,true,Rx,1,8,04,0B,43,D1,C4,00,A6,62,
41069387,0032C01E,true,Rx,1,8,00,00,14,00,04,00,60,00,
41071466,0240102A,true,Rx,0,8,C0,00,00,00,00,00,00,00,
41072608,0261300A,true,Rx,0,8,80,00,00,27,80,00,00,C0,
41073858,00F2C006,true,Rx,1,8,88,00,00,00,90,00,00,00,
41076456,00C24008,true,Rx,1,8,CD,00,32,00,80,00,80,00,
41077020,00B00002,true,Rx,1,8,02,00,A1,63,16,FB,85,F7,
41077608,01100014,true,Rx,1,8,00,00,00,00,00,11,20,00,
41080804,0012C024,true,Rx,1,8,AC,A1,00,00,C1,FF,88,00,
41081358,0022C01E,true,Rx,1,8,40,0B,40,85,44,00,26,62,
41081822,01C030A2,true,Rx,0,8,80,5B,40,01,89,01,14,00,
41081928,0032C01E,true,Rx,1,8,42,00,84,00,04,00,60,00,
41082518,00524000,true,Rx,1,8,40,00,00,00,40,00,40,00,
41082983,00613DF8,true,Rx,0,8,03,00,08,20,00,00,00,40,
41083080,00D28026,true,Rx,1,8,4E,8F,64,00,40,00,00,00,
41083637,0102C02C,true,Rx,1,8,CF,C1,B7,0E,C0,10,35,D0,
41084113,01213FFC,true,Rx,0,8,CE,00,5D,80,F0,81,98,00,
41084219,01200028,true,Rx,1,8,48,08,00,41,00,00,00,00,
41085243,0340024C,true,Rx,0,8,41,00,90,01,0C,A8,00,00,
41086452,00C24008,true,Rx,1,8,BD,00,42,00,80,00,80,00,
41086493,03C0002A,true,Rx,0,8,00,00,00,00,00,00,19,00,
41091788,02001022,true,Rx,0,8,C0,00,00,01,35,90,10,43,
41092807,0022C01E,true,Rx,1,8,84,0B,40,85,C4,00,A5,05,
41092910,02A03028,true,Rx,0,8,00,9F,C1,59,1A,2A,00,00,
41093388,0032C01E,true,Rx,1,8,80,00,14,00,04,00,60,00,
41094842,0012C024,true,Rx,1,8,A4,A1,00,00,C1,FF,88,00,
41095432,00524000,true,Rx,1,8,40,00,00,00,40,00,40,00,
41095802,0140044A,true,Rx,0,8,C0,00,00,09,00,00,00,00,
41096001,00D28026,true,Rx,1,8,8A,8F,64,00,40,00,00,00,
41096570,00C24008,true,Rx,1,8,AD,00,52,00,80,00,80,00,
41096952,0280142A,true,Rx,0,8,00,10,00,20,07,00,00,00,
41097131,00B00002,true,Rx,1,8,40,00,A1,63,16,FB,85,F7,
41097699,00F2C006,true,Rx,1,8,CC,00,00,00,90,00,00,00,
41098282,01100014,true,Rx,1,8,40,00,00,04,00,11,20,00,
41101678,0261300A,true,Rx,0,8,C0,00,00,27,80,00,00,C0,
41102963,00613DF8,true,Rx,0,8,41,00,08,20,01,00,00,40,
41104137,01800028,true,Rx,0,8,C0,00,2A,00,00,00,00,00,
41104809,0022C01E,true,Rx,1,8,C4,0B,40,85,C4,00,A5,05,
41105304,01E01266,true,Rx,0,8,80,00,02,00,00,00,40,00,
41105381,0032C01E,true,Rx,1,8,C0,00,14,00,04,00,60,00,
41106456,00C24008,true,Rx,1,8,9D,00,62,00,80,00,80,00,
41106487,0240102A,true,Rx,0,8,01,00,00,00,00,00,00,00,
41107191,0102C02C,true,Rx,1,8,0F,C1,B7,0E,C0,10,35,D0,
41107922,01213FFC,true,Rx,0,8,0E,00,5D,80,E0,C1,98,00,
41108865,0012C024,true,Rx,1,8,AC,A1,00,00,C1,FF,88,00,
41109455,00524000,true,Rx,1,8,40,00,00,00,40,00,40,00,
41110021,00D28026,true,Rx,1,8,CA,8F,64,00,40,00,00,00,
41112203,01200028,true,Rx,1,8,88,08,00,C5,00,00,00,00,
41115817,00F2C006,true,Rx,1,8,0C,00,00,00,90,00,00,00,
41116455,00C24008,true,Rx,1,8,8D,00,72,00,80,00,80,00,
41117013,0022C01E,true,Rx,1,8,04,0B,40,85,C4,00,A5,05,
41117507,01613FFC,true,Rx,0,8,15,13,03,01,01,02,01,01,
41117582,0032C01E,true,Rx,1,8,02,00,94,00,04,00,60,00,
41118144,00B00002,true,Rx,1,8,80,00,A1,63,16,FB,85,F7,
41118618,02C13428,true,Rx,0,8,41,00,18,88,00,CF,20,00,
41118724,01100014,true,Rx,1,8,80,00,00,00,00,11,20,00,
41119293,0132C07C,true,Rx,1,8,15,13,03,01,01,02,01,01,
41119725,02E10DF4,true,Rx,0,8,4F,A9,2F,AC,99,3A,F8,18,
41119851,01500006,true,Rx,1,8,05,2F,08,85,2A,3C,00,00,
41120427,01700012,true,Rx,1,8,0B,C0,80,00,AA,AA,00,00,
41122866,0012C024,true,Rx,1,8,A4,A1,00,00,C1,FF,88,00,
41123218,00613DF8,true,Rx,0,8,83,00,08,20,00,00,00,40,
41123458,00524000,true,Rx,1,8,40,00,00,00,40,00,40,00,
41124036,00D28026,true,Rx,1,8,0A,8F,64,00,40,00,00,00,
41124618,01828002,true,Rx,1,8,00,80,00,5D,00,00,00,00,
41125372,00E00020,true,Rx,1,8,4B,00,00,00,00,00,00,00,
41125928,01600022,true,Rx,1,8,61,00,AA,AA,00,00,00,00,
41126518,00C24008,true,Rx,1,8,7D,00,82,00,80,00,80,00,
41126930,0280142A,true,Rx,0,8,41,10,00,20,07,00,00,00,
41128056,01C030A2,true,Rx,0,8,C0,5B,40,01,89,01,14,00,
41128844,0022C01E,true,Rx,1,8,40,0B,40,85,44,00,25,05,
41129175,02A03028,true,Rx,0,8,00,9F,81,D1,1A,2A,00,00,
41129415,0032C01E,true,Rx,1,8,40,00,04,00,04,00,60,00,
41130353,03200008,true,Rx,0,8,00,00,00,00,00,80,00,00,
41131663,0261300A,true,Rx,0,8,00,00,00,27,80,00,00,C0,
41132110,0102C02C,true,Rx,1,8,4F,C1,B7,0E,C0,10,35,D0,
41132800,01213FFC,true,Rx,0,8,4E,00,5D,C0,F0,81,98,00,
41135847,0140044A,true,Rx,0,8,00,00,00,19,00,00,00,00,
41136445,00C24008,true,Rx,1,8,6D,00,92,00,80,00,80,00,
41136981,02001022,true,Rx,0,8,00,00,00,01,35,90,10,43,
41137025,0012C024,true,Rx,1,8,AC,A1,00,00,C1,FF,88,00,
41137615,00524000,true,Rx,1,8,40,00,00,00,40,00,40,00,
41138120,04000002,true,Rx,0,8,C0,00,01,00,B4,00,00,52,
41138165,00B00002,true,Rx,1,8,C0,00,A1,63,16,FB,85,F7,
41138729,00D28026,true,Rx,1,8,4E,8F,64,00,40,00,00,00,
41139308,00F2C006,true,Rx,1,8,4C,00,00,00,90,00,00,00,
41139897,01100014,true,Rx,1,8,C0,00,00,00,00,11,20,00,
41140837,0022C01E,true,Rx,1,8,84,0B,40,85,C4,00,A5,05,
41141412,0240102A,true,Rx,0,8,41,00,00,00,00,00,00,00,
41141428,0032C01E,true,Rx,1,8,82,00,94,00,04,00,60,00,
41141994,00E00020,true,Rx,1,8,33,C0,00,13,02,DB,00,00,
41142576,01200028,true,Rx,1,8,C8,00,00,41,00,00,00,00,
41143009,00613DF8,true,Rx,0,8,C1,00,08,00,01,00,00,40,
41144217,01800028,true,Rx,0,8,00,00,2E,00,00,00,00,00,
41145343,03801028,true,Rx,0,8,CE,00,20,09,9C,43,00,00,
41146454,00C24008,true,Rx,1,8,5D,00,A2,00,80,00,80,00,
41147979,01E01266,true,Rx,0,8,C0,00,02,00,00,00,40,00,
41150859,0012C024,true,Rx,1,8,A4,A1,00,00,C1,FF,88,00,
41151444,00524000,true,Rx,1,8,40,00,00,00,40,00,40,00,
41152011,00D28026,true,Rx,1,8,8A,8F,64,00,40,00,00,00,
41152848,0022C01E,true,Rx,1,8,C4,0B,40,85,C4,00,A5,05,
41153417,0032C01E,true,Rx,1,8,C0,00,14,00,04,00,60,00,
41156445,00C24008,true,Rx,1,8,4D,00,B2,00,80,00,80,00,
41156935,0280142A,true,Rx,0,8,80,10,00,20,07,00,00,00,
41157011,00B00002,true,Rx,1,8,00,00,A1,63,16,FB,85,F7,
41157590,00E00020,true,Rx,1,8,03,C0,00,13,03,A5,00,00,
41158073,01213FFC,true,Rx,0,8,8E,00,5D,80,F0,81,98,00,
41158160,00F2C006,true,Rx,1,8,88,00,00,00,90,18,00,00,
41158717,0102C02C,true,Rx,1,8,8F,C1,B7,0E,C0,10,35,D0,
41159314,01100014,true,Rx,1,8,00,00,00,04,00,11,20,00,
41161761,0261300A,true,Rx,0,8,40,00,00,27,80,00,00,C0,
41162929,00613DF8,true,Rx,0,8,03,00,08,20,00,00,00,40,
41164041,02A03028,true,Rx,0,8,00,9F,81,11,1A,2A,00,00,
41164838,0022C01E,true,Rx,1,8,04,0B,40,85,C4,00,A5,05,
41165395,0012C024,true,Rx,1,8,AC,A1,00,00,C5,FF,88,00,
41165982,0032C01E,true,Rx,1,8,00,00,14,00,04,00,60,00,
41166572,00524000,true,Rx,1,8,40,00,00,00,40,00,40,00,
41167151,00C24008,true,Rx,1,8,3D,00,C2,00,80,00,80,00,
41167709,00D28026,true,Rx,1,8,CA,8F,64,00,40,00,00,00,
41167915,03A00002,true,Rx,0,8,C0,00,00,04,07,04,98,5E,
41171849,01C030A2,true,Rx,0,8,00,5B,40,01,89,01,14,00,
41172262,01200028,true,Rx,1,8,08,08,00,41,00,00,00,00,
41172941,02C13428,true,Rx,0,8,89,02,78,8A,3C,CF,20,00,
41173357,00E00020,true,Rx,1,8,03,C0,00,13,06,5D,00,00,
41174037,02E10DF4,true,Rx,0,8,8F,A9,0F,2C,99,3A,F8,18,
41175831,0140044A,true,Rx,0,8,40,00,00,09,10,00,00,00,
41176451,00C24008,true,Rx,1,8,2D,00,D2,00,80,00,80,00,
41176996,0240102A,true,Rx,0,8,81,00,00,00,00,00,00,00,
41177011,0022C01E,true,Rx,1,8,40,0B,40,85,44,00,25,05,
41177580,0032C01E,true,Rx,1,8,42,00,84,00,04,00,60,00,
41178130,00B00002,true,Rx,1,8,40,00,A1,63,16,FB,85,F7,
41178718,01100014,true,Rx,1,8,40,00,00,00,00,11,20,00,
41179277,0012C024,true,Rx,1,8,A4,A1,00,00,C5,FF,88,00,
41179866,00524000,true,Rx,1,8,40,00,00,00,40,00,40,00,
41180446,00D28026,true,Rx,1,8,0A,8F,64,00,40,00,00,00,
41181014,00F2C006,true,Rx,1,8,CC,00,00,00,90,09,00,00,
41181574,01500006,true,Rx,1,8,45,0F,08,05,2A,3C,00,00,
41181790,02001022,true,Rx,0,8,40,00,00,01,35,90,10,43,
41182148,01700012,true,Rx,1,8,4B,C0,80,00,AA,AA,00,00,
41182694,0102C02C,true,Rx,1,8,CF,C1,B7,0E,C0,10,35,D0,
41183221,00613DF8,true,Rx,0,8,41,00,00,20,00,00,00,40,
41184355,01213FFC,true,Rx,0,8,CE,00,5D,80,E0,81,98,00,
41185318,01600022,true,Rx,1,8,80,00,AA,AA,00,00,00,00,
41185534,01800028,true,Rx,0,8,40,00,2A,00,00,00,00,00,
41186454,00C24008,true,Rx,1,8,1D,00,E2,00,80,00,80,00,
41186928,0280142A,true,Rx,0,8,C0,10,00,20,07,00,00,00,
41188856,0022C01E,true,Rx,1,8,84,0B,40,85,C4,00,A5,05,
41189435,0032C01E,true,Rx,1,8,80,00,14,00,04,00,60,00,
41190022,00E00020,true,Rx,1,8,03,C0,00,13,05,28,00,00,
41191537,0261300A,true,Rx,0,8,80,00,00,27,80,00,00,C0,
41192888,01E01266,true,Rx,0,8,00,00,02,00,00,00,40,00,
41192922,0012C024,true,Rx,1,8,AC,A1,00,00,C1,FF,88,00,
41193511,00524000,true,Rx,1,8,40,00,00,00,C0,00,C0,00,
41194069,00D28026,true,Rx,1,8,4E,8F,64,00,40,00,00,00,
41196458,00C24008,true,Rx,1,8,0D,00,F2,00,80,00,80,00,
41197016,00B00002,true,Rx,1,8,80,00,A1,63,16,FB,85,F7,
41197605,01100014,true,Rx,1,8,80,00,00,00,00,11,20,00,
41197903,02A03028,true,Rx,0,8,00,9F,81,51,1A,2A,00,00,
41199269,0360000A,true,Rx,0,8,00,00,00,00,00,14,00,80,
41199910,00F2C006,true,Rx,1,8,0C,00,00,00,9F,FE,00,00,
41200497,01828002,true,Rx,1,8,00,80,00,59,00,00,00,00,
41201044,0022C01E,true,Rx,1,8,C4,0B,40,85,C4,00,A5,05,
41201624,0032C01E,true,Rx,1,8,C0,00,14,00,04,00,60,00,
41202245,01200028,true,Rx,1,8,48,48,00,41,00,00,00,00,
41202863,00613DF8,true,Rx,0,8,83,00,08,20,01,00,00,40,
41205328,00E00020,true,Rx,1,8,03,C0,00,13,05,68,00,00,
41206458,00C24008,true,Rx,1,8,FD,00,02,00,80,00,80,00,
41207036,0012C024,true,Rx,1,8,A4,A1,00,00,C1,FF,88,00,
41207616,00524000,true,Rx,1,8,40,00,00,00,C0,00,C0,00,
41207698,01213FFC,true,Rx,0,8,0E,00,5D,C0,F0,C1,98,00,
41208188,00D28026,true,Rx,1,8,8A,8F,64,00,C0,00,00,00,
41208746,0102C02C,true,Rx,1,8,0F,C1,B7,0E,C0,11,35,D0,
41211424,0240102A,true,Rx,0,8,C0,00,00,00,00,00,00,00,
41212865,0022C01E,true,Rx,1,8,04,0B,40,85,C4,00,A5,05,
41213443,0032C01E,true,Rx,1,8,02,00,94,00,04,00,60,00,
41215832,0140044A,true,Rx,0,8,80,00,00,09,00,00,00,00,
41216461,00C24008,true,Rx,1,8,ED,00,12,00,80,00,80,00,
41216977,0280142A,true,Rx,0,8,00,10,00,20,07,00,00,00,
41217021,00B00002,true,Rx,1,8,C0,00,A1,63,16,FB,85,F7,
41217600,01100014,true,Rx,1,8,C0,00,00,00,00,11,20,00,
41218073,01C030A2,true,Rx,0,8,40,5B,40,01,89,01,14,00,
41220909,0012C024,true,Rx,1,8,AC,A1,00,00,C1,FF,88,00,
41221504,00524000,true,Rx,1,8,40,00,00,00,C0,00,C0,00,
41221834,0261300A,true,Rx,0,8,C0,00,00,27,80,00,00,C0,
41222064,00D28026,true,Rx,1,8,CA,8F,64,00,C0,00,00,00,
41222642,00E00020,true,Rx,1,8,03,C0,00,13,05,5B,00,00,
41223016,00613DF8,true,Rx,0,8,C1,00,00,20,00,00,00,40,
41223216,00F2C006,true,Rx,1,8,4C,00,00,00,90,02,00,00,
41224194,01800028,true,Rx,0,8,80,00,2A,00,00,00,00,00,
41224887,0022C01E,true,Rx,1,8,40,0B,40,85,44,00,25,05,
41225459,0032C01E,true,Rx,1,8,40,00,04,00,04,00,60,00,
41226460,00C24008,true,Rx,1,8,DD,00,22,00,80,00,80,00,
41226780,02001022,true,Rx,0,8,80,00,00,01,35,90,10,43,
41228017,02C13428,true,Rx,0,8,C1,02,78,8A,3C,CF,20,00,
41229119,02E10DF4,true,Rx,0,8,CF,A9,2F,AC,99,3A,F8,18,
41231930,0102C02C,true,Rx,1,8,4F,C1,B7,0E,C0,10,35,D0,
41232509,01200028,true,Rx,1,8,88,08,00,41,00,00,00,00,
41232581,01213FFC,true,Rx,0,8,4E,00,5D,80,F0,81,98,00,
41233697,02A03028,true,Rx,0,8,00,9F,51,19,1A,2A,80,00,
41234892,03200008,true,Rx,0,8,00,00,00,00,00,80,00,00,
41234906,0012C024,true,Rx,1,8,A4,A1,00,00,C1,FF,88,00,
41235496,00524000,true,Rx,1,8,40,00,00,00,C0,00,C0,00,
41236064,00D28026,true,Rx,1,8,0A,8F,64,00,C0,00,00,00,
41236632,00C24008,true,Rx,1,8,CD,00,32,00,80,00,80,00,
41236973,00400066,true,Rx,0,8,C0,00,00,00,01,5E,40,7F,
41237195,0022C01E,true,Rx,1,8,84,0B,40,85,C4,00,A5,05,
41237773,0032C01E,true,Rx,1,8,82,00,94,00,04,00,60,00,
41238146,01E01266,true,Rx,0,8,40,00,02,00,00,00,40,00,
41238335,00B00002,true,Rx,1,8,00,00,A1,63,16,FB,85,F7,
41238912,00E00020,true,Rx,1,8,7B,C0,00,13,05,50,00,00,
41239496,01100014,true,Rx,1,8,00,00,00,04,00,11,20,00,
41240053,01500006,true,Rx,1,8,85,0F,0A,45,2A,3C,00,00,
41240612,01700012,true,Rx,1,8,8B,C0,80,00,AA,AA,00,00,
41241963,00F2C006,true,Rx,1,8,88,00,00,00,90,0B,00,00,
41242862,00608024,true,Rx,1,8,40,00,00,00,00,01,00,3E,
41243530,00613DF8,true,Rx,0,8,03,00,08,20,00,00,00,40,
41245323,01600022,true,Rx,1,8,C1,00,AA,AA,00,00,00,00,
41246425,0240102A,true,Rx,0,8,01,00,00,00,00,00,00,00,
41246459,00C24008,true,Rx,1,8,BD,00,42,00,80,00,80,00,
41247563,0280142A,true,Rx,0,8,40,10,00,28,07,00,00,00,
41248873,0022C01E,true,Rx,1,8,C4,0B,40,85,C4,00,A5,05,
41249441,0012C024,true,Rx,1,8,AC,A1,00,00,C1,FF,88,00,
41250008,0032C01E,true,Rx,1,8,C0,00,14,00,04,00,60,00,
41250484,04200002,true,Rx,0,8,00,00,00,00,00,00,01,03,
41250600,00524000,true,Rx,1,8,40,00,00,00,C0,00,C0,00,
41251181,00D28026,true,Rx,1,8,4E,8F,64,00,C0,00,00,00,
41251942,0261300A,true,Rx,0,8,00,00,00,27,80,00,00,C0,
41253366,00E00020,true,Rx,1,8,03,C0,00,13,05,17,00,00,
41255793,0140044A,true,Rx,0,8,C0,00,00,19,10,00,00,00,
41256457,00C24008,true,Rx,1,8,AD,00,52,00,80,00,80,00,
41257014,00B00002,true,Rx,1,8,40,00,A1,63,16,FB,85,F7,
41257574,0102C02C,true,Rx,1,8,8F,C1,B7,0E,C0,10,35,D0,
41257893,01213FFC,true,Rx,0,8,8E,00,5D,80,E0,81,98,00,
41258154,01100014,true,Rx,1,8,40,00,00,00,00,11,20,00,
41260888,0022C01E,true,Rx,1,8,04,0B,40,85,C4,00,A5,05,
41261463,0032C01E,true,Rx,1,8,00,00,14,00,04,00,60,00,
41261915,01C030A2,true,Rx,0,8,80,5B,40,01,89,01,14,00,
41262064,01200028,true,Rx,1,8,C8,00,00,41,00,00,00,00,
41262972,0012C024,true,Rx,1,8,A4,A1,00,00,C5,FF,88,00,
41263075,00613DF8,true,Rx,0,8,41,00,08,20,01,00,00,40,
41263558,00524000,true,Rx,1,8,40,00,00,00,C0,00,C0,00,
41264126,00D28026,true,Rx,1,8,8A,8F,64,00,C0,00,00,00,
41264250,01800028,true,Rx,0,8,C0,00,2A,00,00,00,00,00,
41264696,00F2C006,true,Rx,1,8,CC,00,00,00,90,13,00,00,
41265369,0340024C,true,Rx,0,8,81,00,80,01,0C,A8,08,00,
41266464,00C24008,true,Rx,1,8,9D,00,62,00,80,00,80,00,
41267956,02A03028,true,Rx,0,8,00,1F,81,51,1A,2A,00,00,
41269327,00E00020,true,Rx,1,8,03,C0,00,13,05,17,00,00,
41271795,02001022,true,Rx,0,8,C0,00,00,01,35,90,10,43,
41272881,0022C01E,true,Rx,1,8,40,0B,40,85,44,00,25,05,
41273447,0032C01E,true,Rx,1,8,42,00,84,00,04,00,60,00,
41276454,00C24008,true,Rx,1,8,8D,00,72,00,80,00,80,00,
41276917,0280142A,true,Rx,0,8,80,10,00,20,07,00,00,00,
41277023,0012C024,true,Rx,1,8,AC,A1,00,00,C5,FF,88,00,
41277613,00524000,true,Rx,1,8,40,00,00,00,C0,00,C0,00,
41278172,00B00002,true,Rx,1,8,80,00,A1,63,16,FB,85,F7,
41278739,00D28026,true,Rx,1,8,CA,8F,64,00,C0,00,00,00,
41279318,01100014,true,Rx,1,8,80,00,00,00,00,11,20,00,
41279909,01828002,true,Rx,1,8,00,80,00,7F,00,00,00,00,
41281390,0240102A,true,Rx,0,8,41,00,00,00,00,00,00,00,
41282423,0102C02C,true,Rx,1,8,CF,C1,B7,0E,C0,10,35,D0,
41282526,0261300A,true,Rx,0,8,40,00,00,27,80,00,00,C0,
41283683,00613DF8,true,Rx,0,8,83,00,08,20,00,00,00,40,
41283963,00F2C006,true,Rx,1,8,0C,00,00,00,90,18,00,00,
41284819,01213FFC,true,Rx,0,8,CE,00,5D,80,F0,81,98,00,
41284884,0022C01E,true,Rx,1,8,84,0B,40,85,C4,00,A5,05,
41285466,0032C01E,true,Rx,1,8,80,00,14,00,04,00,60,00,
41285992,01E01266,true,Rx,0,8,80,00,02,00,00,00,40,00,
41286036,00E00020,true,Rx,1,8,03,C0,00,13,05,19,00,00,
41286626,00C24008,true,Rx,1,8,7D,00,82,00,80,00,80,00,
41287100,02C13428,true,Rx,0,8,01,02,78,8A,3C,CF,20,00,
41288199,02E10DF4,true,Rx,0,8,0F,A9,0F,2C,99,3A,F8,18,
41290958,0012C024,true,Rx,1,8,A4,A1,00,00,C5,FF,88,00,
41291544,00524000,true,Rx,1,8,40,00,00,00,C0,00,C0,00,
41292113,00D28026,true,Rx,1,8,0A,8F,64,00,C0,00,00,00,
41292690,01200028,true,Rx,1,8,08,08,00,41,00,00,00,00,
41295796,0140044A,true,Rx,0,8,00,00,00,09,00,00,00,00,
41296455,00C24008,true,Rx,1,8,6D,00,92,00,80,00,80,00,
41297002,0022C01E,true,Rx,1,8,C4,0B,40,85,C4,00,A5,05,
41297582,0032C01E,true,Rx,1,8,C0,00,14,00,04,00,60,00,
41298131,00B00002,true,Rx,1,8,C0,00,A1,63,16,FB,85,F7,
41298708,01100014,true,Rx,1,8,C0,00,00,04,00,11,20,00,
41299267,01500006,true,Rx,1,8,C5,0F,08,05,2A,3C,00,00,
41299835,01700012,true,Rx,1,8,CB,C0,80,00,AA,AA,00,00,
41301364,00E00020,true,Rx,1,8,03,C0,00,13,05,17,00,00,
41303132,00613DF8,true,Rx,0,8,C1,00,08,20,00,00,00,40,
41304326,01800028,true,Rx,0,8,00,00,7E,00,00,00,00,00,
41304935,0012C024,true,Rx,1,8,AC,A1,00,00,C5,FF,88,00,
41305452,02A03028,true,Rx,0,8,00,9F,C1,59,1A,2A,00,00,
41305527,00524000,true,Rx,1,8,40,00,00,00,C0,00,C0,00,
41306087,00D28026,true,Rx,1,8,4E,8F,64,00,C0,00,00,00,
41306656,00C24008,true,Rx,1,8,5D,00,A2,00,80,00,80,00,
41306913,0280142A,true,Rx,0,8,C0,10,00,20,07,00,00,00,
41307236,00F2C006,true,Rx,1,8,4C,00,00,00,90,1D,00,00,
41307794,0102C02C,true,Rx,1,8,0F,C1,B7,0E,C0,10,35,D0,
41308055,01213FFC,true,Rx,0,8,0E,00,5D,C0,E0,C1,B8,00,
41308369,01600022,true,Rx,1,8,00,00,AA,AA,00,00,00,00,
41308927,0022C01E,true,Rx,1,8,04,0B,40,85,C4,00,A5,05,
41309175,01C030A2,true,Rx,0,8,C0,5B,40,01,89,01,14,00,
41309507,0032C01E,true,Rx,1,8,02,00,94,00,04,00,60,00,
41312088,00400066,true,Rx,0,8,00,00,00,01,01,5E,40,7F,
41313220,0261300A,true,Rx,0,8,80,00,00,27,80,00,00,C0,
41316373,0240102A,true,Rx,0,8,80,00,00,00,00,00,00,00,
41316454,00C24008,true,Rx,1,8,4D,00,B2,00,80,00,80,00,
41317022,00B00002,true,Rx,1,8,00,00,A1,63,16,FB,85,F7,
41317508,02001022,true,Rx,0,8,00,00,00,01,35,90,10,43,
41317603,00608024,true,Rx,1,8,80,00,00,00,00,01,01,3E,
41318183,00E00020,true,Rx,1,8,03,C0,00,13,05,0C,00,00,
41318775,01100014,true,Rx,1,8,00,00,00,00,00,11,20,00,
41319344,0012C024,true,Rx,1,8,A4,A1,00,00,C5,FF,88,00,
41319932,00524000,true,Rx,1,8,40,00,00,00,C0,00,C0,00,
41320493,00D28026,true,Rx,1,8,8A,8F,64,00,C0,00,00,00,
41321050,0022C01E,true,Rx,1,8,40,0B,40,85,44,00,25,05,
41321629,0032C01E,true,Rx,1,8,40,00,04,00,04,00,60,00,
41322260,01200028,true,Rx,1,8,48,08,00,41,00,00,00,00,
41322870,00613DF8,true,Rx,0,8,03,00,08,20,01,00,00,40,
41325991,00F2C006,true,Rx,1,8,88,00,00,00,90,20,00,00,
41326567,00C24008,true,Rx,1,8,3D,00,C2,00,80,00,80,00,
41327905,01E01266,true,Rx,0,8,C0,00,02,00,00,00,40,00,
41331966,0102C02C,true,Rx,1,8,4F,C1,B7,0E,C0,10,35,D0,
41332610,01213FFC,true,Rx,0,8,4E,00,5D,80,F0,81,B8,00,
41332903,0022C01E,true,Rx,1,8,84,0B,40,85,C4,00,A5,05,
41333461,0012C024,true,Rx,1,8,AC,A1,00,00,C5,FF,88,00,
41334039,0032C01E,true,Rx,1,8,82,00,94,00,04,00,60,00,
41334628,00524000,true,Rx,1,8,40,00,00,00,C0,00,C0,00,
41335198,00D28026,true,Rx,1,8,CA,8F,64,00,C0,00,00,00,
41335776,00E00020,true,Rx,1,8,4B,C0,00,13,05,00,00,00,
41335828,0140044A,true,Rx,0,8,40,00,00,19,00,00,00,00,
41336453,00C24008,true,Rx,1,8,2D,00,D2,00,80,00,80,00,
41336979,0280142A,true,Rx,0,8,00,10,00,20,07,00,00,00,
41337013,00B00002,true,Rx,1,8,40,00,A1,63,16,FB,85,F7,
41337592,01100014,true,Rx,1,8,40,00,00,00,00,11,20,00,
41338101,02A03028,true,Rx,0,8,00,9F,81,11,1A,2A,00,00,
41339184,02C13428,true,Rx,0,8,41,02,78,8A,3C,CF,20,00,
41340286,02E10DF4,true,Rx,0,8,4F,A9,2F,AC,99,3A,F8,18,
41341473,03200008,true,Rx,0,8,00,00,00,00,00,80,00,00,
41342596,0261300A,true,Rx,0,8,C0,00,00,27,80,00,00,C0,
41343772,00613DF8,true,Rx,0,8,41,00,08,20,00,00,00,40,
41344906,0022C01E,true,Rx,1,8,C4,0B,40,85,C4,00,A5,05,
41344949,01800028,true,Rx,0,8,40,00,7A,00,00,00,00,00,
41345477,0032C01E,true,Rx,1,8,C0,00,14,00,04,00,60,00,
41346458,00C24008,true,Rx,1,8,1D,00,E2,00,80,00,80,00,
41347026,0012C024,true,Rx,1,8,A4,A1,00,00,C5,FF,88,00,
41347605,00524000,true,Rx,1,8,40,00,00,00,C0,00,C0,00,
41348174,00D28026,true,Rx,1,8,0A,8F,64,00,C0,00,00,00,
41348751,00F2C006,true,Rx,1,8,CC,00,00,00,90,1F,00,00,
41349342,00E00020,true,Rx,1,8,33,C0,00,13,05,00,00,00,
41351353,0240102A,true,Rx,0,8,C1,00,00,00,00,00,00,00,
41352197,01200028,true,Rx,1,8,88,08,00,41,00,00,00,00,
41352474,01C030A2,true,Rx,0,8,00,5B,40,01,89,01,14,00,
41354012,01828002,true,Rx,1,8,00,80,00,7F,00,00,00,00,
41356458,00C24008,true,Rx,1,8,0D,00,F2,00,80,00,80,00,
41357012,0022C01E,true,Rx,1,8,04,0B,40,85,C4,00,A5,05,
41357591,0032C01E,true,Rx,1,8,00,00,14,00,04,00,60,00,
41357715,01213FFC,true,Rx,0,8,8E,00,5D,80,F0,81,B8,00,
41358152,00B00002,true,Rx,1,8,80,00,A1,63,16,FB,85,F7,
41358711,0102C02C,true,Rx,1,8,8F,C1,B7,0E,C0,10,35,D0,
41359301,01100014,true,Rx,1,8,80,00,00,04,00,11,20,00,
41359848,01500006,true,Rx,1,8,05,2F,08,85,2A,69,00,00,
41360428,01700012,true,Rx,1,8,0B,C0,80,00,AA,AA,00,00,
41361007,0012C024,true,Rx,1,8,AC,A1,00,00,C5,FF,88,00,
41361597,00524000,true,Rx,1,8,40,00,00,00,C0,00,C0,00,
41361876,02001022,true,Rx,0,8,40,00,00,01,35,90,10,43,
41362157,00D28026,true,Rx,1,8,4E,8F,64,00,C0,00,00,00,
41363190,00613DF8,true,Rx,0,8,83,00,08,20,00,00,00,40,
41365364,00E00020,true,Rx,1,8,03,C0,00,13,05,00,00,00,
41365931,01600022,true,Rx,1,8,41,00,AA,AA,00,00,00,00,
41366511,00C24008,true,Rx,1,8,FD,00,02,00,80,00,80,00,
41366892,0280142A,true,Rx,0,8,40,10,00,20,07,00,00,00,
41367988,00F2C006,true,Rx,1,8,0C,00,00,00,90,20,00,00,
41368914,0022C01E,true,Rx,1,8,40,0B,40,85,44,00,25,05,
41369482,0032C01E,true,Rx,1,8,42,00,84,00,04,00,60,00,
41372222,0261300A,true,Rx,0,8,00,00,00,27,80,00,00,C0,
41373395,01E01266,true,Rx,0,8,00,00,06,00,00,00,40,00,
41374519,02A03028,true,Rx,0,8,00,9F,81,51,1A,2A,00,00,
41375025,0012C024,true,Rx,1,8,A4,A1,00,00,C5,FF,88,00,
41375614,00524000,true,Rx,1,8,40,00,00,00,C0,00,C0,00,
41375862,0140044A,true,Rx,0,8,80,00,00,09,10,00,00,00,
41376185,00D28026,true,Rx,1,8,8A,8F,64,00,C0,00,00,00,
41376765,00C24008,true,Rx,1,8,ED,00,12,00,80,00,80,00,
41377314,00B00002,true,Rx,1,8,C0,00,A1,63,16,FB,85,F7,
41377901,01100014,true,Rx,1,8,C0,00,00,00,00,11,20,00,
41380913,0022C01E,true,Rx,1,8,84,0B,40,85,C4,00,A5,05,
41381499,0032C01E,true,Rx,1,8,80,00,14,00,04,00,60,00,
41382077,00E00020,true,Rx,1,8,03,C0,00,13,05,00,00,00,
41382636,0102C02C,true,Rx,1,8,CF,C1,B7,0E,C0,10,35,D0,
41382934,00613DF8,true,Rx,0,8,C1,00,08,00,01,00,00,40,
41383219,01200028,true,Rx,1,8,C8,00,00,41,00,00,00,00,
41384073,01213FFC,true,Rx,0,8,CE,00,5D,C0,E0,81,B8,00,
41385259,01800028,true,Rx,0,8,80,00,7E,00,00,00,00,00,
41386446,0240102A,true,Rx,0,8,03,00,00,00,00,00,00,00,
41386460,00C24008,true,Rx,1,8,DD,00,22,00,80,00,80,00,
41387573,00400066,true,Rx,0,8,40,00,00,02,01,5E,40,7F,
41389014,0012C024,true,Rx,1,8,AC,A1,00,00,C5,FF,88,00,
41389603,00524000,true,Rx,1,8,40,00,00,00,C0,00,C0,00,
41390172,00D28026,true,Rx,1,8,CA,8F,64,00,C0,00,00,00,
41390750,00F2C006,true,Rx,1,8,4C,00,00,00,90,1F,00,00,
41392260,00608024,true,Rx,1,8,C0,00,00,00,00,01,02,3E,
41392857,02C13428,true,Rx,0,8,89,02,78,8A,69,CF,20,00,
41392932,0022C01E,true,Rx,1,8,C4,0B,40,85,C4,00,A5,05,
41393502,0032C01E,true,Rx,1,8,C0,00,14,00,04,00,60,00,
41393954,02E10DF4,true,Rx,0,8,8F,A9,0F,2C,99,3A,F8,18,
41396451,00C24008,true,Rx,1,8,CD,00,32,00,80,00,80,00,
41396893,0280142A,true,Rx,0,8,80,10,00,20,07,00,00,00,
41397019,00B00002,true,Rx,1,8,00,00,A1,63,16,FB,85,F7,
41397599,00E00020,true,Rx,1,8,03,C0,00,13,04,FF,00,00,
41398042,01613FFC,true,Rx,0,8,01,0F,B0,55,FA,70,FF,F6,
41398191,01100014,true,Rx,1,8,00,00,00,00,00,11,20,00,
41398758,0132C07C,true,Rx,1,8,01,0F,B0,55,FA,70,FE,FA,
41399142,01C030A2,true,Rx,0,8,40,5B,40,01,89,01,14,00,
41402582,0261300A,true,Rx,0,8,40,00,00,27,80,00,00,C0,
41402996,0012C024,true,Rx,1,8,A4,A1,00,00,C5,FF,88,00,
41403584,00524000,true,Rx,1,8,40,00,00,00,C0,00,C0,00,
41403749,00613DF8,true,Rx,0,8,03,00,08,20,00,00,00,40,
41404155,00D28026,true,Rx,1,8,0A,8F,64,00,C0,00,00,00,
41404928,0022C01E,true,Rx,1,8,04,0B,40,85,C4,00,A5,05,
41405499,0032C01E,true,Rx,1,8,02,00,94,00,04,00,60,00,
41406439,00C24008,true,Rx,1,8,BD,00,42,00,80,00,80,00,
41406789,02001022,true,Rx,0,8,80,00,00,01,35,90,10,43,
41407473,0102C02C,true,Rx,1,8,0F,C1,B7,0E,C0,11,35,D0,
41408103,01213FFC,true,Rx,0,8,0E,00,5D,80,F0,C1,B8,00,
41409226,02A03028,true,Rx,0,8,00,9F,C1,19,1A,2A,00,00,
41410083,00F2C006,true,Rx,1,8,88,00,00,00,90,20,00,00,
41412000,01200028,true,Rx,1,8,08,08,00,41,00,00,00,00,
41413329,00E00020,true,Rx,1,8,03,C0,00,13,05,00,00,00,
41415818,0140044A,true,Rx,0,8,C0,00,00,09,00,00,00,00,
41416440,00C24008,true,Rx,1,8,AD,00,52,00,80,00,80,00,
41417007,0012C024,true,Rx,1,8,AC,A1,00,00,C5,FF,88,00,
41417566,0022C01E,true,Rx,1,8,40,0B,40,85,44,00,25,05,
41417854,01E01266,true,Rx,0,8,40,00,02,00,00,00,40,00,
41418137,0032C01E,true,Rx,1,8,40,00,04,00,04,00,60,00,
41418725,00524000,true,Rx,1,8,40,00,00,00,C0,00,C0,00,
41419275,00B00002,true,Rx,1,8,40,00,A1,63,16,FB,85,F7,
41419843,00D28026,true,Rx,1,8,4E,8F,64,00,C0,00,00,00,
41420422,01100014,true,Rx,1,8,40,00,00,04,00,11,20,00,
41420980,01500006,true,Rx,1,8,45,0F,08,05,2A,69,00,00,
41421364,0240102A,true,Rx,0,8,40,00,00,00,00,00,00,00,
41421552,01700012,true,Rx,1,8,4B,C0,80,00,AA,AA,00,00,
41423170,00613DF8,true,Rx,0,8,41,00,08,20,01,00,00,40,
41424358,01800028,true,Rx,0,8,C0,00,7A,00,00,00,00,00,
41425377,01600022,true,Rx,1,8,81,00,AA,AA,00,00,00,00,
41426451,00C24008,true,Rx,1,8,9D,00,62,00,80,00,80,00,
41426893,0280142A,true,Rx,0,8,C0,10,00,20,07,00,00,00,
41428927,0022C01E,true,Rx,1,8,84,0B,40,85,C4,00,A5,05,
41429502,0032C01E,true,Rx,1,8,82,00,94,00,04,00,60,00,
41430079,00E00020,true,Rx,1,8,4B,C0,00,13,05,00,00,00,
41431060,0012C024,true,Rx,1,8,A4,A1,00,00,C5,FF,88,00,
41431649,00524000,true,Rx,1,8,40,00,00,00,C0,00,C0,00,
41432218,00D28026,true,Rx,1,8,8A,8F,64,00,C0,00,00,00,
41432549,0261300A,true,Rx,0,8,80,00,00,27,80,00,00,C0,
41432798,00F2C006,true,Rx,1,8,CF,FE,00,00,90,21,00,00,
41433349,0102C02C,true,Rx,1,8,4F,C1,B7,0E,C0,10,35,D0,
41433678,01213FFC,true,Rx,0,8,4E,00,5D,80,E0,81,B8,00,
41433939,01828002,true,Rx,1,8,00,80,00,7F,00,00,00,00,
41436446,00C24008,true,Rx,1,8,8D,00,72,00,80,00,80,00,
41437002,00B00002,true,Rx,1,8,80,00,A1,63,16,FB,85,F7,
41437590,01100014,true,Rx,1,8,80,00,00,00,00,11,20,00,
41440925,0022C01E,true,Rx,1,8,C4,0B,40,85,C4,00,A5,05,
41441501,0032C01E,true,Rx,1,8,C0,00,14,00,04,00,60,00,
41441841,01C030A2,true,Rx,0,8,80,5B,40,01,89,01,14,00,
41442081,01200028,true,Rx,1,8,48,48,00,41,00,00,00,00,
41442998,00613DF8,true,Rx,0,8,83,00,08,20,00,00,00,40,
41444118,02A03028,true,Rx,0,8,00,9F,91,51,1A,2A,80,00,
41445016,0012C024,true,Rx,1,8,AC,A1,00,00,C5,FF,88,00,
41445306,03200008,true,Rx,0,8,00,00,00,00,00,80,00,00,
41445608,00524000,true,Rx,1,8,40,00,00,00,C0,00,C0,00,
41446176,00D28026,true,Rx,1,8,CA,8F,64,00,C0,00,00,00,
41446435,0340024C,true,Rx,0,8,C0,00,90,00,0C,A8,08,00,
41446757,00C24008,true,Rx,1,8,7D,00,82,00,80,00,80,00,
41447336,00E00020,true,Rx,1,8,33,C0,00,13,05,00,00,00,
41447660,02C13428,true,Rx,0,8,C1,02,78,8A,69,CF,20,00,
41448755,02E10DF4,true,Rx,0,8,CF,A9,2F,AC,99,3A,F8,18,
41451848,02001022,true,Rx,0,8,C0,00,00,01,35,90,10,43,
41452032,00F2C006,true,Rx,1,8,0C,00,00,00,90,20,00,00,
41452950,0022C01E,true,Rx,1,8,04,0B,40,85,C4,00,A5,05,
41453530,0032C01E,true,Rx,1,8,00,00,14,00,04,00,60,00,
41455788,0140044A,true,Rx,0,8,00,00,00,19,10,00,00,00,
41456437,00C24008,true,Rx,1,8,6D,00,92,00,80,00,80,00,
41456941,0240102A,true,Rx,0,8,81,00,00,00,00,00,00,00,
41456995,00B00002,true,Rx,1,8,C0,00,A1,63,16,FB,85,F7,
41457554,0102C02C,true,Rx,1,8,8F,C1,B7,0E,C0,10,35,D0,
41458072,01213FFC,true,Rx,0,8,8E,00,5D,C0,F0,81,B8,00,
41458138,01100014,true,Rx,1,8,C0,00,00,00,00,11,20,00,
41459045,0012C024,true,Rx,1,8,A4,A1,00,00,C5,FF,88,00,
41459212,0280142A,true,Rx,0,8,00,10,00,28,07,00,00,00,
41459638,00524000,true,Rx,1,8,40,00,00,00,C0,00,C0,00,
41460201,00D28026,true,Rx,1,8,0A,8F,64,00,C0,00,00,00,
41461335,00E00020,true,Rx,1,8,03,C0,00,13,05,00,00,00,
41462632,00400066,true,Rx,0,8,80,00,00,03,01,5E,40,7F,
41463787,00613DF8,true,Rx,0,8,C1,00,08,20,00,00,00,40,
41464953,0022C01E,true,Rx,1,8,40,0B,40,85,44,00,25,05,
41464984,01800028,true,Rx,0,8,00,00,7E,00,00,00,00,00,
41465524,0032C01E,true,Rx,1,8,42,00,84,00,04,00,60,00,
41466152,01E01266,true,Rx,0,8,80,00,02,00,00,00,40,00,
41466434,00C24008,true,Rx,1,8,5D,00,A2,00,80,00,80,00,
41467147,00608024,true,Rx,1,8,00,00,00,00,00,01,03,3E,
41467281,0261300A,true,Rx,0,8,C0,00,00,27,80,00,00,C0,
41468418,03801028,true,Rx,0,8,0E,00,20,89,DC,43,00,00,
41472013,01200028,true,Rx,1,8,88,08,00,43,00,00,00,00,
41473040,0012C024,true,Rx,1,8,AC,A1,00,00,C5,FF,88,00,
41473621,00524000,true,Rx,1,8,40,00,00,00,C0,00,C0,00,
41474188,00D28026,true,Rx,1,8,4E,8F,64,00,C0,00,00,00,
41474756,00F2C006,true,Rx,1,8,4C,00,00,00,90,1E,00,00,
41476436,00C24008,true,Rx,1,8,4D,00,B2,00,80,00,80,00,
41476992,0022C01E,true,Rx,1,8,84,0B,40,85,C4,00,A5,05,
41477571,0032C01E,true,Rx,1,8,80,00,14,00,04,00,60,00,
41477757,02A03028,true,Rx,0,8,00,9F,81,11,1A,2A,00,00,
41478134,00B00002,true,Rx,1,8,00,00,A1,63,16,FB,85,F7,
41478713,00E00020,true,Rx,1,8,03,C0,00,13,05,00,00,00,
41479301,01100014,true,Rx,1,8,00,00,00,04,00,11,20,00,
41479869,01500006,true,Rx,1,8,85,0F,08,05,2A,69,00,00,
41480430,01700012,true,Rx,1,8,8B,C0,80,00,AA,AA,00,00,
41482489,0102C02C,true,Rx,1,8,CF,C1,B7,0E,C0,10,35,D0,
41483148,00613DF8,true,Rx,0,8,03,00,08,20,01,00,00,40,
41484272,01213FFC,true,Rx,0,8,CE,00,5D,80,F0,81,B8,00,
41485326,01600022,true,Rx,1,8,C0,00,AA,AA,00,00,00,00,
41486880,0280142A,true,Rx,0,8,40,10,00,20,07,00,00,00,
41487028,0012C024,true,Rx,1,8,A4,A1,00,00,C5,FF,88,00,
41487616,00524000,true,Rx,1,8,40,00,00,00,C0,00,C0,00,
41487998,01C030A2,true,Rx,0,8,C0,5B,40,01,89,01,14,00,
41488190,00D28026,true,Rx,1,8,8A,8F,64,00,C0,00,00,00,
41488953,0022C01E,true,Rx,1,8,C4,0B,40,85,C4,00,A5,05,
41489533,0032C01E,true,Rx,1,8,C0,00,14,00,04,00,60,00,
41491357,0240102A,true,Rx,0,8,C1,00,00,00,00,00,00,00,
41492776,0261300A,true,Rx,0,8,00,00,00,27,80,00,00,C0,
41493367,00E00020,true,Rx,1,8,03,C0,00,13,05,00,00,00,
41494069,00F2C006,true,Rx,1,8,88,00,00,00,90,1F,00,00,
41495780,0140044A,true,Rx,0,8,40,00,00,09,00,00,00,00,
41496910,02001022,true,Rx,0,8,00,00,00,01,35,90,10,43,
41496965,00B00002,true,Rx,1,8,40,00,A1,63,16,FB,85,F7,
41497555,01100014,true,Rx,1,8,40,00,00,00,00,11,20,00,
41498039,03C0002A,true,Rx,0,8,00,00,30,C0,2D,00,9F,00,
41500945,0022C01E,true,Rx,1,8,04,0B,40,85,C4,00,A5,05,
41501509,0012C024,true,Rx,1,8,AC,A1,00,00,C5,FF,88,00,
41502087,0032C01E,true,Rx,1,8,02,00,94,00,04,00,60,00,
41502676,00524000,true,Rx,1,8,40,00,00,00,C0,00,C0,00,
41502882,00613DF8,true,Rx,0,8,41,00,08,20,00,00,00,40,
41503241,00D28026,true,Rx,1,8,CA,8F,64,00,C0,00,00,00,
41503818,01200028,true,Rx,1,8,C8,00,00,C5,F0,00,30,2D,
41504066,01800028,true,Rx,0,8,40,00,7A,00,00,00,00,00,
41505161,02C13428,true,Rx,0,8,01,02,78,8A,69,CF,20,00,
41506286,02E10DF4,true,Rx,0,8,0F,A9,2F,AC,99,3A,F8,18,
41507266,0102C02C,true,Rx,1,8,0F,C1,B7,0D,C0,10,35,D0,
41507894,01213FFC,true,Rx,0,8,0D,00,5D,80,E0,C1,B8,00,
41508092,01828002,true,Rx,1,8,00,80,00,7B,00,00,00,00,
41509061,01E01266,true,Rx,0,8,C0,00,02,00,00,00,40,00,
41509385,00E00020,true,Rx,1,8,03,C0,00,13,05,00,00,00,
41512702,02A03028,true,Rx,0,8,00,9F,41,59,1A,2A,00,00,
41512972,0022C01E,true,Rx,1,8,40,0B,40,85,44,00,25,05,
41513539,0032C01E,true,Rx,1,8,40,00,04,00,04,00,60,00,
41515071,0012C024,true,Rx,1,8,A4,A1,00,00,C5,FF,88,00,
41515652,00524000,true,Rx,1,8,40,00,00,00,C0,00,C0,00,
41516221,00D28026,true,Rx,1,8,0A,8F,64,00,C0,00,00,00,
41516798,00F2C006,true,Rx,1,8,CC,00,00,00,90,1F,00,00,
41516880,0280142A,true,Rx,0,8,80,10,00,20,07,00,00,00,
41517363,00B00002,true,Rx,1,8,80,00,A1,63,16,FB,85,F7,
41517941,01100014,true,Rx,1,8,80,00,00,00,00,11,20,00,
41519258,0360000A,true,Rx,0,8,40,00,00,00,00,14,00,80,
41522893,00613DF8,true,Rx,0,8,83,00,08,20,00,00,00,40,
41524035,0261300A,true,Rx,0,8,40,00,00,27,80,00,00,C0,
41524965,0022C01E,true,Rx,1,8,84,0B,40,85,C4,00,A5,05,
41525543,0032C01E,true,Rx,1,8,82,00,94,00,04,00,60,00,
41526121,00E00020,true,Rx,1,8,4B,C0,00,13,05,00,00,00,
41526379,0240102A,true,Rx,0,8,01,00,00,00,00,00,00,00,
41529081,0012C024,true,Rx,1,8,AC,A1,00,00,C5,FF,88,00,
41529676,00524000,true,Rx,1,8,40,00,00,00,C0,00,C0,00,
41530235,00D28026,true,Rx,1,8,4E,8F,64,00,C0,00,00,00,
41531861,01C030A2,true,Rx,0,8,00,5B,40,01,89,01,14,00,
41533089,0102C02C,true,Rx,1,8,4F,C1,B7,0D,C0,10,35,D0,
41533667,01200028,true,Rx,1,8,08,08,00,49,F0,00,30,2D,
41533729,01213FFC,true,Rx,0,8,4D,00,5D,C0,F0,81,B8,00,
41535820,0140044A,true,Rx,0,8,80,00,00,19,00,00,00,00,
41536070,00F2C006,true,Rx,1,8,0C,00,00,00,90,20,00,00,
41536980,0022C01E,true,Rx,1,8,C4,0B,40,85,C4,00,A5,05,
41537558,0032C01E,true,Rx,1,8,C0,00,14,00,04,00,60,00,
41538107,00B00002,true,Rx,1,8,C0,00,A1,63,16,FB,85,F7,
41538477,00400066,true,Rx,0,8,C0,00,00,04,01,5E,40,7F,
41538687,01100014,true,Rx,1,8,C0,00,00,00,00,11,20,00,
41539248,01500006,true,Rx,1,8,C5,0E,08,05,2A,69,00,00,
41539815,01700012,true,Rx,1,8,C3,00,00,00,AA,AA,00,00,
41541340,00E00020,true,Rx,1,8,33,C0,00,13,05,00,00,00,
41541804,02001022,true,Rx,0,8,40,00,00,01,35,90,10,43,
41542693,00608024,true,Rx,1,8,40,00,00,00,00,01,04,3E,
41543252,0012C024,true,Rx,1,8,A4,A1,00,00,C5,FF,88,00,
41543327,00613DF8,true,Rx,0,8,C1,00,08,20,01,00,00,40,
41543844,00524000,true,Rx,1,8,40,00,00,00,C0,00,C0,00,
41544413,00D28026,true,Rx,1,8,8A,8F,64,00,C0,00,00,00,
41544506,01800028,true,Rx,0,8,80,00,7A,00,00,00,00,00,
41545335,01600022,true,Rx,1,8,01,00,AA,AA,00,00,00,00,
41546881,0280142A,true,Rx,0,8,C0,10,00,20,07,00,00,00,
41548004,02A03028,true,Rx,0,8,00,1F,81,51,1A,2A,00,00,
41548976,0022C01E,true,Rx,1,8,04,0B,40,85,C4,00,A5,05,
41549193,03200008,true,Rx,0,8,00,00,00,00,00,80,00,00,
41549557,0032C01E,true,Rx,1,8,00,00,14,00,04,00,60,00,
41552943,01E01266,true,Rx,0,8,00,00,02,00,00,00,40,00,
41554085,0261300A,true,Rx,0,8,80,00,00,27,80,00,00,C0,
41556990,00B00002,true,Rx,1,8,00,00,A1,63,16,FB,85,F7,
41557554,0012C024,true,Rx,1,8,AC,A1,00,00,C5,FF,88,00,
41557616,01213FFC,true,Rx,0,8,8D,00,5D,80,F0,81,B8,00,
41558137,00524000,true,Rx,1,8,40,00,00,00,C0,00,C0,00,
41558712,02C13428,true,Rx,0,8,41,02,78,8A,69,CF,20,00,
41558727,00D28026,true,Rx,1,8,CA,8F,64,00,C0,00,00,00,
41559286,00E00020,true,Rx,1,8,03,C0,00,13,05,00,00,00,
41559797,02E10DF4,true,Rx,0,8,4F,A9,0F,2C,99,3A,F8,18,
41559862,00F2C006,true,Rx,1,8,4C,00,00,00,90,21,00,00,
41560420,0102C02C,true,Rx,1,8,8F,C1,B7,0D,C0,10,35,D0,
41561009,01100014,true,Rx,1,8,00,00,00,04,00,11,20,00,
41561475,0240102A,true,Rx,0,8,40,00,00,00,00,00,00,00,
41561572,0022C01E,true,Rx,1,8,40,0B,40,85,44,00,25,05,
41562140,0032C01E,true,Rx,1,8,42,00,84,00,04,00,60,00,
41562708,01200028,true,Rx,1,8,48,08,00,49,F0,00,30,2D,
41562873,00613DF8,true,Rx,0,8,03,00,08,20,00,00,00,40,
41571063,0012C024,true,Rx,1,8,A4,A1,00,00,C5,FF,88,00,
41571649,00524000,true,Rx,1,8,40,00,00,00,C0,00,C0,00,
41572217,00D28026,true,Rx,1,8,0A,8F,64,00,C0,00,00,00,
41572990,0022C01E,true,Rx,1,8,84,0B,40,85,C4,00,A5,05,
41573560,0032C01E,true,Rx,1,8,80,00,14,00,04,00,60,00,
41574149,00E00020,true,Rx,1,8,03,C0,00,13,05,00,00,00,
41575806,0140044A,true,Rx,0,8,C0,00,00,09,10,00,00,00,
41576953,0280142A,true,Rx,0,8,00,10,00,20,07,00,00,00,
41576997,00B00002,true,Rx,1,8,40,00,A1,63,16,FB,85,F7,
41577576,01100014,true,Rx,1,8,40,00,00,00,00,11,20,00,
41578060,01C030A2,true,Rx,0,8,40,5B,40,01,89,01,14,00,
41578157,00F2C006,true,Rx,1,8,88,00,00,00,90,20,00,00,
41582152,0102C02C,true,Rx,1,8,CF,C1,B7,0D,C0,10,35,D0,
41582807,00613DF8,true,Rx,0,8,41,00,08,20,00,00,00,40,
41583933,01213FFC,true,Rx,0,8,CD,00,5D,80,E0,81,B8,00,
41584985,0022C01E,true,Rx,1,8,C4,0B,40,85,C4,00,A5,05,
41585130,01800028,true,Rx,0,8,C0,00,7A,00,00,00,00,00,
41585556,0032C01E,true,Rx,1,8,C0,00,14,00,04,00,60,00,
41586257,0261300A,true,Rx,0,8,C0,00,00,27,80,00,00,C0,
41587402,02001022,true,Rx,0,8,80,00,00,01,35,90,10,43,
41588515,02A03028,true,Rx,0,8,00,9F,81,11,1A,2A,00,00,
41589343,00E00020,true,Rx,1,8,03,C0,00,13,05,00,00,00,
41589651,03A00002,true,Rx,0,8,00,00,00,04,07,04,98,5E,
41591983,01200028,true,Rx,1,8,88,08,00,49,F0,00,30,2D,
41595772,04000002,true,Rx,0,8,00,00,01,00,F4,00,00,52,
41596934,0240102A,true,Rx,0,8,81,00,00,00,00,00,00,00,
41597009,0022C01E,true,Rx,1,8,04,0B,40,85,C4,00,A5,05,
41597578,0032C01E,true,Rx,1,8,02,00,94,00,04,00,60,00,
41598094,01E01266,true,Rx,0,8,40,00,06,00,00,00,40,00,
41598139,00B00002,true,Rx,1,8,80,00,A1,63,16,FB,85,F7,
41598728,01100014,true,Rx,1,8,80,00,00,00,00,11,20,00,
41599287,01500006,true,Rx,1,8,05,2E,08,85,2A,69,00,00,
41599856,01700012,true,Rx,1,8,0C,C0,80,00,AA,AA,00,00,
41603223,00613DF8,true,Rx,0,8,83,00,00,20,00,00,00,00,
41605159,00E00020,true,Rx,1,8,03,C0,00,13,05,00,00,00,
41605727,01600022,true,Rx,1,8,40,00,AA,AA,00,00,00,00,
41606869,0280142A,true,Rx,0,8,40,50,00,20,07,00,00,00,
41606923,0102C02C,true,Rx,1,8,0F,C1,B7,0D,C0,31,35,D0,
41608003,01213FFC,true,Rx,0,8,0D,00,5D,40,F0,41,B8,00,
41609016,0022C01E,true,Rx,1,8,40,0B,40,85,44,00,25,05,
41609585,0032C01E,true,Rx,1,8,40,00,04,00,04,00,60,00,
41612650,02C13428,true,Rx,0,8,89,02,78,8A,69,CF,20,00,
41613761,02E10DF4,true,Rx,0,8,8F,A9,2F,AC,99,3A,F8,18,
41614922,00400066,true,Rx,0,8,00,00,00,05,01,5E,40,7F,
41616078,0140044A,true,Rx,0,8,00,00,00,09,00,00,00,00,
41616996,00B00002,true,Rx,1,8,C0,00,A1,63,16,FB,85,F7,
41617214,0261300A,true,Rx,0,8,00,00,00,27,80,00,00,C0,
41617577,00608024,true,Rx,1,8,80,00,00,00,00,01,05,3E,
41618157,01100014,true,Rx,1,8,C0,00,00,04,00,11,20,00,
41618342,02A03028,true,Rx,0,8,00,9F,C1,59,1A,2A,00,00,
41620999,0022C01E,true,Rx,1,8,84,0B,40,85,C4,00,A5,05,
41621585,0032C01E,true,Rx,1,8,82,00,94,00,04,00,60,00,
41621852,01C030A2,true,Rx,0,8,80,5B,40,01,89,01,14,00,
41622165,00E00020,true,Rx,1,8,03,C0,00,13,05,00,00,00,
41622743,01200028,true,Rx,1,8,C8,00,00,49,F0,00,30,2D,
41623012,00613DF8,true,Rx,0,8,C1,00,00,00,00,00,00,00,
41624214,01800028,true,Rx,0,8,00,00,7A,00,00,00,00,00,
41625356,0340024C,true,Rx,0,8,00,00,80,00,04,A8,08,00,
41631322,0240102A,true,Rx,0,8,C1,00,00,00,00,00,00,00,
41631897,0102C02C,true,Rx,1,8,4F,C1,B7,0D,C0,10,35,D0,
41632445,02001022,true,Rx,0,8,C0,00,00,01,35,90,10,43,
41632994,0022C01E,true,Rx,1,8,C4,0B,40,85,C4,00,A5,05,
41633572,0032C01E,true,Rx,1,8,C0,00,14,00,04,00,60,00,
41633594,01213FFC,true,Rx,0,8,4D,00,5D,00,F0,01,B8,00,
41636861,0280142A,true,Rx,0,8,80,10,00,20,07,00,00,00,
41637008,00B00002,true,Rx,1,8,00,00,A1,63,16,FB,85,F7,
41637596,00E00020,true,Rx,1,8,7C,C0,00,13,05,00,00,00,
41638184,01100014,true,Rx,1,8,00,00,00,00,00,11,20,00,
41642620,00613DF8,true,Rx,0,8,03,00,00,20,00,00,00,00,
41643782,01E01266,true,Rx,0,8,80,00,02,00,00,00,40,00,
41644923,0261300A,true,Rx,0,8,40,00,00,27,80,00,00,C0,
41645009,0022C01E,true,Rx,1,8,04,0B,40,85,C4,00,A5,05,
41645588,0032C01E,true,Rx,1,8,00,00,14,00,04,00,60,00,
41651998,01200028,true,Rx,1,8,08,08,00,49,F0,00,30,2D,
41652603,02A03028,true,Rx,0,8,00,9F,81,11,1A,2A,00,00,
41653154,00E00020,true,Rx,1,8,04,C0,00,13,05,00,00,00,
41653792,03200008,true,Rx,0,8,00,00,00,00,00,80,00,00,
41655763,0140044A,true,Rx,0,8,40,00,00,19,10,00,00,00,
41656814,0102C02C,true,Rx,1,8,8F,C1,B7,0D,C0,10,35,D0,
41657372,0022C01E,true,Rx,1,8,40,0B,40,85,44,00,25,05,
41657475,01213FFC,true,Rx,0,8,8D,00,5D,00,E0,01,B8,00,
41657942,0032C01E,true,Rx,1,8,42,00,84,00,04,00,60,00,
41658503,00B00002,true,Rx,1,8,40,00,A1,63,16,FB,85,F7,
41659081,01100014,true,Rx,1,8,40,00,00,00,00,11,20,00,
41659639,01500006,true,Rx,1,8,45,0E,08,05,2A,69,00,00,
41660208,01700012,true,Rx,1,8,4C,C0,80,00,AA,AA,00,00,
41663048,00613DF8,true,Rx,0,8,41,00,00,20,00,00,00,00,
41664231,01800028,true,Rx,0,8,40,00,7A,00,00,00,00,00,
41665162,01600022,true,Rx,1,8,81,00,AA,AA,00,00,00,00,
41666367,0240102A,true,Rx,0,8,00,00,00,00,00,00,00,00,
41667481,01C030A2,true,Rx,0,8,C0,5B,40,01,89,01,14,00,
41668635,0280142A,true,Rx,0,8,C0,50,00,28,07,00,00,00,
41669018,0022C01E,true,Rx,1,8,84,0B,40,85,C4,00,A5,05,
41669587,0032C01E,true,Rx,1,8,80,00,14,00,04,00,60,00,
41669721,02C13428,true,Rx,0,8,C1,02,78,8A,69,CF,20,00,
41670171,00E00020,true,Rx,1,8,04,C0,00,13,05,00,00,00,
41670810,02E10DF4,true,Rx,0,8,CF,A9,0F,2C,99,3A,F8,18,
41674668,0261300A,true,Rx,0,8,80,00,00,27,80,00,00,C0,
41676789,02001022,true,Rx,0,8,00,00,00,01,35,90,10,43,
41676963,0132C07C,true,Rx,1,8,02,52,BC,43,5F,04,98,5E,
41677522,00B00002,true,Rx,1,8,80,00,A1,63,16,FB,85,F7,
41677903,01613FFC,true,Rx,0,8,02,52,BC,43,5F,04,98,5E,
41678113,01100014,true,Rx,1,8,80,00,00,04,00,11,20,00,
41681023,0022C01E,true,Rx,1,8,C4,0B,40,85,C4,00,A5,05,
41681588,0032C01E,true,Rx,1,8,C0,00,14,00,04,00,60,00,
41682146,0102C02C,true,Rx,1,8,CF,C1,B7,0D,C0,10,35,D0,
41682711,00613DF8,true,Rx,0,8,83,00,00,20,00,00,00,00,
41682725,01200028,true,Rx,1,8,48,08,00,49,F0,00,30,2D,
41683841,01213FFC,true,Rx,0,8,CD,00,5D,00,F0,01,B8,00,
41685159,00E00020,true,Rx,1,8,04,C0,00,13,05,00,00,00,
41687650,02A03028,true,Rx,0,8,00,9F,81,51,1A,2A,00,00,
41688815,01E01266,true,Rx,0,8,C0,00,02,00,00,00,40,00,
41689959,00400066,true,Rx,0,8,40,00,00,06,01,5E,40,7F,
41692039,00608024,true,Rx,1,8,C0,00,00,00,00,01,06,3E,
41693022,0022C01E,true,Rx,1,8,04,0B,40,85,C4,00,A5,05,
41693598,0032C01E,true,Rx,1,8,02,00,94,00,04,00,60,00,
41695758,0140044A,true,Rx,0,8,80,00,00,09,00,00,00,00,
41696904,0280142A,true,Rx,0,8,00,50,00,20,07,00,00,00,
41697030,00B00002,true,Rx,1,8,C0,00,A1,63,16,FB,85,F7,
41697610,01100014,true,Rx,1,8,C0,00,00,00,00,11,20,00,
41701162,00E00020,true,Rx,1,8,04,C0,00,13,05,00,00,00,
41701355,0240102A,true,Rx,0,8,41,00,00,00,00,00,00,00,
41702685,00613DF8,true,Rx,0,8,C1,00,00,20,00,00,00,00,
41703860,01800028,true,Rx,0,8,80,00,7A,00,00,00,00,00,
41704994,0261300A,true,Rx,0,8,C0,00,00,27,80,00,00,C0,
41705038,0022C01E,true,Rx,1,8,40,0B,40,85,44,00,25,05,
41705608,0032C01E,true,Rx,1,8,40,00,04,00,04,00,60,00,
41707001,0102C02C,true,Rx,1,8,0F,C1,B7,0D,C0,10,35,D0,
41707628,01213FFC,true,Rx,0,8,0D,00,5D,40,E0,41,88,00,
41711966,01C030A2,true,Rx,0,8,00,5B,40,01,89,01,14,00,
41711980,01200028,true,Rx,1,8,88,08,00,49,F0,00,30,2D,
41717056,0022C01E,true,Rx,1,8,84,0B,40,85,C4,00,A5,05,
41717632,0032C01E,true,Rx,1,8,82,00,94,00,04,00,60,00,
41718191,00B00002,true,Rx,1,8,00,00,A1,63,16,FB,85,F7,
41718778,00E00020,true,Rx,1,8,04,C0,00,13,05,00,00,00,
41719368,01100014,true,Rx,1,8,00,00,00,00,00,11,20,00,
41719925,01500006,true,Rx,1,8,85,0E,0A,45,2A,69,00,00,
41720483,01700012,true,Rx,1,8,8C,C0,80,00,AA,AA,00,00,
41721813,02001022,true,Rx,0,8,40,00,00,01,35,90,10,43,
41723152,00613DF8,true,Rx,0,8,03,00,00,20,00,00,00,00,
41724276,02A03028,true,Rx,0,8,00,9F,D1,59,1A,2A,80,00,
41725175,01600022,true,Rx,1,8,C1,00,AA,AA,00,00,00,00,
41725370,02C13428,true,Rx,0,8,01,02,78,8A,69,CF,20,00,
41726495,02E10DF4,true,Rx,0,8,0F,A9,2F,AC,99,3A,F8,18,
41727641,0280142A,true,Rx,0,8,40,10,00,20,07,00,00,00,
41729035,0022C01E,true,Rx,1,8,C4,0B,40,85,C4,00,A5,05,
41729602,0032C01E,true,Rx,1,8,C0,00,14,00,04,00,60,00,
41732125,0102C02C,true,Rx,1,8,4F,C1,B7,0D,C0,10,35,D0,
41732752,01213FFC,true,Rx,0,8,4D,00,5D,00,F0,01,88,00,
41733158,00E00020,true,Rx,1,8,4C,C0,00,13,05,00,00,00,
41733921,01E01266,true,Rx,0,8,00,00,02,00,00,00,40,00,
41735065,0261300A,true,Rx,0,8,00,00,00,27,80,00,00,C0,
41736221,0140044A,true,Rx,0,8,C0,00,00,19,00,00,00,00,
41737058,00B00002,true,Rx,1,8,40,00,A1,63,16,FB,85,F7,
41737386,0240102A,true,Rx,0,8,83,00,00,00,00,00,00,00,
41737627,01100014,true,Rx,1,8,40,00,00,04,00,11,20,00,
41741036,0022C01E,true,Rx,1,8,04,0B,40,85,C4,00,A5,05,
41741622,0032C01E,true,Rx,1,8,00,00,14,00,04,00,60,00,
41742191,01200028,true,Rx,1,8,C8,00,00,49,F0,00,30,2D,
41742684,00613DF8,true,Rx,0,8,41,00,00,20,00,00,00,00,
41743872,01800028,true,Rx,0,8,C0,00,7A,00,00,00,00,00,
41749158,00E00020,true,Rx,1,8,34,C0,00,13,05,00,00,00,
41753070,0022C01E,true,Rx,1,8,40,0B,40,86,44,00,25,05,
41753635,0032C01E,true,Rx,1,8,42,00,84,00,04,00,60,00,
41756846,0280142A,true,Rx,0,8,80,50,00,20,07,00,00,00,
41756993,0102C02C,true,Rx,1,8,8F,C1,B7,0D,C0,10,35,D0,
41757550,00B00002,true,Rx,1,8,80,00,A1,63,16,FB,85,F7,
41757971,01213FFC,true,Rx,0,8,8D,00,5D,00,F0,01,88,00,
41758142,01100014,true,Rx,1,8,80,00,00,00,00,11,20,00,
41759079,01C030A2,true,Rx,0,8,40,5B,40,01,89,01,14,00,
41760197,02A03028,true,Rx,0,8,00,9F,81,11,1A,2A,00,00,
41761380,03200008,true,Rx,0,8,00,00,00,00,00,80,00,00,
41762648,00613DF8,true,Rx,0,8,83,00,00,20,00,00,00,00,
41764986,00400066,true,Rx,0,8,80,00,00,07,01,5E,40,7F,
41765062,0022C01E,true,Rx,1,8,84,0B,40,85,C4,00,A5,05,
41765639,0032C01E,true,Rx,1,8,80,00,14,00,04,00,60,00,
41766125,0261300A,true,Rx,0,8,40,00,00,27,80,00,00,C0,
41766220,00E00020,true,Rx,1,8,04,C0,00,13,05,00,00,00,
41767108,00608024,true,Rx,1,8,00,00,00,00,00,01,07,3E,
41767265,02001022,true,Rx,0,8,80,00,00,01,35,90,10,43,
41771303,0240102A,true,Rx,0,8,C0,00,00,00,00,00,00,00,
41772033,01200028,true,Rx,1,8,08,08,00,49,F0,00,30,2D,
41775803,0140044A,true,Rx,0,8,00,00,00,09,10,00,00,00,
41777089,0022C01E,true,Rx,1,8,C4,0B,40,85,C4,00,A5,05,
41777462,02C13428,true,Rx,0,8,41,00,58,88,69,CF,20,00,
41777660,0032C01E,true,Rx,1,8,C0,00,14,00,04,00,60,00,
41778219,00B00002,true,Rx,1,8,C0,00,A1,63,16,FB,85,F7,
41778631,01E01266,true,Rx,0,8,40,00,02,00,00,00,40,00,
41778798,01100014,true,Rx,1,8,C0,00,00,00,00,11,20,00,
41779357,01500006,true,Rx,1,8,C5,0E,08,05,2A,69,00,00,
41779718,02E10DF4,true,Rx,0,8,4F,A9,0F,2C,99,3A,F8,18,
41779921,01700012,true,Rx,1,8,CC,C0,80,00,AA,AA,00,00,
41781171,00E00020,true,Rx,1,8,04,C0,00,13,05,00,00,00,
41782550,0102C02C,true,Rx,1,8,CF,C1,B7,0D,C0,10,35,D0,
41783200,00613DF8,true,Rx,0,8,C1,00,00,20,00,00,00,00,
41784334,01213FFC,true,Rx,0,8,CD,00,5D,40,E0,01,88,00,
41785161,01600022,true,Rx,1,8,00,00,AA,AA,00,00,00,00,
41785532,01800028,true,Rx,0,8,00,00,7A,00,00,00,00,00,
41786667,03801028,true,Rx,0,8,46,00,20,89,9C,43,00,00,
41787812,0280142A,true,Rx,0,8,C0,50,00,20,07,00,00,00,
41789081,0022C01E,true,Rx,1,8,04,0B,40,85,C4,00,A5,05,
41789650,0032C01E,true,Rx,1,8,02,00,94,00,04,00,60,00,
41792734,02A03028,true,Rx,0,8,00,9F,01,51,1A,2A,00,00,
41795259,0261300A,true,Rx,0,8,80,00,00,27,80,00,00,C0,
41797102,00B00002,true,Rx,1,8,00,00,A1,63,16,FB,85,F7,
41797676,00E00020,true,Rx,1,8,04,C0,00,13,05,00,00,00,
41798266,01100014,true,Rx,1,8,00,00,00,04,00,11,20,00,
41801109,0022C01E,true,Rx,1,8,40,0B,40,85,44,00,25,05,
41801684,0032C01E,true,Rx,1,8,40,00,04,00,04,00,60,00,
41801859,01C030A2,true,Rx,0,8,80,5B,40,01,89,01,14,00,
41802254,01200028,true,Rx,1,8,48,08,00,49,F0,00,30,2D,
41803016,00613DF8,true,Rx,0,8,03,00,00,20,00,00,00,00,
41804154,0340024C,true,Rx,0,8,40,00,00,00,0C,A8,00,00,
41806357,0240102A,true,Rx,0,8,01,00,00,00,00,00,00,00,
41806978,0102C02C,true,Rx,1,8,0F,C1,B7,0D,C0,11,35,D0,
41807616,01213FFC,true,Rx,0,8,0D,00,5D,00,F0,41,88,00,
41811903,02001022,true,Rx,0,8,C0,00,00,01,35,90,10,43,
41813076,0022C01E,true,Rx,1,8,84,0B,40,85,C4,00,A5,05,
41813657,0032C01E,true,Rx,1,8,82,00,94,00,04,00,60,00,
41814235,00E00020,true,Rx,1,8,04,C0,00,13,05,00,00,00,
41815791,0140044A,true,Rx,0,8,40,00,00,09,00,00,00,00,
41816933,0280142A,true,Rx,0,8,00,10,00,20,07,00,00,00,
41817123,00B00002,true,Rx,1,8,40,00,A1,63,16,FB,85,F7,
41817701,01100014,true,Rx,1,8,40,00,00,00,00,11,20,00,
41822664,00613DF8,true,Rx,0,8,41,00,00,20,00,00,00,00,
41823847,01800028,true,Rx,0,8,40,00,7A,00,00,00,00,00,
41825020,01E01266,true,Rx,0,8,80,00,02,00,00,00,40,00,
41825106,0022C01E,true,Rx,1,8,C4,0B,40,85,C4,00,A5,05,
41825673,0032C01E,true,Rx,1,8,C0,00,14,00,04,00,60,00,
41826148,0261300A,true,Rx,0,8,C0,00,00,27,80,00,00,C0,
41827666,02A03028,true,Rx,0,8,00,1F,C1,19,1A,2A,00,00,
41829150,00E00020,true,Rx,1,8,4C,C0,00,13,05,00,00,00,
41831991,0102C02C,true,Rx,1,8,4F,C1,B7,0D,C0,10,35,D0,
41832569,01200028,true,Rx,1,8,88,08,00,49,F0,00,30,2D,
41832642,01213FFC,true,Rx,0,8,4D,00,5D,00,F0,01,88,00,
41833726,02C13428,true,Rx,0,8,81,02,78,8A,69,CF,20,00,
41834846,02E10DF4,true,Rx,0,8,8F,A9,2F,AC,99,3A,F8,18,
41837103,0022C01E,true,Rx,1,8,04,0B,40,85,C4,00,A5,05,
41837681,0032C01E,true,Rx,1,8,00,00,14,00,04,00,60,00,
41838250,00B00002,true,Rx,1,8,80,00,A1,63,16,FB,85,F7,
41838828,01100014,true,Rx,1,8,80,00,00,00,00,11,20,00,
41839230,0360000A,true,Rx,0,8,80,00,00,00,00,14,00,80,
41839388,01500006,true,Rx,1,8,05,2E,08,85,2A,69,00,00,
41839956,01700012,true,Rx,1,8,0C,C0,80,00,AA,AA,00,00,
41840637,00400066,true,Rx,0,8,C0,00,00,00,01,5E,40,7F,
41841796,0240102A,true,Rx,0,8,41,00,00,00,00,00,00,00,
41842635,00608024,true,Rx,1,8,40,00,00,00,00,01,00,3E,
41843272,00613DF8,true,Rx,0,8,83,00,00,20,00,00,00,00,
41845168,00E00020,true,Rx,1,8,34,C0,00,13,05,00,00,00,
41845737,01600022,true,Rx,1,8,41,00,AA,AA,00,00,00,00,
41846828,0280142A,true,Rx,0,8,40,50,00,28,07,00,00,00,
41847943,01C030A2,true,Rx,0,8,C0,5B,40,01,89,01,14,00,
41849128,0022C01E,true,Rx,1,8,40,0B,40,85,44,00,25,05,
41849696,0032C01E,true,Rx,1,8,42,00,84,00,04,00,60,00,
41855541,0261300A,true,Rx,0,8,00,00,00,27,80,00,00,C0,
41856704,0140044A,true,Rx,0,8,80,00,00,19,10,00,00,00,
41856964,0102C02C,true,Rx,1,8,8F,C1,B7,0D,C0,10,35,D0,
41857512,00B00002,true,Rx,1,8,C0,00,A1,63,16,FB,85,F7,
41857852,01213FFC,true,Rx,0,8,8D,00,5D,40,E0,01,88,00,
41858092,01100014,true,Rx,1,8,C0,00,00,00,00,11,20,00,
41858979,02001022,true,Rx,0,8,00,00,00,01,35,90,10,43,
41861116,0022C01E,true,Rx,1,8,84,0B,40,85,C4,00,A5,05,
41861689,0032C01E,true,Rx,1,8,80,00,14,00,04,00,60,00,
41862269,00E00020,true,Rx,1,8,04,C0,00,13,05,00,00,00,
41862692,00613DF8,true,Rx,0,8,C1,00,00,00,00,00,00,00,
41862849,01200028,true,Rx,1,8,C8,00,00,4B,F0,00,30,2D,
41863861,01800028,true,Rx,0,8,80,00,7A,00,00,00,00,00,
41864986,02A03028,true,Rx,0,8,00,9F,81,51,1A,2A,00,00,
41866172,03200008,true,Rx,0,8,00,00,00,00,00,80,00,00,
41868085,01E01266,true,Rx,0,8,C0,00,06,00,00,00,40,00,
41873112,0022C01E,true,Rx,1,8,C4,0B,40,85,C4,00,A5,05,
41873686,0032C01E,true,Rx,1,8,C0,00,14,00,04,00,60,00,
41876300,0240102A,true,Rx,0,8,81,00,00,00,00,00,00,00,
41877117,00B00002,true,Rx,1,8,00,00,A1,63,16,FB,85,F7,
41877435,0280142A,true,Rx,0,8,80,50,00,20,07,00,00,00,
41877695,00E00020,true,Rx,1,8,04,C0,00,13,05,00,00,00,
41878285,01100014,true,Rx,1,8,00,00,00,04,00,11,20,00,
41882031,0102C02C,true,Rx,1,8,CF,C1,B7,0D,C0,10,35,D0,
41882677,00613DF8,true,Rx,0,8,03,00,00,20,00,00,00,00,
41883812,01213FFC,true,Rx,0,8,CD,00,5D,00,F0,01,88,00,
41885112,0022C01E,true,Rx,1,8,04,0B,40,85,C4,00,A5,05,
41885628,0261300A,true,Rx,0,8,40,00,00,27,80,00,00,C0,
41885693,0032C01E,true,Rx,1,8,02,00,94,00,04,00,60,00,
41887609,02C13428,true,Rx,0,8,C9,02,78,8A,69,CF,20,00,
41888710,02E10DF4,true,Rx,0,8,CF,A9,0F,2C,99,3A,F8,18,
41891922,01C030A2,true,Rx,0,8,00,5B,40,01,89,01,14,00,
41891987,01200028,true,Rx,1,8,08,08,00,49,F0,00,30,2D,
41893172,00E00020,true,Rx,1,8,04,C0,00,13,05,00,00,00,
41895744,0140044A,true,Rx,0,8,C0,00,00,09,00,00,00,00,
41897146,0022C01E,true,Rx,1,8,40,0B,40,85,44,00,25,05,
41897475,02A03028,true,Rx,0,8,00,9F,C1,19,1A,2A,00,00,
41897725,0032C01E,true,Rx,1,8,40,00,04,00,04,00,60,00,
41898273,00B00002,true,Rx,1,8,40,00,A1,63,16,FB,85,F7,
41898852,01100014,true,Rx,1,8,40,00,00,00,00,11,20,00,
41899420,01500006,true,Rx,1,8,45,0E,08,05,2A,69,00,00,
41899987,01700012,true,Rx,1,8,4C,C0,80,00,AA,AA,00,00,
41901815,02001022,true,Rx,0,8,40,00,00,01,35,90,10,43,
41903068,00613DF8,true,Rx,0,8,41,00,00,20,00,00,00,00,
41904253,01800028,true,Rx,0,8,C0,00,7A,00,00,00,00,00,
41905173,01600022,true,Rx,1,8,80,00,AA,AA,00,00,00,00,
41906314,03C0002A,true,Rx,0,8,00,00,30,C0,2D,00,1F,00,
41906945,0102C02C,true,Rx,1,8,0F,C1,B7,0D,C0,10,35,D0,
41907461,0280142A,true,Rx,0,8,C0,10,00,20,07,00,00,00,
41908596,01213FFC,true,Rx,0,8,0D,00,5D,00,E0,41,88,00,
41909126,0022C01E,true,Rx,1,8,84,0B,40,85,C4,00,A5,05,
41909694,0032C01E,true,Rx,1,8,82,00,94,00,04,00,60,00,
41910273,00E00020,true,Rx,1,8,04,C0,00,13,05,00,00,00,
41911355,0240102A,true,Rx,0,8,C0,00,00,00,00,00,00,00,
41913043,01E01266,true,Rx,0,8,00,00,02,00,00,00,40,00,
41915556,00400066,true,Rx,0,8,00,00,00,01,01,5E,40,7F,
41916698,0261300A,true,Rx,0,8,80,00,00,27,80,00,00,C0,
41917125,00608024,true,Rx,1,8,80,00,00,00,00,01,01,3E,
41917681,00B00002,true,Rx,1,8,80,00,A1,63,16,FB,85,F7,
41918261,01100014,true,Rx,1,8,80,00,00,00,00,11,20,00,
41921135,0022C01E,true,Rx,1,8,C4,0B,40,85,C4,00,A5,05,
41921708,0032C01E,true,Rx,1,8,C0,00,14,00,04,00,60,00,
41922287,01200028,true,Rx,1,8,48,08,00,CD,F0,00,30,2D,
41922628,00613DF8,true,Rx,0,8,83,00,00,20,00,00,00,00,
41925168,00E00020,true,Rx,1,8,4C,C0,00,13,05,00,00,00,
41931899,0102C02C,true,Rx,1,8,4F,C1,B7,0D,C0,10,35,D0,
41932524,01213FFC,true,Rx,0,8,4D,00,5D,40,F0,01,88,00,
41933135,0022C01E,true,Rx,1,8,04,0B,40,85,C4,00,A5,05,
41933650,02A03028,true,Rx,0,8,00,9F,81,51,1A,2A,00,00,
41933715,0032C01E,true,Rx,1,8,00,00,14,00,04,00,60,00,
41935789,0140044A,true,Rx,0,8,00,00,00,19,00,00,00,00,
41936940,0280142A,true,Rx,0,8,00,50,00,20,07,00,00,00,
41937141,00B00002,true,Rx,1,8,C0,00,A1,63,16,FB,85,F7,
41937718,01100014,true,Rx,1,8,C0,00,00,04,00,11,20,00,
41938038,01C030A2,true,Rx,0,8,40,5B,40,01,89,01,14,00,
41941170,00E00020,true,Rx,1,8,34,C0,00,13,05,00,00,00,
41942701,00613DF8,true,Rx,0,8,C1,00,00,20,00,00,00,00,
41943908,01800028,true,Rx,0,8,00,00,7A,00,00,00,00,00,
41945000,02C13428,true,Rx,0,8,01,02,78,8A,69,CF,20,00,
41945159,0022C01E,true,Rx,1,8,40,0B,40,85,44,00,25,05,
41945727,0032C01E,true,Rx,1,8,42,00,84,00,04,00,60,00,
41946129,0261300A,true,Rx,0,8,C0,00,00,27,80,00,00,C0,
41947276,02001022,true,Rx,0,8,80,00,00,01,35,90,10,43,
41948450,0240102A,true,Rx,0,8,01,00,00,00,00,00,00,00,
41949565,02E10DF4,true,Rx,0,8,0F,A9,2F,AC,99,3A,F8,18,
41952059,01200028,true,Rx,1,8,88,08,00,49,F0,00,30,2D,
41956801,0102C02C,true,Rx,1,8,8F,C1,B7,0D,C0,10,35,D0,
41957357,0022C01E,true,Rx,1,8,84,0B,40,85,C4,00,A5,05,
41957491,01213FFC,true,Rx,0,8,8D,00,5D,00,F0,01,88,00,
41957937,0032C01E,true,Rx,1,8,80,00,14,00,04,00,60,00,
41958505,00B00002,true,Rx,1,8,00,00,A1,63,16,FB,85,F7,
41958640,01613FFC,true,Rx,0,8,11,05,05,05,01,01,01,05,
41959079,00E00020,true,Rx,1,8,04,C0,00,13,05,00,00,00,
41959669,01100014,true,Rx,1,8,00,00,00,00,00,11,20,00,
41959803,01E01266,true,Rx,0,8,40,00,02,00,00,00,40,00,
41960250,0132C07C,true,Rx,1,8,11,05,05,05,01,01,01,05,
41960807,01500006,true,Rx,1,8,85,0E,08,05,2A,69,00,00,
41961370,01700012,true,Rx,1,8,8C,C0,80,00,AA,AA,00,00,
41962911,00613DF8,true,Rx,0,8,03,00,00,20,00,00,00,00,
41965168,01600022,true,Rx,1,8,C1,00,AA,AA,00,00,00,00,
41966826,0280142A,true,Rx,0,8,40,50,00,20,07,00,00,00,
41967939,02A03028,true,Rx,0,8,00,9F,91,51,1A,2A,80,00,
41969132,03200008,true,Rx,0,8,00,00,00,00,00,80,00,00,
41969146,0022C01E,true,Rx,1,8,C4,0B,40,85,C4,00,A5,05,
41969693,0032C01E,true,Rx,1,8,C0,00,14,00,04,00,60,00,
41973170,00E00020,true,Rx,1,8,04,C0,00,13,05,00,00,00,
41975777,0140044A,true,Rx,0,8,40,00,00,09,10,00,00,00,
41976917,0261300A,true,Rx,0,8,00,00,00,27,80,00,00,C0,
41977129,00B00002,true,Rx,1,8,40,00,A1,63,16,FB,85,F7,
41977706,01100014,true,Rx,1,8,40,00,00,00,00,11,20,00,
41981117,0022C01E,true,Rx,1,8,04,0B,40,85,C4,00,A5,05,
41981299,0240102A,true,Rx,0,8,41,00,00,00,00,00,00,00,
41981694,0032C01E,true,Rx,1,8,02,00,94,00,04,00,60,00,
41982251,0102C02C,true,Rx,1,8,CF,C1,B7,0D,C0,10,35,D0,
41982407,01C030A2,true,Rx,0,8,80,5B,40,01,89,01,14,00,
41982831,01200028,true,Rx,1,8,C8,00,00,49,F0,00,30,2D,
41983558,00613DF8,true,Rx,0,8,41,00,00,20,00,00,00,00,
41984694,01213FFC,true,Rx,0,8,CD,00,5D,00,E0,01,88,00,
41985877,01800028,true,Rx,0,8,40,00,7A,00,00,00,00,00,
41987013,0340024C,true,Rx,0,8,80,00,10,00,0C,A8,08,00,
41989168,00E00020,true,Rx,1,8,04,C0,00,13,05,00,00,00,
41991080,00400066,true,Rx,0,8,40,00,00,02,01,5E,40,7F,
41992212,02001022,true,Rx,0,8,C0,00,00,01,35,90,10,43,
41993133,0022C01E,true,Rx,1,8,40,0B,40,85,44,00,25,05,
41993709,0032C01E,true,Rx,1,8,40,00,04,00,04,00,60,00,
41996817,0280142A,true,Rx,0,8,80,10,00,20,07,00,00,00,
41997120,00608024,true,Rx,1,8,C0,00,00,00,00,01,02,3E,
41997675,00B00002,true,Rx,1,8,80,00,A1,63,16,FB,85,F7,
41997902,02C13428,true,Rx,0,8,41,02,78,8A,69,CF,20,00,
41998256,01100014,true,Rx,1,8,80,00,00,04,00,11,20,00,
41999008,02E10DF4,true,Rx,0,8,4F,A9,2F,AC,99,3A,F8,18,
42000137,03A00002,true,Rx,0,8,40,00,00,04,07,04,98,5E,
42002627,00613DF8,true,Rx,0,8,83,00,00,20,00,00,00,00,
42003788,01E01266,true,Rx,0,8,80,00,02,00,00,00,40,00,
42004914,02A03028,true,Rx,0,8,00,9F,C1,19,1A,2A,00,00,
42005134,0022C01E,true,Rx,1,8,84,0B,40,85,C4,00,A5,05,
42005702,0032C01E,true,Rx,1,8,82,00,94,00,04,00,60,00,
42006072,0261300A,true,Rx,0,8,40,00,00,27,80,00,00,C0,
42006283,00E00020,true,Rx,1,8,04,C0,00,13,05,00,00,00,
42007005,0102C02C,true,Rx,1,8,0F,C1,B7,0D,C0,11,35,D0,
42007636,01213FFC,true,Rx,0,8,0D,00,5D,40,F0,41,88,00,
42012009,01200028,true,Rx,1,8,08,08,00,49,F0,00,30,2D,
42015777,0140044A,true,Rx,0,8,80,00,00,09,00,00,00,00,
42016938,0240102A,true,Rx,0,8,80,00,00,00,00,00,00,00,
42017129,0022C01E,true,Rx,1,8,C4,0B,40,85,C4,00,A5,05,
42017706,0032C01E,true,Rx,1,8,C0,00,14,00,04,00,60,00,
42018265,00B00002,true,Rx,1,8,C0,00,A1,63,16,FB,85,F7,
42018843,01100014,true,Rx,1,8,C0,00,00,00,00,11,20,00,
42019402,01500006,true,Rx,1,8,C5,0E,08,05,2A,69,00,00,
42019969,01700012,true,Rx,1,8,CC,C0,80,00,AA,AA,00,00,
42021167,00E00020,true,Rx,1,8,04,C0,00,13,05,00,00,00,
42023144,00613DF8,true,Rx,0,8,C1,00,00,20,00,00,00,00,
42024316,01800028,true,Rx,0,8,80,00,7A,00,00,00,00,00,
42025185,01600022,true,Rx,1,8,01,00,AA,AA,00,00,00,00,
42026810,0280142A,true,Rx,0,8,C0,50,00,20,07,00,00,00,
42027931,01C030A2,true,Rx,0,8,C0,5B,40,01,89,01,14,00,
42029141,0022C01E,true,Rx,1,8,04,0B,40,85,C4,00,A5,05,
42029720,0032C01E,true,Rx,1,8,00,00,14,00,04,00,60,00,
42032155,0102C02C,true,Rx,1,8,4F,C1,B7,0D,C0,10,35,D0,
42032779,01213FFC,true,Rx,0,8,4D,00,5D,00,F0,01,88,00,
42036084,0261300A,true,Rx,0,8,80,00,00,27,80,00,00,C0,
42037147,00B00002,true,Rx,1,8,00,00,A1,63,16,FB,85,F7,
42037229,02001022,true,Rx,0,8,00,00,00,01,35,90,10,43,
42037737,00E00020,true,Rx,1,8,7C,C0,00,13,05,00,00,00,
42038335,01100014,true,Rx,1,8,00,00,00,00,00,11,20,00,
42038357,02A03028,true,Rx,0,8,00,9F,81,51,1A,2A,00,00,
42041141,0022C01E,true,Rx,1,8,40,0B,40,85,44,00,25,05,
42041709,0032C01E,true,Rx,1,8,42,00,84,00,04,00,60,00,
42042285,01200028,true,Rx,1,8,48,08,00,49,F0,00,30,2D,
42042636,00613DF8,true,Rx,0,8,03,00,00,20,00,00,00,00,
42047974,01E01266,true,Rx,0,8,C0,00,02,00,00,00,40,00,
42051256,0240102A,true,Rx,0,8,C1,00,00,00,00,00,00,00,
42052480,02C13428,true,Rx,0,8,81,02,78,8A,69,CF,20,00,
42053144,0022C01E,true,Rx,1,8,84,0B,40,85,C4,00,A5,05,
42053573,02E10DF4,true,Rx,0,8,8F,A9,0F,2C,99,3A,F8,18,
42053720,0032C01E,true,Rx,1,8,80,00,14,00,04,00,60,00,
42054300,00E00020,true,Rx,1,8,04,C0,00,13,05,00,00,00,
42055814,0140044A,true,Rx,0,8,C0,00,00,19,10,00,00,00,
42056950,0280142A,true,Rx,0,8,00,50,00,28,07,00,00,00,
42057087,0102C02C,true,Rx,1,8,8F,C1,B7,0D,C0,10,35,D0,
42057645,00B00002,true,Rx,1,8,40,00,A1,63,16,FB,85,F7,
42058088,01213FFC,true,Rx,0,8,8D,00,5D,00,E0,01,88,00,
42058226,01100014,true,Rx,1,8,40,00,00,04,00,11,20,00,
42059237,04000002,true,Rx,0,8,40,00,01,00,B4,00,00,51,
42062679,00613DF8,true,Rx,0,8,41,00,00,20,00,00,00,00,
42063872,01800028,true,Rx,0,8,C0,00,7A,00,00,00,00,00,
42065139,0022C01E,true,Rx,1,8,C4,0B,40,85,C4,00,A5,05,
42065717,0032C01E,true,Rx,1,8,C0,00,14,00,04,00,60,00,
42066087,00400066,true,Rx,0,8,80,00,00,03,01,5E,40,7F,
42067214,0261300A,true,Rx,0,8,C0,00,00,27,80,00,00,C0,
42069160,00E00020,true,Rx,1,8,04,C0,00,13,05,00,00,00,
42071887,01C030A2,true,Rx,0,8,00,5B,40,01,89,01,14,00,
42072117,00608024,true,Rx,1,8,00,00,00,00,00,01,03,3E,
42072696,01200028,true,Rx,1,8,88,08,00,49,F0,00,30,2D,
42073016,02A03028,true,Rx,0,8,00,9F,81,11,1A,2A,00,00,
42074193,03200008,true,Rx,0,8,00,00,00,00,00,80,00,00,
42077155,0022C01E,true,Rx,1,8,04,0B,40,85,C4,00,A5,05,
42077729,0032C01E,true,Rx,1,8,02,00,94,00,04,00,60,00,
42078286,00B00002,true,Rx,1,8,80,00,A1,63,16,FB,85,F7,
42078865,01100014,true,Rx,1,8,80,00,00,00,00,11,20,00,
42079434,01500006,true,Rx,1,8,05,0E,08,05,2A,69,00,00,
42080002,01700012,true,Rx,1,8,0C,C0,80,00,AA,AA,00,00,
42081824,02001022,true,Rx,0,8,40,00,00,01,35,90,10,43,
42082477,0102C02C,true,Rx,1,8,CF,C1,B7,0D,C0,10,35,D0,
42083127,00613DF8,true,Rx,0,8,83,00,00,20,00,00,00,00,
42084262,01213FFC,true,Rx,0,8,CD,00,5D,00,F0,01,88,00,
42085172,00E00020,true,Rx,1,8,04,C0,00,13,05,00,00,00,
42085738,01600022,true,Rx,1,8,40,00,AA,AA,00,00,00,00,
42086347,0240102A,true,Rx,0,8,03,00,00,00,00,00,00,00,
42087490,0280142A,true,Rx,0,8,40,10,00,20,07,00,00,00,
42089174,0022C01E,true,Rx,1,8,40,0B,40,85,44,00,25,05,
42089739,0032C01E,true,Rx,1,8,40,00,04,00,04,00,60,00,
42092960,01E01266,true,Rx,0,8,00,00,02,00,00,00,40,00,
42095743,0140044A,true,Rx,0,8,00,00,00,09,00,00,00,00,
42096875,0261300A,true,Rx,0,8,00,00,00,27,80,00,00,C0,
42097167,00B00002,true,Rx,1,8,C0,00,A1,63,16,FB,85,F7,
42097745,01100014,true,Rx,1,8,C0,00,00,00,00,11,20,00,
42101166,00E00020,true,Rx,1,8,04,C0,00,13,05,00,00,00,
42101729,0022C01E,true,Rx,1,8,84,0B,40,85,C4,00,A5,05,
42102299,0032C01E,true,Rx,1,8,82,00,94,00,04,00,60,00,
42102679,00613DF8,true,Rx,0,8,C1,00,00,00,00,00,00,00,
42102878,01200028,true,Rx,1,8,C8,00,00,49,F0,00,30,2D,
42103880,01800028,true,Rx,0,8,00,00,7A,00,00,00,00,00,
42105015,03801028,true,Rx,0,8,8E,00,20,08,9C,43,00,00,
42107026,0102C02C,true,Rx,1,8,0F,C1,B7,0D,C0,10,35,D0,
42107651,01213FFC,true,Rx,0,8,0D,00,5D,40,E0,41,88,00,
42108775,02A03028,true,Rx,0,8,00,1F,41,59,1A,2A,00,00,
42109857,02C13428,true,Rx,0,8,C1,02,78,8A,69,CF,20,00,
42110951,02E10DF4,true,Rx,0,8,CF,A9,2F,AC,99,3A,F8,18,
42113149,0022C01E,true,Rx,1,8,C4,0B,40,85,C4,00,A5,05,
42113723,0032C01E,true,Rx,1,8,C0,00,14,00,04,00,60,00,
42116801,0280142A,true,Rx,0,8,81,50,00,20,07,00,00,00,
42117175,00E00020,true,Rx,1,8,04,C0,00,13,05,00,00,00,
42117741,00B00002,true,Rx,1,8,00,00,A1,63,16,FB,85,F7,
42117895,01C030A2,true,Rx,0,8,40,5B,40,01,89,01,14,00,
42118323,01100014,true,Rx,1,8,00,00,00,04,00,11,20,00,
42121280,0240102A,true,Rx,0,8,40,00,00,00,00,00,00,00,
42122947,00613DF8,true,Rx,0,8,03,00,00,20,00,00,00,00,
42125172,0022C01E,true,Rx,1,8,04,0B,40,85,C4,00,A5,05,
42125746,0032C01E,true,Rx,1,8,00,00,14,00,04,00,60,00,
42126551,0261300A,true,Rx,0,8,40,00,00,27,80,00,00,C0,
42127695,02001022,true,Rx,0,8,80,00,00,01,35,90,10,43,
42132004,0102C02C,true,Rx,1,8,4F,C1,B7,0D,C0,10,35,D0,
42132580,01200028,true,Rx,1,8,08,08,00,49,F0,00,30,2D,
42132652,01213FFC,true,Rx,0,8,4D,00,5D,00,F0,01,88,00,
42133162,00E00020,true,Rx,1,8,4C,C0,00,13,05,00,00,00,
42135779,0140044A,true,Rx,0,8,40,00,00,19,00,00,00,00,
42137200,0022C01E,true,Rx,1,8,40,0B,40,85,44,00,25,05,
42137768,0032C01E,true,Rx,1,8,42,00,84,00,04,00,60,00,
42137984,01E01266,true,Rx,0,8,40,00,02,00,00,00,40,00,
42138319,00B00002,true,Rx,1,8,40,00,A1,63,16,FB,85,F7,
42138896,01100014,true,Rx,1,8,40,00,00,00,00,11,20,00,
42139455,01500006,true,Rx,1,8,45,2E,08,85,2A,69,00,00,
42140023,01700012,true,Rx,1,8,4C,C0,80,00,AA,AA,00,00,
42141655,00400066,true,Rx,0,8,C0,00,00,04,01,5E,40,7F,
42143127,00613DF8,true,Rx,0,8,41,00,00,20,00,00,00,00,
42144320,01800028,true,Rx,0,8,40,00,7A,00,00,00,00,00,
42145168,01600022,true,Rx,1,8,81,00,AA,AA,00,00,00,00,
42145437,02A03028,true,Rx,0,8,00,9F,81,51,1A,2A,00,00,
42146789,0280142A,true,Rx,0,8,C0,50,00,20,07,00,00,00,
42146977,00608024,true,Rx,1,8,40,00,00,00,00,01,04,3E,
42149173,00E00020,true,Rx,1,8,34,C0,00,13,05,00,00,00,
42149730,0022C01E,true,Rx,1,8,84,0B,40,85,C4,00,A5,05,
42150307,0032C01E,true,Rx,1,8,80,00,14,00,04,00,60,00,
42156261,0240102A,true,Rx,0,8,81,00,00,00,00,00,00,00,
42156919,0102C02C,true,Rx,1,8,8F,C1,B7,0D,C0,10,35,D0,
42157393,0261300A,true,Rx,0,8,80,00,00,27,80,00,00,C0,
42157479,00B00002,true,Rx,1,8,80,00,A1,63,16,FB,85,F7,
42158057,01100014,true,Rx,1,8,80,00,00,00,00,11,20,00,
42158524,01213FFC,true,Rx,0,8,8D,00,5D,00,F0,01,88,00,
42159679,0360000A,true,Rx,0,8,C0,00,00,00,00,14,00,80,
42160855,04200002,true,Rx,0,8,00,00,00,00,00,00,01,03,
42161188,0022C01E,true,Rx,1,8,C4,0B,40,85,C4,00,A5,05,
42161766,0032C01E,true,Rx,1,8,C0,00,14,00,04,00,60,00,
42161961,01C030A2,true,Rx,0,8,80,5B,40,01,89,01,14,00,
42162350,01200028,true,Rx,1,8,48,08,00,49,F0,00,30,2D,
42163133,00613DF8,true,Rx,0,8,83,00,00,20,00,00,00,00,
42164228,02C13428,true,Rx,0,8,09,02,78,8A,69,CF,20,00,
42165180,00E00020,true,Rx,1,8,04,C0,00,13,05,00,00,00,
42165334,02E10DF4,true,Rx,0,8,0F,A9,0F,2C,99,3A,F8,18,
42166478,0340024C,true,Rx,0,8,C0,00,00,00,04,A8,08,00,
42171874,02001022,true,Rx,0,8,C0,00,00,01,35,90,10,43,
42173182,0022C01E,true,Rx,1,8,04,0B,40,85,C4,00,A5,05,
42173761,0032C01E,true,Rx,1,8,02,00,94,00,04,00,60,00,
42175757,0140044A,true,Rx,0,8,80,00,00,09,10,00,00,00,
42176899,0280142A,true,Rx,0,8,00,10,00,20,07,00,00,00,
42177192,00B00002,true,Rx,1,8,C0,00,A1,63,16,FB,85,F7,
42177770,01100014,true,Rx,1,8,C0,00,00,00,00,11,20,00,
42178017,02A03028,true,Rx,0,8,00,90,81,11,10,2A,00,00,
42179205,03200008,true,Rx,0,8,00,00,00,00,00,80,00,00,
42181174,00E00020,true,Rx,1,8,04,C0,00,13,05,00,00,00,
42182078,0102C02C,true,Rx,1,8,C0,01,B7,0C,C0,10,35,D0,
42182737,00613DF8,true,Rx,0,8,C1,00,00,20,00,00,00,00,
42183883,01213FFC,true,Rx,0,8,CC,00,5D,00,E0,01,88,00,
42185059,01800028,true,Rx,0,8,80,00,7A,00,00,00,00,00,
42185209,0022C01E,true,Rx,1,8,40,0B,40,85,44,00,25,05,
42185775,0032C01E,true,Rx,1,8,40,00,04,00,04,00,60,00,
42186230,01E01266,true,Rx,0,8,80,00,02,00,00,00,40,00,
42187356,0261300A,true,Rx,0,8,C0,00,00,27,80,00,00,C0,
42191249,0240102A,true,Rx,0,8,C1,00,00,00,00,00,00,00,
42192009,01200028,true,Rx,1,8,88,08,00,49,F0,00,30,2D,
42197173,00E00020,true,Rx,1,8,04,C0,00,13,05,00,00,00,
42197726,0022C01E,true,Rx,1,8,84,0B,40,85,C4,00,A5,05,
42198306,0032C01E,true,Rx,1,8,82,00,94,00,04,00,60,00,
42198872,00B00002,true,Rx,1,8,00,00,A1,63,16,FB,85,F7,
42199462,01100014,true,Rx,1,8,00,00,00,04,00,11,20,00,
42200020,01500006,true,Rx,1,8,85,0E,08,05,2A,69,00,00,
42200579,01700012,true,Rx,1,8,8C,C0,80,00,AA,AA,00,00,
42203062,00613DF8,true,Rx,0,8,03,00,00,20,00,00,00,00,
42205165,01600022,true,Rx,1,8,C0,00,AA,AA,00,00,00,00,
42206788,0280142A,true,Rx,0,8,40,50,00,20,07,00,00,00,
42206874,0102C02C,true,Rx,1,8,00,01,B7,0C,C0,11,35,D0,
42207933,01213FFC,true,Rx,0,8,0C,00,5D,00,F0,41,88,00,
42209048,01C030A2,true,Rx,0,8,C0,5B,40,01,89,01,14,00,
42209207,0022C01E,true,Rx,1,8,C4,0B,40,85,C4,00,A5,05,
42209775,0032C01E,true,Rx,1,8,C0,00,14,00,04,00,60,00,
42210208,0140044A,true,Rx,0,8,C0,00,00,09,00,00,00,00,
42212784,02A03028,true,Rx,0,8,00,90,D4,59,10,2A,80,00,
42213179,00E00020,true,Rx,1,8,04,C0,00,13,05,00,00,00,
42216771,02001022,true,Rx,0,8,00,00,00,01,35,90,10,43,
42217214,00B00002,true,Rx,1,8,40,00,A1,63,16,FB,85,F7,
42217792,01100014,true,Rx,1,8,40,00,00,00,00,11,20,00,
42217926,00400066,true,Rx,0,8,00,00,00,05,01,5E,40,7F,
42219063,0261300A,true,Rx,0,8,00,00,00,27,80,00,00,C0,
42220178,02C13428,true,Rx,0,8,41,02,78,8A,69,00,20,00,
42221199,0022C01E,true,Rx,1,8,04,0B,40,85,C4,00,A5,05,
42221293,02E10DF4,true,Rx,0,8,40,A9,20,A0,90,30,08,10,
42221779,0032C01E,true,Rx,1,8,00,00,14,00,04,00,60,00,
42222369,00608024,true,Rx,1,8,80,00,00,00,00,01,05,3E,
42222771,00613DF8,true,Rx,0,8,41,00,00,20,00,00,00,00,
42222943,01200028,true,Rx,1,8,C8,00,00,49,F0,00,30,2D,
42223963,01800028,true,Rx,0,8,C0,00,7A,00,00,00,00,00,
42226356,0240102A,true,Rx,0,8,01,00,00,00,00,00,00,00,
42228073,01E01266,true,Rx,0,8,C0,00,02,00,00,00,40,00,
42229166,00E00020,true,Rx,1,8,4C,C0,00,13,05,00,00,00,
42231914,0102C02C,true,Rx,1,8,40,01,B7,0C,C0,10,35,D0,
42232483,0132C07C,true,Rx,1,8,16,01,43,04,01,02,01,01,
42232565,01213FFC,true,Rx,0,8,4C,00,5D,00,F0,01,88,00,
42233208,0022C01E,true,Rx,1,8,40,0B,40,85,44,00,25,05,
42233703,01613FFC,true,Rx,0,8,16,01,43,04,01,02,01,01,
42233778,0032C01E,true,Rx,1,8,42,00,84,00,04,00,60,00,
42236778,0280142A,true,Rx,0,8,80,50,00,20,07,00,00,00,
42237220,00B00002,true,Rx,1,8,80,00,A1,63,16,FB,85,F7,
42237799,01100014,true,Rx,1,8,80,00,00,00,00,11,20,00,
42242599,00613DF8,true,Rx,0,8,83,00,00,20,00,00,00,00,
42245168,00E00020,true,Rx,1,8,34,C0,00,13,05,00,00,00,
42245730,0022C01E,true,Rx,1,8,84,0B,40,85,C4,00,A5,05,
42246299,0032C01E,true,Rx,1,8,80,00,14,00,04,00,60,00,
42247061,0261300A,true,Rx,0,8,40,00,00,27,80,00,00,C0,
42248188,02A03028,true,Rx,0,8,00,90,84,11,10,2A,00,00,
42250080,0140044A,true,Rx,0,8,00,00,00,19,00,00,00,00,
42251893,01C030A2,true,Rx,0,8,00,5B,40,01,89,01,14,00,
42252031,01200028,true,Rx,1,8,08,08,00,49,F0,00,30,2D,
42256862,0102C02C,true,Rx,1,8,80,01,B7,0C,C0,10,35,D0,
42257406,0022C01E,true,Rx,1,8,C4,0B,40,85,C4,00,A5,05,
42257489,01213FFC,true,Rx,0,8,8C,00,5D,00,E0,01,88,00,
42257985,0032C01E,true,Rx,1,8,C0,00,14,00,04,00,60,00,
42258534,00B00002,true,Rx,1,8,C0,00,A1,63,16,FB,85,F7,
42259115,01100014,true,Rx,1,8,C0,00,00,04,00,11,20,00,
42259673,01500006,true,Rx,1,8,C5,0E,0A,45,2A,69,00,00,
42260231,01700012,true,Rx,1,8,CC,C0,80,00,AA,AA,00,00,
42261171,00E00020,true,Rx,1,8,04,C0,00,13,05,00,00,00,
42261285,0240102A,true,Rx,0,8,40,00,00,00,00,00,00,00,
42262419,02001022,true,Rx,0,8,40,00,00,01,35,90,10,43,
42263586,00613DF8,true,Rx,0,8,C1,00,00,20,00,00,00,00,
42264782,01800028,true,Rx,0,8,00,00,7A,00,00,00,00,00,
42265176,01600022,true,Rx,1,8,01,00,AA,AA,00,00,00,00,
42266773,0280142A,true,Rx,0,8,C0,10,00,28,07,00,00,00,
42269219,0022C01E,true,Rx,1,8,04,0B,40,85,C4,00,A5,05,
42269793,0032C01E,true,Rx,1,8,02,00,94,00,04,00,60,00,
42272706,02C13428,true,Rx,0,8,81,02,78,8A,69,00,20,00,
42273867,01E01266,true,Rx,0,8,00,00,02,00,00,00,40,00,
42275003,02E10DF4,true,Rx,0,8,80,A9,00,20,90,30,08,10,
42277168,00E00020,true,Rx,1,8,04,C0,00,13,05,00,00,00,
42277392,0261300A,true,Rx,0,8,80,00,00,27,80,00,00,C0,
42277734,00B00002,true,Rx,1,8,00,00,A1,63,16,FB,85,F7,
42278323,01100014,true,Rx,1,8,00,00,00,00,00,11,20,00,
42281231,0022C01E,true,Rx,1,8,40,0B,40,85,44,00,25,05,
42281804,0032C01E,true,Rx,1,8,40,00,04,00,04,00,60,00,
42282363,0102C02C,true,Rx,1,8,C0,01,B7,0C,C0,10,35,D0,
42282651,00613DF8,true,Rx,0,8,03,00,00,20,00,00,00,00,
42282923,01200028,true,Rx,1,8,48,08,00,4B,F0,00,30,2D,
42283780,01213FFC,true,Rx,0,8,CC,00,5D,00,F0,01,88,00,
42284894,02A03028,true,Rx,0,8,00,90,84,51,10,2A,00,00,
42286080,03200008,true,Rx,0,8,00,00,00,00,00,80,00,00,
42290071,0140044A,true,Rx,0,8,40,00,00,09,00,00,00,00,
42292389,00400066,true,Rx,0,8,40,00,00,06,01,5E,40,7F,
42293172,00E00020,true,Rx,1,8,04,C0,00,13,05,00,00,00,
42293729,0022C01E,true,Rx,1,8,84,0B,40,85,C4,00,A5,05,
42294309,0032C01E,true,Rx,1,8,82,00,94,00,04,00,60,00,
42296267,0240102A,true,Rx,0,8,81,00,00,00,00,00,00,00,
42297162,00608024,true,Rx,1,8,C0,00,00,00,00,01,06,3E,
42297369,01C030A2,true,Rx,0,8,40,5B,40,01,89,01,14,00,
42297722,00B00002,true,Rx,1,8,40,00,A1,63,16,FB,85,F7,
42298301,01100014,true,Rx,1,8,40,00,00,00,00,11,20,00,
42298509,0280142A,true,Rx,0,8,00,50,00,20,07,00,00,00,
42302661,00613DF8,true,Rx,0,8,41,00,00,20,00,00,00,00,
42303853,01800028,true,Rx,0,8,40,00,7A,00,00,00,00,00,
42305224,0022C01E,true,Rx,1,8,C4,0B,40,85,C4,00,A5,05,
42305792,0032C01E,true,Rx,1,8,C0,00,14,00,04,00,60,00,
42306820,02001022,true,Rx,0,8,80,00,00,01,35,90,10,43,
42307370,0102C02C,true,Rx,1,8,00,01,B7,0C,C0,10,35,D0,
42307956,0261300A,true,Rx,0,8,C0,00,00,27,80,00,00,C0,
42309104,01213FFC,true,Rx,0,8,0C,00,5D,00,E0,41,88,00,
42309168,00E00020,true,Rx,1,8,04,C0,00,13,05,00,00,00,
42311929,01200028,true,Rx,1,8,88,08,00,49,F0,00,30,2D,
42316220,03C0002A,true,Rx,0,8,00,00,30,C0,2D,00,9F,00,
42317240,0022C01E,true,Rx,1,8,04,0B,40,85,C4,00,A5,05,
42317466,02A03028,true,Rx,0,8,00,90,C4,19,10,2A,00,00,
42317819,0032C01E,true,Rx,1,8,00,00,14,00,04,00,60,00,
42318378,00B00002,true,Rx,1,8,80,00,A1,63,16,FB,85,F7,
42318635,01E01266,true,Rx,0,8,40,00,02,00,00,00,40,00,
42318969,01100014,true,Rx,1,8,80,00,00,04,00,11,20,00,
42319538,01500006,true,Rx,1,8,05,0E,08,05,2A,69,00,00,
42320106,01700012,true,Rx,1,8,0C,C0,80,00,AA,AA,00,00,
42323250,00613DF8,true,Rx,0,8,83,00,00,20,00,00,00,00,
42325176,00E00020,true,Rx,1,8,4C,C0,00,13,05,00,00,00,
42325740,01600022,true,Rx,1,8,41,00,AA,AA,00,00,00,00,
42326781,0280142A,true,Rx,0,8,40,50,00,20,07,00,00,00,
42327893,02C13428,true,Rx,0,8,C1,02,78,8A,69,00,20,00,
42329008,02E10DF4,true,Rx,0,8,C0,A9,20,A0,90,30,08,10,
42329260,0022C01E,true,Rx,1,8,40,0B,40,86,44,00,25,05,
42329828,0032C01E,true,Rx,1,8,42,00,84,00,04,00,60,00,
42330179,0140044A,true,Rx,0,8,80,00,00,19,00,00,00,00,
42331343,0240102A,true,Rx,0,8,C1,00,00,00,00,00,00,00,
42332077,0102C02C,true,Rx,1,8,40,01,B7,0C,C0,10,35,D0,
42332707,01213FFC,true,Rx,0,8,4C,00,5D,00,F0,01,88,00,
42337246,00B00002,true,Rx,1,8,C0,00,A1,63,16,FB,85,F7,
42337797,0261300A,true,Rx,0,8,00,00,00,27,80,00,00,C0,
42337821,01100014,true,Rx,1,8,C0,00,00,00,00,11,20,00,
42341181,00E00020,true,Rx,1,8,34,C0,00,13,05,00,00,00,
42341733,0022C01E,true,Rx,1,8,84,0B,40,85,C4,00,A5,05,
42341889,01C030A2,true,Rx,0,8,80,5B,40,01,89,01,14,00,
42342315,0032C01E,true,Rx,1,8,80,00,14,00,04,00,60,00,
42342883,01200028,true,Rx,1,8,C8,00,00,CD,F0,00,30,2D,
42343058,00613DF8,true,Rx,0,8,C1,00,00,00,00,00,00,00,
42344230,01800028,true,Rx,0,8,80,00,7A,00,00,00,00,00,
42345402,0340024C,true,Rx,0,8,00,00,00,00,0C,A8,00,00,
42351844,02001022,true,Rx,0,8,C0,00,00,01,35,90,10,43,
42352954,02A03028,true,Rx,0,8,00,90,84,51,10,2A,00,00,
42353256,0022C01E,true,Rx,1,8,C4,0B,40,85,C4,00,A5,05,
42353824,0032C01E,true,Rx,1,8,C0,00,14,00,04,00,60,00,
42356767,0280142A,true,Rx,0,8,80,10,00,20,07,00,00,00,
42357064,0102C02C,true,Rx,1,8,80,01,B7,0C,C0,10,35,D0,
42357633,00B00002,true,Rx,1,8,00,00,A1,63,16,FB,85,F7,
42357911,01213FFC,true,Rx,0,8,8C,00,5D,00,F0,01,88,00,
42358214,00E00020,true,Rx,1,8,04,C0,00,13,05,00,00,00,
42358803,01100014,true,Rx,1,8,00,00,00,00,00,11,20,00,
42362589,00613DF8,true,Rx,0,8,03,00,00,20,00,00,00,00,
42363760,01E01266,true,Rx,0,8,80,00,06,00,00,00,40,00,
42365255,0022C01E,true,Rx,1,8,04,0B,40,85,C4,00,A5,05,
42365823,0032C01E,true,Rx,1,8,02,00,94,00,04,00,60,00,
42366287,0240102A,true,Rx,0,8,00,00,00,00,00,00,00,00,
42367803,00400066,true,Rx,0,8,80,00,00,07,01,5E,40,7F,
42368934,0261300A,true,Rx,0,8,40,00,00,27,80,00,00,C0,
42370142,0140044A,true,Rx,0,8,C0,00,00,09,00,00,00,00,
42372060,00608024,true,Rx,1,8,00,00,00,00,00,01,07,3E,
42372639,01200028,true,Rx,1,8,08,08,00,49,F0,00,30,2D,
42373215,00E00020,true,Rx,1,8,04,C0,00,13,05,00,00,00,
42377268,0022C01E,true,Rx,1,8,40,0B,40,85,44,00,25,05,
42377841,0032C01E,true,Rx,1,8,40,00,04,00,04,00,60,00,
42378400,00B00002,true,Rx,1,8,40,00,A1,63,16,FB,85,F7,
42378979,01100014,true,Rx,1,8,40,00,00,04,00,11,20,00,
42379528,01500006,true,Rx,1,8,45,2E,08,85,2A,69,00,00,
